(1739001633.726) RX 1C2#59
(1739001633.727) RX 1DB#FC00BFAA00000214
(1739001633.727) RX 1DC#B40F8FFD0520C64C
(1739001633.727) RX 1D4#F7070000474600BC
(1739001633.727) RX 1F2#10640000001E010D
(1739001633.727) RX 284#0000000000001298
(1739001633.728) RX 11A#01400055400002D8
(1739001633.731) RX 1DA#C164180000010325
(1739001633.732) RX 1C2#5A
(1739001633.733) RX 1DB#FC00BFAA00000391
(1739001633.734) RX 1DC#B40F8FFD08C0CB1B
(1739001633.734) RX 55B#CA40AA00E4C013E2
(1739001633.734) RX 5BC#5A032C26B3040080
(1739001633.737) RX 1D4#F707000087460070
(1739001633.737) RX 1F2#10640000001E020E
(1739001633.737) RX 284#0000000000001399
(1739001633.738) RX 11A#014000AA800003CE
(1739001633.738) RX 50C#00000003B29A
(1739001633.741) RX 1DA#C16418000001002F
(1739001633.742) RX 1C2#5B
(1739001633.743) RX 1DB#FC00BFAA0000009B
(1739001633.743) RX 1DC#B40F8FFD0CCCD8E4
(1739001633.747) RX 11A#014000AAC0000003
(1739001633.747) RX 1D4#F7070000C74600B7
(1739001633.747) RX 1F2#10640000001E030F
(1739001633.748) RX 5A9#643C501304300000
(1739001633.751) RX 1DA#C1641800000101AA
(1739001633.752) RX 1C2#5C
(1739001633.753) RX 1DB#FC00BFAA0000011E
(1739001633.753) RX 1DC#B40F8FFD0130C9CE
(1739001633.757) RX 1D4#F70700000746007B
(1739001633.758) RX 1F2#10640000001E000C
(1739001633.758) RX 11A#0140005500000115
(1739001633.758) RX 284#000000000000149A
(1739001633.758) RX 50A#8572A00D8020
(1739001633.760) RX 380#020410210000009E
(1739001633.760) RX 5BF#000000002800002B
(1739001633.761) RX 1DA#C1641800000102A0
(1739001633.762) RX 1C2#5D
(1739001633.763) RX 1DB#FC00BFAA00000214
(1739001633.763) RX 1DC#B40F8FFD0520C64C
(1739001633.767) RX 11A#01400055400002D8
(1739001633.768) RX 1D4#F7070000474600BC
(1739001633.768) RX 1F2#10640000001E010D
(1739001633.771) RX 1DA#C164180000010325
(1739001633.772) RX 1C2#5E
(1739001633.773) RX 1DB#FC00BFAA00000391
(1739001633.774) RX 1DC#B40F8FFD08C0CB1B
(1739001633.778) RX 11A#014000AA800003CE
(1739001633.778) RX 1D4#F707000087460070
(1739001633.778) RX 1F2#10640000001E020E
(1739001633.778) RX 284#000000000000159B
(1739001633.779) RX 50B#000006C00060
(1739001633.781) RX 1DA#C16418000001002F
(1739001633.782) RX 1C2#5F
(1739001633.783) RX 1DB#FC00BFAA0000009B
(1739001633.784) RX 1DC#B40F8FFD0CCCD8E4
(1739001633.787) RX 11A#014000AAC0000003
(1739001633.788) RX 1D4#F7070000C74600B7
(1739001633.788) RX 1F2#10640000001E030F
(1739001633.791) RX 1DA#C1641800000101AA
(1739001633.792) RX 54A#100070062C00002D
(1739001633.792) RX 1C2#50
(1739001633.793) RX 54B#0076981214000000
(1739001633.793) RX 1DB#FC00BFAA0000011E
(1739001633.794) RX 1DC#B40F8FFD0130C9CE
(1739001633.794) RX 54C#6D66400000485A00
(1739001633.795) RX 54F#2301000007938A35
(1739001633.798) RX 11A#0140005500000115
(1739001633.798) RX 1D4#F70700000746007B
(1739001633.799) RX 1F2#10640000001E000C
(1739001633.799) RX 284#000000000000169C
(1739001633.801) RX 1DA#C1641800000102A0
(1739001633.802) RX 1C2#51
(1739001633.803) RX 1DB#FC00BFAA00000214
(1739001633.804) RX 1DC#B40F8FFD0520C64C
(1739001633.807) RX 11A#01400055400002D8
(1739001633.808) RX 1D4#F7070000474600BC
(1739001633.809) RX 1F2#10640000001E010D
(1739001633.811) RX 1DA#C164180000010325
(1739001633.812) RX 1C2#52
(1739001633.813) RX 1DB#FC00BFAA00000391
(1739001633.814) RX 1DC#B40F8FFD08C0CB1B
(1739001633.818) RX 11A#014000AA800003CE
(1739001633.819) RX 1D4#F707000087460070
(1739001633.819) RX 1F2#10640000001E020E
(1739001633.819) RX 284#000000000000179D
(1739001633.819) RX 5B9#67FF67FF28
(1739001633.821) RX 1DA#C16418000001002F
(1739001633.821) RX 55A#003331005F365B68
(1739001633.822) RX 1C2#53
(1739001633.823) RX 1DB#FC00BFAA0000009B
(1739001633.824) RX 1DC#B40F8FFD0CCCD8E4
(1739001633.833) RX 11A#014000AAC0000003
(1739001633.833) RX 1D4#F7070000C74600B7
(1739001633.833) RX 1F2#10640000001E030F
(1739001633.833) RX 1DA#C1641800000101AA
(1739001633.834) RX 1C2#54
(1739001633.834) RX 1DB#FC00BFAA0000011E
(1739001633.834) RX 1DC#B40F8FFD0130C9CE
(1739001633.834) RX 55B#CA40AA00E54010AC
(1739001633.834) RX 5BC#5A032C26B3040080
(1739001633.838) RX 11A#0140005500000115
(1739001633.839) RX 1D4#F70700000746007B
(1739001633.840) RX 1F2#10640000001E000C
(1739001633.840) RX 284#000000000000189E
(1739001633.840) RX 50C#000000005DC8
(1739001633.841) RX 1DA#C1641800000102A0
(1739001633.842) RX 1C2#55
(1739001633.843) RX 1DB#FC00BFAA00000214
(1739001633.844) RX 1DC#B40F8FFD0520C64C
(1739001633.847) RX 11A#01400055400002D8
(1739001633.849) RX 1D4#F7070000474600BC
(1739001633.850) RX 1F2#10640000001E010D
(1739001633.851) RX 1DA#C164180000010325
(1739001633.852) RX 1C2#56
(1739001633.854) RX 1DB#FC00BFAA00000391
(1739001633.854) RX 1DC#B40F8FFD08C0CB1B
(1739001633.858) RX 11A#014000AA800003CE
(1739001633.860) RX 1D4#F707000087460070
(1739001633.860) RX 1F2#10640000001E020E
(1739001633.860) RX 284#000000000000199F
(1739001633.860) RX 380#02041021000000AF
(1739001633.861) RX 50A#8512A00D8020
(1739001633.861) RX 5BF#000000002800003C
(1739001633.861) RX 1DA#C16418000001002F
(1739001633.862) RX 1C2#57
(1739001633.863) RX 1DB#FC00BFAA0000009B
(1739001633.864) RX 1DC#B40F8FFD0CCCD8E4
(1739001633.867) RX 11A#014000AAC0000003
(1739001633.870) RX 1D4#F7070000C74600B7
(1739001633.870) RX 1F2#10640000001E030F
(1739001633.871) RX 1DA#C1641800000101AA
(1739001633.872) RX 1C2#58
(1739001633.874) RX 1DB#FC00BFAA0000011E
(1739001633.874) RX 1DC#B40F8FFD0130C9CE
(1739001633.878) RX 11A#0140005500000115
(1739001633.880) RX 1D4#F70700000746007B
(1739001633.880) RX 1F2#10640000001E000C
(1739001633.881) RX 284#0000000000001AA0
(1739001633.881) RX 50B#000006C00060
(1739001633.881) RX 1DA#C1641800000102A0
(1739001633.882) RX 1C2#59
(1739001633.883) RX 1DB#FC00BFAA00000214
(1739001633.884) RX 1DC#B40F8FFD0520C64C
(1739001633.888) RX 11A#01400055400002D8
(1739001633.890) RX 1D4#F7070000474600BC
(1739001633.891) RX 1F2#10640000001E010D
(1739001633.891) RX 1DA#C164180000010325
(1739001633.892) RX 54A#9E0070062C00002D
(1739001633.892) RX 1C2#5A
(1739001633.893) RX 54B#0076981214000000
(1739001633.894) RX 1DB#FC00BFAA00000391
(1739001633.894) RX 1DC#B40F8FFD08C0CB1B
(1739001633.894) RX 54C#6D66400000485A00
(1739001633.895) RX 54F#2301000007D38A35
(1739001633.898) RX 11A#014000AA800003CE
(1739001633.901) RX 1D4#F707000087460070
(1739001633.901) RX 1F2#10640000001E020E
(1739001633.901) RX 1DA#C16418000001002F
(1739001633.901) RX 284#0000000000001BA1
(1739001633.902) RX 1C2#5B
(1739001633.904) RX 1DB#FC00BFAA0000009B
(1739001633.904) RX 1DC#B40F8FFD0CCCD8E4
(1739001633.907) RX 11A#014000AAC0000003
(1739001633.911) RX 1D4#F7070000C74600B7
(1739001633.911) RX 1DA#C1641800000101AA
(1739001633.911) RX 1F2#10640000001E030F
(1739001633.912) RX 1C2#5C
(1739001633.914) RX 1DB#FC00BFAA0000011E
(1739001633.914) RX 1DC#B40F8FFD0130C9CE
(1739001633.918) RX 11A#0140005500000115
(1739001633.921) RX 1DA#C1641800000102A0
(1739001633.921) RX 1D4#F70700000746007B
(1739001633.922) RX 1F2#10640000001E000C
(1739001633.922) RX 284#0000000000001CA2
(1739001633.922) RX 55A#003331005F365B68
(1739001633.922) RX 1C2#5D
(1739001633.924) RX 1DB#FC00BFAA00000214
(1739001633.924) RX 1DC#B40F8FFD0520C64C
(1739001633.927) RX 11A#01400055400002D8
(1739001633.931) RX 1DA#C164180000010325
(1739001633.931) RX 1D4#F7070000474600BC
(1739001633.932) RX 1F2#10640000001E010D
(1739001633.932) RX 1C2#5E
(1739001633.934) RX 1DB#FC00BFAA00000391
(1739001633.934) RX 1DC#B40F8FFD08C0CB1B
(1739001633.934) RX 55B#CA405500E540116E
(1739001633.935) RX 5BC#5A032C26B3040080
(1739001633.938) RX 11A#014000AA800003CE
(1739001633.941) RX 1DA#C16418000001002F
(1739001633.942) RX 1D4#F707000087460070
(1739001633.942) RX 1F2#10640000001E020E
(1739001633.942) RX 284#0000000000001DA3
(1739001633.942) RX 50C#000000015D5F
(1739001633.943) RX 1C2#5F
(1739001633.944) RX 1DB#FC00BFAA0000009B
(1739001633.944) RX 1DC#B40F8FFD0CCCD8E4
(1739001633.947) RX 11A#014000AAC0000003
(1739001633.951) RX 1DA#C1641800000101AA
(1739001633.952) RX 1D4#F7070000C74600B7
(1739001633.952) RX 1F2#10640000001E030F
(1739001633.952) RX 1C2#50
(1739001633.954) RX 1DB#FC00BFAA0000011E
(1739001633.954) RX 1DC#B40F8FFD0130C9CE
(1739001633.958) RX 11A#0140005500000115
(1739001633.960) RX 380#02041021000000B0
(1739001633.960) RX 5BF#0000000028000009
(1739001633.961) RX 1DA#C1641800000102A0
(1739001633.962) RX 1D4#F70700000746007B
(1739001633.962) RX 1F2#10640000001E000C
(1739001633.963) RX 1C2#51
(1739001633.963) RX 284#0000000000001EA4
(1739001633.963) RX 50A#8532A00D8020
(1739001633.964) RX 1DB#FC00BFAA00000214
(1739001633.964) RX 1DC#B40F8FFD0520C64C
(1739001633.967) RX 11A#01400055400002D8
(1739001633.972) RX 1DA#C164180000010325
(1739001633.972) RX 1D4#F7070000474600BC
(1739001633.973) RX 1C2#52
(1739001633.973) RX 1F2#10640000001E010D
(1739001633.974) RX 1DB#FC00BFAA00000391
(1739001633.974) RX 1DC#B40F8FFD08C0CB1B
(1739001633.978) RX 11A#014000AA800003CE
(1739001633.981) RX 1DA#C16418000001002F
(1739001633.982) RX 1C2#53
(1739001633.983) RX 1D4#F707000087460070
(1739001633.983) RX 1F2#10640000001E020E
(1739001633.983) RX 284#0000000000001FA5
(1739001633.983) RX 50B#000006C00060
(1739001633.984) RX 1DB#FC00BFAA0000009B
(1739001633.984) RX 1DC#B40F8FFD0CCCD8E4
(1739001633.987) RX 11A#014000AAC0000003
(1739001633.991) RX 1DA#C1641800000101AA
(1739001633.992) RX 54A#100070062C00002D
(1739001633.993) RX 1C2#54
(1739001633.993) RX 1D4#F7070000C74600B7
(1739001633.993) RX 1F2#10640000001E030F
(1739001633.993) RX 54B#0076981214000000
(1739001633.994) RX 1DB#FC00BFAA0000011E
(1739001633.994) RX 54C#6D66400000485A00
(1739001633.994) RX 1DC#B40F8FFD0130C9CE
(1739001633.995) RX 54F#2301000007138A35
(1739001633.998) RX 11A#0140005500000115
(1739001634.001) RX 1DA#C1641800000102A0
(1739001634.002) RX 1C2#55
(1739001634.003) RX 1D4#F70700000746007B
(1739001634.003) RX 1F2#10640000001E000C
(1739001634.004) RX 284#00000000000020A6
(1739001634.004) RX 1DB#FC00BFAA00000214
(1739001634.004) RX 1DC#B40F8FFD0520C64C
(1739001634.007) RX 11A#01400055400002D8
(1739001634.011) RX 1DA#C164180000010325
(1739001634.013) RX 1C2#56
(1739001634.013) RX 1D4#F7070000474600BC
(1739001634.014) RX 1F2#10640000001E010D
(1739001634.014) RX 1DB#FC00BFAA00000391
(1739001634.014) RX 1DC#B40F8FFD08C0CB1B
(1739001634.018) RX 11A#014000AA800003CE
(1739001634.021) RX 1DA#C16418000001002F
(1739001634.021) RX 55A#003331005F365B68
(1739001634.023) RX 1C2#57
(1739001634.024) RX 1D4#F707000087460070
(1739001634.024) RX 1F2#10640000001E020E
(1739001634.024) RX 1DB#FC00BFAA0000009B
(1739001634.024) RX 284#00000000000021A7
(1739001634.025) RX 1DC#B40F8FFD0CCCD8E4
(1739001634.027) RX 11A#014000AAC0000003
(1739001634.031) RX 1DA#C1641800000101AA
(1739001634.033) RX 1C2#58
(1739001634.034) RX 1D4#F7070000C74600B7
(1739001634.034) RX 1DB#FC00BFAA0000011E
(1739001634.034) RX 1F2#10640000001E030F
(1739001634.035) RX 1DC#B40F8FFD0130C9CE
(1739001634.035) RX 55B#CA405500E5401264
(1739001634.035) RX 5BC#5A032C26B3040080
(1739001634.038) RX 11A#0140005500000115
(1739001634.041) RX 1DA#C1641800000102A0
(1739001634.043) RX 1C2#59
(1739001634.044) RX 1DB#FC00BFAA00000214
(1739001634.044) RX 1D4#F70700000746007B
(1739001634.045) RX 1DC#B40F8FFD0520C64C
(1739001634.045) RX 1F2#10640000001E000C
(1739001634.045) RX 284#00000000000022A8
(1739001634.045) RX 50C#00000002B20D
(1739001634.045) RX 5C0#804C4C0004A01200
(1739001634.046) RX 5EB#E00FFFFFFFFFFFFF
(1739001634.047) RX 11A#01400055400002D8
(1739001634.051) RX 1DA#C164180000010325
(1739001634.053) RX 1C2#5A
(1739001634.054) RX 1DB#FC00BFAA00000391
(1739001634.054) RX 1D4#F7070000474600BC
(1739001634.055) RX 1DC#B40F8FFD08C0CB1B
(1739001634.055) RX 1F2#10640000001E010D
(1739001634.058) RX 11A#014000AA800003CE
(1739001634.060) RX 380#020410210000008D
(1739001634.060) RX 5BF#000000002800001A
(1739001634.061) RX 1DA#C16418000001002F
(1739001634.063) RX 1C2#5B
(1739001634.064) RX 1DB#FC00BFAA0000009B
(1739001634.064) RX 1DC#B40F8FFD0CCCD8E4
(1739001634.065) RX 1D4#F707000087460070
(1739001634.065) RX 1F2#10640000001E020E
(1739001634.065) RX 284#00000000000023A9
(1739001634.065) RX 50A#8552A00D8020
(1739001634.067) RX 11A#014000AAC0000003
(1739001634.071) RX 1DA#C1641800000101AA
(1739001634.073) RX 1C2#5C
(1739001634.074) RX 1DB#FC00BFAA0000011E
(1739001634.074) RX 1DC#B40F8FFD0130C9CE
(1739001634.075) RX 1D4#F7070000C74600B7
(1739001634.075) RX 1F2#10640000001E030F
(1739001634.078) RX 11A#0140005500000115
(1739001634.081) RX 1DA#C1641800000102A0
(1739001634.083) RX 1C2#5D
(1739001634.084) RX 1DB#FC00BFAA00000214
(1739001634.084) RX 1DC#B40F8FFD0520C64C
(1739001634.085) RX 1D4#F70700000746007B
(1739001634.085) RX 1F2#10640000001E000C
(1739001634.086) RX 284#00000000000024AA
(1739001634.086) RX 50B#000006C00060
(1739001634.088) RX 11A#01400055400002D8
(1739001634.091) RX 1DA#C164180000010325
(1739001634.092) RX 54A#9E0070062C00002D
(1739001634.093) RX 1C2#5E
(1739001634.093) RX 54B#0076981214000000
(1739001634.094) RX 1DB#FC00BFAA00000391
(1739001634.094) RX 54C#6D66400000485A00
(1739001634.095) RX 1DC#B40F8FFD08C0CB1B
(1739001634.095) RX 54F#2301000007538A35
(1739001634.095) RX 1D4#F7070000474600BC
(1739001634.096) RX 1F2#10640000001E010D
(1739001634.098) RX 11A#014000AA800003CE
(1739001634.101) RX 1DA#C16418000001002F
(1739001634.103) RX 1C2#5F
(1739001634.104) RX 1DB#FC00BFAA0000009B
(1739001634.104) RX 1DC#B40F8FFD0CCCD8E4
(1739001634.106) RX 1D4#F707000087460070
(1739001634.106) RX 1F2#10640000001E020E
(1739001634.106) RX 284#00000000000025AB
(1739001634.107) RX 11A#014000AAC0000003
(1739001634.111) RX 1DA#C1641800000101AA
(1739001634.113) RX 1C2#50
(1739001634.114) RX 1DB#FC00BFAA0000011E
(1739001634.114) RX 1DC#B40F8FFD0130C9CE
(1739001634.116) RX 1D4#F7070000C74600B7
(1739001634.116) RX 1F2#10640000001E030F
(1739001634.118) RX 11A#0140005500000115
(1739001634.121) RX 1DA#C1641800000102A0
(1739001634.121) RX 55A#003331005F365B68
(1739001634.123) RX 1C2#51
(1739001634.124) RX 1DB#FC00BFAA00000214
(1739001634.125) RX 1DC#B40F8FFD0520C64C
(1739001634.126) RX 1D4#F70700000746007B
(1739001634.126) RX 1F2#10640000001E000C
(1739001634.127) RX 284#00000000000026AC
(1739001634.127) RX 11A#01400055400002D8
(1739001634.131) RX 1DA#C164180000010325
(1739001634.133) RX 1C2#52
(1739001634.134) RX 1DB#FC00BFAA00000391
(1739001634.135) RX 1DC#B40F8FFD08C0CB1B
(1739001634.135) RX 55B#CA40AA00E5801384
(1739001634.135) RX 5BC#5A032026B2052092
(1739001634.136) RX 1D4#F7070000474600BC
(1739001634.137) RX 1F2#10640000001E010D
(1739001634.138) RX 11A#014000AA800003CE
(1739001634.141) RX 1DA#C16418000001002F
(1739001634.143) RX 1C2#53
(1739001634.144) RX 1DB#FC00BFAA0000009B
(1739001634.145) RX 1DC#B40F8FFD0CCCD8E4
(1739001634.147) RX 1D4#F707000087460070
(1739001634.147) RX 1F2#10640000001E020E
(1739001634.147) RX 11A#014000AAC0000003
(1739001634.147) RX 284#00000000000027AD
(1739001634.148) RX 50C#00000003B29A
(1739001634.151) RX 1DA#C1641800000101AA
(1739001634.153) RX 1C2#54
(1739001634.154) RX 1DB#FC00BFAA0000011E
(1739001634.155) RX 1DC#B40F8FFD0130C9CE
(1739001634.157) RX 1D4#F7070000C74600B7
(1739001634.157) RX 1F2#10640000001E030F
(1739001634.157) RX 284#00000000000028AE
(1739001634.158) RX 11A#0140005500000115
(1739001634.160) RX 380#020410210000009E
(1739001634.160) RX 5BF#000000002800002B
(1739001634.161) RX 1DA#C1641800000102A0
(1739001634.163) RX 1C2#55
(1739001634.164) RX 1DB#FBE0BFAA00000233
(1739001634.165) RX 1DC#B40F8FFD0520C64C
(1739001634.167) RX 1D4#F70700000746007B
(1739001634.167) RX 11A#01400055400002D8
(1739001634.168) RX 1F2#10640000001E000C
(1739001634.168) RX 50A#8572A00D8020
(1739001634.171) RX 1DA#C164180000010325
(1739001634.173) RX 1C2#56
(1739001634.174) RX 1DB#FBE0BFAA000003B6
(1739001634.175) RX 1DC#B40F8FFD08C0CB1B
(1739001634.177) RX 1D4#F7070000474600BC
(1739001634.177) RX 1F2#10640000001E010D
(1739001634.178) RX 11A#014000AA800003CE
(1739001634.178) RX 284#00000000000029AF
(1739001634.181) RX 1DA#C16418000001002F
(1739001634.183) RX 1C2#57
(1739001634.184) RX 1DB#FBE0BFAA000000BC
(1739001634.185) RX 1DC#B40F8FFD0CCCD8E4
(1739001634.187) RX 11A#014000AAC0000003
(1739001634.187) RX 1D4#F707000087460070
(1739001634.188) RX 1F2#10640000001E020E
(1739001634.188) RX 50B#000006C00060
(1739001634.191) RX 1DA#C1641800000101AA
(1739001634.192) RX 54A#100070062C00002D
(1739001634.193) RX 1C2#58
(1739001634.193) RX 54B#0076981214000000
(1739001634.194) RX 54C#6D66400000485A00
(1739001634.194) RX 1DB#FBE0BFAA00000139
(1739001634.195) RX 1DC#B40F8FFD0130C9CE
(1739001634.195) RX 54F#2301000007938A35
(1739001634.198) RX 11A#0140005500000115
(1739001634.198) RX 1D4#F7070000C74600B7
(1739001634.198) RX 1F2#10640000001E030F
(1739001634.198) RX 284#0000000000002AB0
(1739001634.201) RX 1DA#C1641800000102A0
(1739001634.203) RX 1C2#59
(1739001634.204) RX 1DB#FBE0BFAA00000233
(1739001634.205) RX 1DC#B40F8FFD0520C64C
(1739001634.207) RX 11A#01400055400002D8
(1739001634.208) RX 1D4#F70700000746007B
(1739001634.208) RX 1F2#10640000001E000C
(1739001634.211) RX 1DA#C164180000010325
(1739001634.213) RX 1C2#5A
(1739001634.214) RX 1DB#FBE0BFAA000003B6
(1739001634.215) RX 1DC#B40F8FFD08C0CB1B
(1739001634.218) RX 11A#014000AA800003CE
(1739001634.218) RX 1D4#F7070000474600BC
(1739001634.218) RX 1F2#10640000001E010D
(1739001634.219) RX 284#0000000000002BB1
(1739001634.221) RX 1DA#C16418000001002F
(1739001634.221) RX 55A#003331005F365B68
(1739001634.223) RX 1C2#5B
(1739001634.224) RX 1DB#FBE0BFAA000000BC
(1739001634.225) RX 1DC#B40F8FFD0CCCD8E4
(1739001634.227) RX 11A#014000AAC0000003
(1739001634.228) RX 1D4#F707000087460070
(1739001634.229) RX 1F2#10640000001E020E
(1739001634.231) RX 1DA#C1641800000101AA
(1739001634.233) RX 1C2#5C
(1739001634.235) RX 1DB#FBE0BFAA00000139
(1739001634.235) RX 1DC#B40F8FFD0130C9CE
(1739001634.235) RX 55B#CA40AA00E580108E
(1739001634.236) RX 5BC#5A032026B2052092
(1739001634.238) RX 11A#0140005500000115
(1739001634.239) RX 1D4#F7070000C74600B7
(1739001634.239) RX 1F2#10640000001E030F
(1739001634.239) RX 284#0000000000002CB2
(1739001634.241) RX 1DA#C1641800000102A0
(1739001634.243) RX 1C2#5D
(1739001634.244) RX 1DB#FBE0BFAA00000233
(1739001634.245) RX 1DC#B40F8FFD0520C64C
(1739001634.248) RX 11A#01400055400002D8
(1739001634.249) RX 1D4#F70700000746007B
(1739001634.249) RX 1F2#10640000001E000C
(1739001634.249) RX 50C#000000005DC8
(1739001634.251) RX 1DA#C164180000010325
(1739001634.253) RX 1C2#5E
(1739001634.255) RX 1DB#FBE0BFAA000003B6
(1739001634.255) RX 1DC#B40F8FFD08C0CB1B
(1739001634.258) RX 11A#014000AA800003CE
(1739001634.259) RX 1D4#F7070000474600BC
(1739001634.259) RX 1F2#10640000001E010D
(1739001634.260) RX 284#0000000000002DB3
(1739001634.260) RX 5A9#643C501304300000
(1739001634.260) RX 380#02041021000000AF
(1739001634.261) RX 5BF#000000002800003C
(1739001634.261) RX 1DA#C16418000001002F
(1739001634.263) RX 1C2#5F
(1739001634.265) RX 1DB#FBE0BFAA000000BC
(1739001634.265) RX 1DC#B40F8FFD0CCCD8E4
(1739001634.267) RX 11A#014000AAC0000003
(1739001634.270) RX 1D4#F707000087460070
(1739001634.270) RX 1F2#10640000001E020E
(1739001634.270) RX 50A#8512A00D8020
(1739001634.271) RX 1DA#C1641800000101AA
(1739001634.273) RX 1C2#50
(1739001634.275) RX 1DB#FBE0BFAA00000139
(1739001634.275) RX 1DC#B40F8FFD0130C9CE
(1739001634.278) RX 11A#0140005500000115
(1739001634.280) RX 1D4#F7070000C74600B7
(1739001634.280) RX 1F2#10640000001E030F
(1739001634.280) RX 284#0000000000002EB4
(1739001634.281) RX 1DA#C1641800000102A0
(1739001634.283) RX 1C2#51
(1739001634.285) RX 1DB#FBE0BFAA00000233
(1739001634.285) RX 1DC#B40F8FFD0520C64C
(1739001634.287) RX 11A#01400055400002D8
(1739001634.290) RX 1D4#F70700000746007B
(1739001634.290) RX 1F2#10640000001E000C
(1739001634.290) RX 50B#000006C00060
(1739001634.291) RX 1DA#C164180000010325
(1739001634.292) RX 54A#9E0070062C00002D
(1739001634.293) RX 54B#0076981214000000
(1739001634.293) RX 1C2#52
(1739001634.294) RX 54C#6D66400000485A00
(1739001634.295) RX 1DB#FBE0BFAA000003B6
(1739001634.295) RX 1DC#B40F8FFD08C0CB1B
(1739001634.295) RX 54F#2301000007D38A35
(1739001634.298) RX 11A#014000AA800003CE
(1739001634.300) RX 1D4#F7070000474600BC
(1739001634.300) RX 1F2#10640000001E010D
(1739001634.301) RX 284#0000000000002FB5
(1739001634.301) RX 1DA#C16418000001002F
(1739001634.303) RX 1C2#53
(1739001634.305) RX 1DB#FC00BFAA0000009B
(1739001634.305) RX 1DC#B40F8FFD0CCCD8E4
(1739001634.307) RX 11A#014000AAC0000003
(1739001634.310) RX 1D4#F707000087460070
(1739001634.311) RX 1F2#10640000001E020E
(1739001634.311) RX 1DA#C1641800000101AA
(1739001634.313) RX 1C2#54
(1739001634.315) RX 1DB#FC00BFAA0000011E
(1739001634.315) RX 1DC#B40F8FFD0130C9CE
(1739001634.318) RX 11A#0140005500000115
(1739001634.321) RX 1D4#F7070000C74600B7
(1739001634.321) RX 1F2#10640000001E030F
(1739001634.321) RX 1DA#C1641800000102A0
(1739001634.321) RX 284#00000000000030B6
(1739001634.322) RX 55A#003331005F365B68
(1739001634.323) RX 1C2#55
(1739001634.325) RX 1DB#FC00BFAA00000214
(1739001634.325) RX 1DC#B40F8FFD0520C64C
(1739001634.327) RX 11A#01400055400002D8
(1739001634.331) RX 1D4#F70700000746007B
(1739001634.331) RX 1DA#C164180000010325
(1739001634.331) RX 1F2#10640000001E000C
(1739001634.332) RX 5B9#67FF67FF28
(1739001634.333) RX 1C2#56
(1739001634.335) RX 1DB#FC00BFAA00000391
(1739001634.335) RX 1DC#B40F8FFD08C0CB1B
(1739001634.336) RX 55B#CA405500E580114C
(1739001634.336) RX 5BC#5A032026B2052092
(1739001634.338) RX 11A#014000AA800003CE
(1739001634.341) RX 1DA#C16418000001002F
(1739001634.341) RX 1D4#F7070000474600BC
(1739001634.342) RX 1F2#10640000001E010D
(1739001634.342) RX 284#00000000000031B7
(1739001634.343) RX 1C2#57
(1739001634.345) RX 1DB#FC00BFAA0000009B
(1739001634.345) RX 1DC#B40F8FFD0CCCD8E4
(1739001634.347) RX 11A#014000AAC0000003
(1739001634.351) RX 1DA#C1641800000101AA
(1739001634.351) RX 1D4#F707000087460070
(1739001634.352) RX 1F2#10640000001E020E
(1739001634.352) RX 50C#00000001B231
(1739001634.353) RX 1C2#58
(1739001634.355) RX 1DB#FC00BFAA0000011E
(1739001634.355) RX 1DC#B40F8FFD0130C9CE
(1739001634.358) RX 11A#0140005500000115
(1739001634.360) RX 380#02041021000000B0
(1739001634.361) RX 5BF#0000000028000009
(1739001634.361) RX 1DA#C1641800000102A0
(1739001634.362) RX 1D4#F7070000C74600B7
(1739001634.362) RX 1F2#10640000001E030F
(1739001634.362) RX 284#00000000000032B8
(1739001634.363) RX 1C2#59
(1739001634.365) RX 1DB#FC00BFAA00000214
(1739001634.365) RX 1DC#B40F8FFD0520C64C
(1739001634.367) RX 11A#01400055400002D8
(1739001634.371) RX 1DA#C164180000010325
(1739001634.372) RX 1D4#F70700000746007B
(1739001634.372) RX 1F2#10640000001E000C
(1739001634.372) RX 50A#8532A00D8020
(1739001634.373) RX 1C2#5A
(1739001634.375) RX 1DB#FC00BFAA00000391
(1739001634.375) RX 1DC#B40F8FFD08C0CB1B
(1739001634.378) RX 11A#014000AA800003CE
(1739001634.381) RX 1DA#C16418000001002F
(1739001634.382) RX 1D4#F7070000474600BC
(1739001634.382) RX 1F2#10640000001E010D
(1739001634.383) RX 284#00000000000033B9
(1739001634.384) RX 1C2#5B
(1739001634.385) RX 1DB#FBE0BFAA000000BC
(1739001634.385) RX 1DC#B40F8FFD0CCCD8E4
(1739001634.387) RX 11A#014000AAC0000003
(1739001634.391) RX 1DA#C1641800000101AA
(1739001634.392) RX 1D4#F707000087460070
(1739001634.393) RX 1F2#10640000001E020E
(1739001634.393) RX 50B#000006C00060
(1739001634.393) RX 54A#100070062C00002D
(1739001634.394) RX 1C2#5C
(1739001634.394) RX 54B#0076981214000000
(1739001634.395) RX 1DB#FBE0BFAA00000139
(1739001634.395) RX 1DC#B40F8FFD0130C9CE
(1739001634.395) RX 54C#6D66400000485A00
(1739001634.396) RX 54F#2301000007138A35
(1739001634.398) RX 11A#0140005500000115
(1739001634.401) RX 1DA#C1641800000102A0
(1739001634.403) RX 1D4#F7070000C74600B7
(1739001634.403) RX 1F2#10640000001E030F
(1739001634.403) RX 284#00000000000034BA
(1739001634.404) RX 1C2#5D
(1739001634.405) RX 1DB#FBE0BFAA00000233
(1739001634.405) RX 1DC#B40F8FFD0520C64C
(1739001634.407) RX 11A#01400055400002D8
(1739001634.411) RX 1DA#C164180000010325
(1739001634.413) RX 1D4#F70700000746007B
(1739001634.413) RX 1F2#10640000001E000C
(1739001634.413) RX 1C2#5E
(1739001634.415) RX 1DB#FBE0BFAA000003B6
(1739001634.415) RX 1DC#B40F8FFD08C0CB1B
(1739001634.418) RX 11A#014000AA800003CE
(1739001634.421) RX 1DA#C16418000001002F
(1739001634.421) RX 55A#003331005F365B68
(1739001634.423) RX 1D4#F7070000474600BC
(1739001634.423) RX 1F2#10640000001E010D
(1739001634.424) RX 284#00000000000035BB
(1739001634.424) RX 1C2#5F
(1739001634.425) RX 1DB#FBE0BFAA000000BC
(1739001634.425) RX 1DC#B40F8FFD0CCCD8E4
(1739001634.427) RX 11A#014000AAC0000003
(1739001634.431) RX 1DA#C1641800000101AA
(1739001634.433) RX 1D4#F707000087460070
(1739001634.434) RX 1F2#10640000001E020E
(1739001634.434) RX 1C2#50
(1739001634.435) RX 1DB#FBE0BFAA00000139
(1739001634.436) RX 1DC#B40F8FFD0130C9CE
(1739001634.436) RX 55B#CA40AA00E5801201
(1739001634.436) RX 5BC#5A032026B2052092
(1739001634.438) RX 11A#0140005500000115
(1739001634.441) RX 1DA#C1641800000102A0
(1739001634.444) RX 1C2#51
(1739001634.444) RX 1D4#F7070000C74600B7
(1739001634.444) RX 1F2#10640000001E030F
(1739001634.444) RX 284#00000000000036BC
(1739001634.445) RX 1DB#FBE0BFAA00000233
(1739001634.446) RX 1DC#B40F8FFD0520C64C
(1739001634.447) RX 11A#01400055400002D8
(1739001634.451) RX 1DA#C164180000010325
(1739001634.454) RX 1C2#52
(1739001634.454) RX 1D4#F70700000746007B
(1739001634.454) RX 1F2#10640000001E000C
(1739001634.454) RX 50C#000000025D63
(1739001634.455) RX 1DB#FBE0BFAA000003B6
(1739001634.456) RX 1DC#B40F8FFD08C0CB1B
(1739001634.458) RX 11A#014000AA800003CE
(1739001634.461) RX 380#020410210000008D
(1739001634.461) RX 5BF#000000002800001A
(1739001634.461) RX 1DA#C16418000001002F
(1739001634.464) RX 1C2#53
(1739001634.464) RX 1D4#F7070000474600BC
(1739001634.464) RX 1F2#10640000001E010D
(1739001634.465) RX 284#00000000000037BD
(1739001634.465) RX 1DB#FBE0BFAA000000BC
(1739001634.466) RX 1DC#B40F8FFD0CCCD8E4
(1739001634.467) RX 11A#014000AAC0000003
(1739001634.471) RX 1DA#C1641800000101AA
(1739001634.474) RX 1C2#54
(1739001634.474) RX 1D4#F707000087460070
(1739001634.475) RX 1F2#10640000001E020E
(1739001634.475) RX 50A#8552A00D8020
(1739001634.475) RX 1DB#FBE0BFAA00000139
(1739001634.476) RX 1DC#B40F8FFD0130C9CE
(1739001634.478) RX 11A#0140005500000115
(1739001634.481) RX 1DA#C1641800000102A0
(1739001634.484) RX 1C2#55
(1739001634.485) RX 1D4#F7070000C74600B7
(1739001634.485) RX 1F2#10640000001E030F
(1739001634.485) RX 284#00000000000038BE
(1739001634.485) RX 1DB#FBE0BFAA00000233
(1739001634.486) RX 1DC#B40F8FFD0520C64C
(1739001634.487) RX 11A#01400055400002D8
(1739001634.491) RX 1DA#C164180000010325
(1739001634.492) RX 54A#9E0070062C00002D
(1739001634.493) RX 54B#0076981214000000
(1739001634.494) RX 1C2#56
(1739001634.494) RX 54C#6D66400000485A00
(1739001634.495) RX 1D4#F70700000746007B
(1739001634.495) RX 1F2#10640000001E000C
(1739001634.495) RX 1DB#FBE0BFAA000003B6
(1739001634.496) RX 50B#000006C00060
(1739001634.496) RX 54F#2301000007538A35
(1739001634.496) RX 1DC#B40F8FFD08C0CB1B
(1739001634.498) RX 11A#014000AA800003CE
(1739001634.501) RX 1DA#C16418000001002F
(1739001634.504) RX 1C2#57
(1739001634.505) RX 1D4#F7070000474600BC
(1739001634.505) RX 1DB#FBE0BFAA000000BC
(1739001634.506) RX 1F2#10640000001E010D
(1739001634.506) RX 1DC#B40F8FFD0CCCD8E4
(1739001634.506) RX 284#00000000000039BF
(1739001634.507) RX 11A#014000AAC0000003
(1739001634.511) RX 1DA#C1641800000101AA
(1739001634.514) RX 1C2#58
(1739001634.515) RX 1D4#F707000087460070
(1739001634.516) RX 1DB#FBE0BFAA00000139
(1739001634.516) RX 1F2#10640000001E020E
(1739001634.516) RX 1DC#B40F8FFD0130C9CE
(1739001634.518) RX 11A#0140005500000115
(1739001634.521) RX 1DA#C1641800000102A0
(1739001634.521) RX 55A#003331005F365B68
(1739001634.524) RX 1C2#59
(1739001634.525) RX 1DB#FBE0BFAA00000233
(1739001634.526) RX 1D4#F7070000C74600B7
(1739001634.526) RX 1DC#B40F8FFD0520C64C
(1739001634.526) RX 1F2#10640000001E030F
(1739001634.526) RX 284#0000000000003AC0
(1739001634.527) RX 11A#01400055400002D8
(1739001634.531) RX 1DA#C164180000010325
(1739001634.534) RX 1C2#5A
(1739001634.535) RX 1DB#FBE0BFAA000003B6
(1739001634.536) RX 1DC#B40F8FFD08C0CB1B
(1739001634.536) RX 1D4#F70700000746007B
(1739001634.536) RX 1F2#10640000001E000C
(1739001634.536) RX 55B#CA405500E58013C3
(1739001634.537) RX 5BC#5A032026B2052092
(1739001634.538) RX 11A#014000AA800003CE
(1739001634.541) RX 1DA#C16418000001002F
(1739001634.544) RX 1C2#5B
(1739001634.545) RX 1DB#FBE0BFAA000000BC
(1739001634.546) RX 1DC#B40F8FFD0CCCD8E4
(1739001634.546) RX 1D4#F7070000474600BC
(1739001634.546) RX 1F2#10640000001E010D
(1739001634.547) RX 284#0000000000003BC1
(1739001634.547) RX 11A#014000AAC0000003
(1739001634.547) RX 5C0#404C4C0004E41200
(1739001634.547) RX 5EB#E00FFFFFFFFFFFFF
(1739001634.551) RX 1DA#C1641800000101AA
(1739001634.554) RX 1C2#5C
(1739001634.555) RX 1DB#FBE0BFAA00000139
(1739001634.556) RX 1DC#B40F8FFD0130C9CE
(1739001634.556) RX 1D4#F707000087460070
(1739001634.557) RX 1F2#10640000001E020E
(1739001634.557) RX 50C#00000003B29A
(1739001634.558) RX 11A#0140005500000115
(1739001634.561) RX 380#020410210000009E
(1739001634.561) RX 5BF#000000002800002B
(1739001634.561) RX 1DA#C1641800000102A0
(1739001634.564) RX 1C2#5D
(1739001634.565) RX 1DB#FBE0BFAA00000233
(1739001634.566) RX 1DC#B40F8FFD0520C64C
(1739001634.567) RX 1D4#F7070000C74600B7
(1739001634.567) RX 1F2#10640000001E030F
(1739001634.567) RX 284#0000000000003CC2
(1739001634.567) RX 11A#01400055400002D8
(1739001634.571) RX 1DA#C164180000010325
(1739001634.574) RX 1C2#5E
(1739001634.576) RX 1DB#FBE0BFAA000003B6
(1739001634.576) RX 1DC#B40F8FFD08C0CB1B
(1739001634.577) RX 1D4#F70700000746007B
(1739001634.577) RX 1F2#10640000001E000C
(1739001634.577) RX 284#0000000000003DC3
(1739001634.577) RX 50A#8572A00D8020
(1739001634.578) RX 11A#014000AA800003CE
(1739001634.581) RX 1DA#C16418000001002F
(1739001634.584) RX 1C2#5F
(1739001634.585) RX 1DB#FC00BFAA0000009B
(1739001634.586) RX 1DC#B40F8FFD0CCCD8E4
(1739001634.587) RX 11A#014000AAC0000003
(1739001634.587) RX 1D4#F7070000474600BC
(1739001634.587) RX 1F2#10640000001E010D
(1739001634.591) RX 1DA#C1641800000101AA
(1739001634.593) RX 54A#100070062C00002D
(1739001634.594) RX 54B#0076981214000000
(1739001634.594) RX 1C2#50
(1739001634.595) RX 54C#6D66400000485A00
(1739001634.595) RX 54F#2301000007938A35
(1739001634.596) RX 1DB#FC00BFAA0000011E
(1739001634.596) RX 1DC#B40F8FFD0130C9CE
(1739001634.597) RX 1D4#F707000087460070
(1739001634.598) RX 11A#0140005500000115
(1739001634.598) RX 1F2#10640000001E020E
(1739001634.598) RX 284#0000000000003EC4
(1739001634.598) RX 50B#000006C00060
(1739001634.601) RX 1DA#C1641800000102A0
(1739001634.604) RX 1C2#51
(1739001634.605) RX 1DB#FC00BFAA00000214
(1739001634.606) RX 1DC#B40F8FFD0520C64C
(1739001634.607) RX 11A#01400055400002D8
(1739001634.607) RX 1D4#F7070000C74600B7
(1739001634.608) RX 1F2#10640000001E030F
(1739001634.611) RX 1DA#C164180000010325
(1739001634.614) RX 1C2#52
(1739001634.616) RX 1DB#FC00BFAA00000391
(1739001634.616) RX 1DC#B40F8FFD08C0CB1B
(1739001634.618) RX 11A#014000AA800003CE
(1739001634.618) RX 1D4#F70700000746007B
(1739001634.618) RX 1F2#10640000001E000C
(1739001634.618) RX 284#0000000000003FC5
(1739001634.621) RX 1DA#C16418000001002F
(1739001634.621) RX 55A#003331005F365B68
(1739001634.624) RX 1C2#53
(1739001634.626) RX 1DB#FC00BFAA0000009B
(1739001634.626) RX 1DC#B40F8FFD0CCCD8E4
(1739001634.627) RX 11A#014000AAC0000003
(1739001634.628) RX 1D4#F7070000474600BC
(1739001634.628) RX 1F2#10640000001E010D
(1739001634.631) RX 1DA#C1641800000101AA
(1739001634.634) RX 1C2#54
(1739001634.636) RX 1DB#FC00BFAA0000011E
(1739001634.636) RX 1DC#B40F8FFD0130C9CE
(1739001634.636) RX 55B#CA40AA00E5001031
(1739001634.637) RX 5BC#5A032C26B3054074
(1739001634.638) RX 11A#0140005500000115
(1739001634.638) RX 1D4#F707000087460070
(1739001634.638) RX 1F2#10640000001E020E
(1739001634.639) RX 284#00000000000040C6
(1739001634.641) RX 1DA#C1641800000102A0
(1739001634.644) RX 1C2#55
(1739001634.646) RX 1DB#FC00BFAA00000214
(1739001634.646) RX 1DC#B40F8FFD0520C64C
(1739001634.647) RX 11A#01400055400002D8
(1739001634.648) RX 1D4#F7070000C74600B7
(1739001634.649) RX 1F2#10640000001E030F
(1739001634.651) RX 1DA#C164180000010325
(1739001634.654) RX 1C2#56
(1739001634.656) RX 1DB#FC00BFAA00000391
(1739001634.656) RX 1DC#B40F8FFD08C0CB1B
(1739001634.658) RX 11A#014000AA800003CE
(1739001634.659) RX 1D4#F70700000746007B
(1739001634.659) RX 1F2#10640000001E000C
(1739001634.659) RX 284#00000000000041C7
(1739001634.659) RX 50C#000000005DC8
(1739001634.661) RX 380#02041021000000AF
(1739001634.661) RX 5BF#000000002800003C
(1739001634.661) RX 1DA#C16418000001002F
(1739001634.664) RX 1C2#57
(1739001634.666) RX 1DB#FC00BFAA0000009B
(1739001634.666) RX 1DC#B40F8FFD0CCCD8E4
(1739001634.667) RX 11A#014000AAC0000003
(1739001634.669) RX 1D4#F7070000474600BC
(1739001634.669) RX 1F2#10640000001E010D
(1739001634.671) RX 1DA#C1641800000101AA
(1739001634.674) RX 1C2#58
(1739001634.656) RX 1DB#FC00BFAA00000391
(1739001634.656) RX 1DC#B40F8FFD08C0CB1B
(1739001634.658) RX 11A#014000AA800003CE
(1739001634.659) RX 1D4#F70700000746007B
(1739001634.659) RX 1F2#10640000001E000C
(1739001634.659) RX 284#00000000000041C7
(1739001634.659) RX 50C#000(1739001634.676) RX 1DB#FC00BFAA0000011E
(1739001634.676) RX 1DC#B40F8FFD0130C9CE
(1739001634.678) RX 11A#0140005500000115
(1739001634.679) RX 1D4#F707000087460070
(1739001634.679) RX 1F2#10640000001E020E
(1739001634.680) RX 284#00000000000042C8
(1739001634.680) RX 50A#8512A00D8020
(1739001634.681) RX 1DA#C1641800000102A0
(1739001634.684) RX 1C2#59
(1739001634.686) RX 1DB#FC00BFAA00000214
(1739001634.686) RX 1DC#B40F8FFD0520C64C
(1739001634.687) RX 11A#01400055400002D8
(1739001634.689) RX 1D4#F7070000C74600B7
(1739001634.690) RX 1F2#10640000001E030F
(1739001634.691) RX 1DA#C164180000010325
(1739001634.693) RX 54A#9E0070062C00002D
(1739001634.694) RX 54B#0076981214000000
(1739001634.694) RX 1C2#5A
(1739001634.695) RX 54C#6D66400000485A00
(1739001634.696) RX 54F#2301000007D38A35
(1739001634.696) RX 1DB#FC00BFAA00000391
(1739001634.696) RX 1DC#B40F8FFD08C0CB1B
(1739001634.698) RX 11A#014000AA800003CE
(1739001634.700) RX 1D4#F70700000746007B
(1739001634.700) RX 1F2#10640000001E000C
(1739001634.700) RX 284#00000000000043C9
(1739001634.700) RX 50B#000006C00060
(1739001634.701) RX 1DA#C16418000001002F
(1739001634.704) RX 1C2#5B
(1739001634.706) RX 1DB#FC00BFAA0000009B
(1739001634.706) RX 1DC#B40F8FFD0CCCD8E4
(1739001634.707) RX 11A#014000AAC0000003
(1739001634.710) RX 1D4#F7070000474600BC
(1739001634.710) RX 1F2#10640000001E010D
(1739001634.711) RX 1DA#C1641800000101AA
(1739001634.714) RX 1C2#5C
(1739001634.716) RX 1DB#FC00BFAA0000011E
(1739001634.716) RX 1DC#B40F8FFD0130C9CE
(1739001634.718) RX 11A#0140005500000115
(1739001634.720) RX 1D4#F707000087460070
(1739001634.720) RX 1F2#10640000001E020E
(1739001634.721) RX 284#00000000000044CA
(1739001634.721) RX 1DA#C1641800000102A0
(1739001634.721) RX 55A#003331005F365B68
(1739001634.724) RX 1C2#5D
(1739001634.726) RX 1DB#FC00BFAA00000214
(1739001634.726) RX 1DC#B40F8FFD0520C64C
(1739001634.727) RX 11A#01400055400002D8
(1739001634.730) RX 1D4#F7070000C74600B7
(1739001634.731) RX 1F2#10640000001E030F
(1739001634.731) RX 1DA#C164180000010325
(1739001634.734) RX 1C2#5E
(1739001634.736) RX 1DB#FC00BFAA00000391
(1739001634.736) RX 1DC#B40F8FFD08C0CB1B
(1739001634.737) RX 55B#CA405500E50011F3
(1739001634.737) RX 5BC#5A032C26B3054074
(1739001634.738) RX 11A#014000AA800003CE
(1739001634.741) RX 1D4#F70700000746007B
(1739001634.741) RX 1F2#10640000001E000C
(1739001634.741) RX 1DA#C16418000001002F
(1739001634.741) RX 284#00000000000045CB
(1739001634.744) RX 1C2#5F
(1739001634.746) RX 1DB#FC00BFAA0000009B
(1739001634.746) RX 1DC#B40F8FFD0CCCD8E4
(1739001634.747) RX 11A#014000AAC0000003
(1739001634.751) RX 1D4#F7070000474600BC
(1739001634.751) RX 1DA#C1641800000101AA
(1739001634.751) RX 1F2#10640000001E010D
(1739001634.754) RX 1C2#50
(1739001634.756) RX 1DB#FC00BFAA0000011E
(1739001634.756) RX 1DC#B40F8FFD0130C9CE
(1739001634.758) RX 11A#0140005500000115
(1739001634.761) RX 380#02041021000000B0
(1739001634.761) RX 1DA#C1641800000102A0
(1739001634.761) RX 1D4#F707000087460070
(1739001634.762) RX 1F2#10640000001E020E
(1739001634.762) RX 284#00000000000046CC
(1739001634.762) RX 50C#00000001B231
(1739001634.762) RX 5BF#0000000028000009
(1739001634.764) RX 1C2#51
(1739001634.766) RX 1DB#FC00BFAA00000214
(1739001634.766) RX 1DC#B40F8FFD0520C64C
(1739001634.767) RX 11A#01400055400002D8
(1739001634.771) RX 1DA#C164180000010325
(1739001634.771) RX 1D4#F7070000C74600B7
(1739001634.772) RX 1F2#10640000001E030F
(1739001634.772) RX 5A9#643C501304300000
(1739001634.774) RX 1C2#52
(1739001634.776) RX 1DB#FC00BFAA00000391
(1739001634.776) RX 1DC#B40F8FFD08C0CB1B
(1739001634.778) RX 11A#014000AA800003CE
(1739001634.781) RX 1DA#C16418000001002F
(1739001634.782) RX 1D4#F70700000746007B
(1739001634.782) RX 1F2#10640000001E000C
(1739001634.782) RX 284#00000000000047CD
(1739001634.782) RX 50A#8532A00D8020
(1739001634.784) RX 1C2#53
(1739001634.786) RX 1DB#FC00BFAA0000009B
(1739001634.786) RX 1DC#B40F8FFD0CCCD8E4
(1739001634.787) RX 11A#014000AAC0000003
(1739001634.791) RX 1DA#C1641800000101AA
(1739001634.792) RX 1D4#F7070000474600BC
(1739001634.792) RX 1F2#10640000001E010D
(1739001634.793) RX 54A#100070062C00002D
(1739001634.794) RX 54B#0076981214000000
(1739001634.794) RX 1C2#54
(1739001634.795) RX 54C#6D66400000485A00
(1739001634.796) RX 54F#2301000007138A35
(1739001634.796) RX 1DB#FC00BFAA0000011E
(1739001634.796) RX 1DC#B40F8FFD0130C9CE
(1739001634.798) RX 11A#0140005500000115
(1739001634.801) RX 1DA#C1641800000102A0
(1739001634.802) RX 1D4#F707000087460070
(1739001634.802) RX 1F2#10640000001E020E
(1739001634.803) RX 284#00000000000048CE
(1739001634.803) RX 50B#000006C00060
(1739001634.804) RX 1C2#55
(1739001634.806) RX 1DB#FC00BFAA00000214
(1739001634.806) RX 1DC#B40F8FFD0520C64C
(1739001634.807) RX 11A#01400055400002D8
(1739001634.811) RX 1DA#C164180000010325
(1739001634.812) RX 1D4#F7070000C74600B7
(1739001634.813) RX 1F2#10640000001E030F
(1739001634.814) RX 1C2#56
(1739001634.816) RX 1DB#FC00BFAA00000391
(1739001634.816) RX 1DC#B40F8FFD08C0CB1B
(1739001634.818) RX 11A#014000AA800003CE
(1739001634.821) RX 1DA#C16418000001002F
(1739001634.821) RX 55A#003331005F365B68
(1739001634.823) RX 1D4#F70700000746007B
(1739001634.823) RX 1F2#10640000001E000C
(1739001634.823) RX 284#00000000000049CF
(1739001634.824) RX 1C2#57
(1739001634.826) RX 1DB#FC00BFAA0000009B
(1739001634.826) RX 1DC#B40F8FFD0CCCD8E4
(1739001634.827) RX 11A#014000AAC0000003
(1739001634.831) RX 1DA#C1641800000101AA
(1739001634.833) RX 1D4#F7070000474600BC
(1739001634.833) RX 1F2#10640000001E010D
(1739001634.834) RX 1C2#58
(1739001634.836) RX 1DB#FC00BFAA0000011E
(1739001634.837) RX 1DC#B40F8FFD0130C9CE
(1739001634.837) RX 55B#CA40AA00E44012D8
(1739001634.837) RX 5BC#5A032C26B3054074
(1739001634.838) RX 11A#0140005500000115
(1739001634.841) RX 1DA#C1641800000102A0
(1739001634.843) RX 1D4#F707000087460070
(1739001634.843) RX 1F2#10640000001E020E
(1739001634.844) RX 284#0000000000004AD0
(1739001634.844) RX 5B9#67FF67FF28
(1739001634.845) RX 1C2#59
(1739001634.846) RX 1DB#FC00BFAA00000214
(1739001634.846) RX 1DC#B40F8FFD0520C64C
(1739001634.847) RX 11A#01400055400002D8
(1739001634.851) RX 1DA#C164180000010325
(1739001634.853) RX 1D4#F7070000C74600B7
(1739001634.854) RX 1F2#10640000001E030F
(1739001634.854) RX 1C2#5A
(1739001634.856) RX 1DB#FC00BFAA00000391
(1739001634.857) RX 1DC#B40F8FFD08C0CB1B
(1739001634.858) RX 11A#014000AA800003CE
(1739001634.861) RX 380#020410210000008D
(1739001634.861) RX 1DA#C16418000001002F
(1739001634.861) RX 5BF#000000002800001A
(1739001634.864) RX 1D4#F70700000746007B
(1739001634.864) RX 1F2#10640000001E000C
(1739001634.864) RX 284#0000000000004BD1
(1739001634.864) RX 50C#000000025D63
(1739001634.865) RX 1C2#5B
(1739001634.866) RX 1DB#FC00BFAA0000009B
(1739001634.867) RX 1DC#B40F8FFD0CCCD8E4
(1739001634.867) RX 11A#014000AAC0000003
(1739001634.871) RX 1DA#C1641800000101AA
(1739001634.874) RX 1D4#F7070000474600BC
(1739001634.874) RX 1F2#10640000001E010D
(1739001634.875) RX 1C2#5C
(1739001634.876) RX 1DB#FC00BFAA0000011E
(1739001634.877) RX 1DC#B40F8FFD0130C9CE
(1739001634.878) RX 11A#0140005500000115
(1739001634.881) RX 1DA#C1641800000102A0
(1739001634.884) RX 1D4#F707000087460070
(1739001634.884) RX 1F2#10640000001E020E
(1739001634.885) RX 284#0000000000004CD2
(1739001634.885) RX 1C2#5D
(1739001634.885) RX 50A#8552A00D8020
(1739001634.886) RX 1DB#FC00BFAA00000214
(1739001634.887) RX 1DC#B40F8FFD0520C64C
(1739001634.887) RX 11A#01400055400002D8
(1739001634.891) RX 1DA#C164180000010325
(1739001634.893) RX 54A#9E0070062C00002D
(1739001634.894) RX 54B#0076981214000000
(1739001634.894) RX 1D4#F7070000C74600B7
(1739001634.895) RX 1F2#10640000001E030F
(1739001634.895) RX 1C2#5E
(1739001634.895) RX 54C#6D66400000485A00
(1739001634.896) RX 54F#2301000007538A35
(1739001634.897) RX 1DB#FC00BFAA00000391
(1739001634.897) RX 1DC#B40F8FFD08C0CB1B
(1739001634.898) RX 11A#014000AA800003CE
(1739001634.901) RX 1DA#C16418000001002F
(1739001634.905) RX 1D4#F70700000746007B
(1739001634.905) RX 1C2#5F
(1739001634.905) RX 1F2#10640000001E000C
(1739001634.905) RX 284#0000000000004DD3
(1739001634.905) RX 50B#000006C00060
(1739001634.906) RX 1DB#FC00BFAA0000009B
(1739001634.907) RX 11A#014000AAC0000003
(1739001634.907) RX 1DC#B40F8FFD0CCCD8E4
(1739001634.911) RX 1DA#C1641800000101AA
(1739001634.915) RX 1C2#50
(1739001634.915) RX 1D4#F7070000474600BC
(1739001634.915) RX 1F2#10640000001E010D
(1739001634.916) RX 1DB#FC00BFAA0000011E
(1739001634.917) RX 1DC#B40F8FFD0130C9CE
(1739001634.918) RX 11A#0140005500000115
(1739001634.921) RX 1DA#C1641800000102A0
(1739001634.921) RX 55A#003331005F365B68
(1739001634.925) RX 1C2#51
(1739001634.925) RX 1D4#F707000087460070
(1739001634.925) RX 1F2#10640000001E020E
(1739001634.926) RX 284#0000000000004ED4
(1739001634.927) RX 1DB#FC00BFAA00000214
(1739001634.927) RX 1DC#B40F8FFD0520C64C
(1739001634.927) RX 11A#01400055400002D8
(1739001634.931) RX 1DA#C164180000010325
(1739001634.935) RX 1C2#52
(1739001634.935) RX 1D4#F7070000C74600B7
(1739001634.936) RX 1F2#10640000001E030F
(1739001634.937) RX 1DB#FC00BFAA00000391
(1739001634.937) RX 1DC#B40F8FFD08C0CB1B
(1739001634.937) RX 55B#CA405500E440131A
(1739001634.937) RX 5BC#5A032C26B3054074
(1739001634.938) RX 11A#014000AA800003CE
(1739001634.941) RX 1DA#C16418000001002F
(1739001634.945) RX 1C2#53
(1739001634.946) RX 1D4#F70700000746007B
(1739001634.946) RX 1F2#10640000001E000C
(1739001634.946) RX 284#0000000000004FD5
(1739001634.946) RX 1DB#FC00BFAA0000009B
(1739001634.947) RX 1DC#B40F8FFD0CCCD8E4
(1739001634.947) RX 11A#014000AAC0000003
(1739001634.951) RX 1DA#C1641800000101AA
(1739001634.955) RX 1C2#54
(1739001634.956) RX 1D4#F7070000474600BC
(1739001634.956) RX 1F2#10640000001E010D
(1739001634.937) RX 1DB#FC00BFAA00000391
(1739001634.937) RX 1DC#B40F8FFD08C0CB1B
(1739001634.937) RX 55B#CA405500E440131A
(1739001634.937) RX 5BC#5A032C26B3054074
(1739001634.938) RX 11A#014000AA800003CE
(1739001634.941) RX 1DA#C16418000001002F
(1739001634.945) RX 1C2#53
(1739001634.946) RX 1D4#F70700000746007B
(1739001634.957) RX 1DB#FC00BFAA0000011E
(1739001634.957) RX 1DC#B40F8FFD0130C9CE
(1739001634.958) RX 11A#0140005500000115
(1739001634.961) RX 1DA#C1641800000102A0
(1739001634.961) RX 380#020410210000009E
(1739001634.961) RX 5BF#000000002800002B
(1739001634.965) RX 1C2#55
(1739001634.966) RX 1D4#F707000087460070
(1739001634.966) RX 1F2#10640000001E020E
(1739001634.967) RX 1DB#FC00BFAA00000214
(1739001634.967) RX 284#00000000000050D6
(1739001634.967) RX 1DC#B40F8FFD0520C64C
(1739001634.967) RX 11A#01400055400002D8
(1739001634.967) RX 50C#00000003B29A
(1739001634.971) RX 1DA#C164180000010325
(1739001634.975) RX 1C2#56
(1739001634.976) RX 1D4#F7070000C74600B7
(1739001634.976) RX 1F2#10640000001E030F
(1739001634.977) RX 1DB#FC00BFAA00000391
(1739001634.977) RX 1DC#B40F8FFD08C0CB1B
(1739001634.977) RX 11A#014000AA800003CE
(1739001634.981) RX 1DA#C16418000001002F
(1739001634.985) RX 1C2#57
(1739001634.986) RX 1D4#F70700000746007B
(1739001634.987) RX 11A#014000AAC0000003
(1739001634.987) RX 1DB#FC00BFAA0000009B
(1739001634.987) RX 1F2#10640000001E000C
(1739001634.987) RX 1DC#B40F8FFD0CCCD8E4
(1739001634.988) RX 284#00000000000051D7
(1739001634.988) RX 50A#8572A00D8020
(1739001634.991) RX 1DA#C1641800000101AA
(1739001634.993) RX 54A#100070062C00002D
(1739001634.994) RX 54B#0076981214000000
(1739001634.995) RX 54C#6D66400000485A00
(1739001634.995) RX 1C2#58
(1739001634.996) RX 54F#2301000007938A35
(1739001634.997) RX 1DB#FC20BFAA0000014F
(1739001634.997) RX 1D4#F7070000474600BC
(1739001634.997) RX 1DC#B40F8FFD0130C9CE
(1739001634.997) RX 1F2#10640000001E010D
(1739001634.998) RX 11A#0140005500000115
(1739001634.998) RX 284#00000000000052D8
(1739001635.001) RX 1DA#C1641800000102A0
(1739001635.005) RX 1C2#59
(1739001635.007) RX 1DB#FC20BFAA00000245
(1739001635.007) RX 1DC#B40F8FFD0520C64C
(1739001635.007) RX 1D4#F707000087460070
(1739001635.007) RX 11A#01400055400002D8
(1739001635.008) RX 1F2#10640000001E020E
(1739001635.008) RX 50B#000006C00060
(1739001635.011) RX 1DA#C164180000010325
(1739001635.015) RX 1C2#5A
(1739001635.017) RX 1DB#FC20BFAA000003C0
(1739001635.017) RX 1DC#B40F8FFD08C0CB1B
(1739001635.017) RX 1D4#F7070000C74600B7
(1739001635.018) RX 11A#014000AA800003CE
(1739001635.018) RX 1F2#10640000001E030F
(1739001635.018) RX 284#00000000000053D9
(1739001635.021) RX 1DA#C16418000001002F
(1739001635.021) RX 55A#003331005F365B68
(1739001635.025) RX 1C2#5B
(1739001635.027) RX 1DB#FC20BFAA000000CA
(1739001635.027) RX 11A#014000AAC0000003
(1739001635.027) RX 1DC#B40F8FFD0CCCD8E4
(1739001635.027) RX 1D4#F70700000746007B
(1739001635.028) RX 1F2#10640000001E000C
(1739001635.031) RX 1DA#C1641800000101AA
(1739001635.035) RX 1C2#5C
(1739001635.037) RX 1DB#FC20BFAA0000014F
(1739001635.037) RX 1DC#B40F8FFD0130C9CE
(1739001635.037) RX 55B#CA40AA00E4401057
(1739001635.038) RX 11A#0140005500000115
(1739001635.038) RX 1D4#F7070000474600BC
(1739001635.038) RX 1F2#10640000001E010D
(1739001635.038) RX 284#00000000000054DA
(1739001635.039) RX 5BC#5A032C26B3054074
(1739001635.041) RX 1DA#C1641800000102A0
(1739001635.045) RX 1C2#5D
(1739001635.047) RX 1DB#FC20BFAA00000245
(1739001635.047) RX 1DC#B40F8FFD0520C64C
(1739001635.047) RX 11A#01400055400002D8
(1739001635.048) RX 5C0#C04C4C0004541200
(1739001635.048) RX 5EB#E00FFFFFFFFFFFFF
(1739001635.048) RX 1D4#F707000087460070
(1739001635.048) RX 1F2#10640000001E020E
(1739001635.051) RX 1DA#C164180000010325
(1739001635.055) RX 1C2#5E
(1739001635.057) RX 1DB#FC20BFAA000003C0
(1739001635.057) RX 1DC#B40F8FFD08C0CB1B
(1739001635.057) RX 11A#014000AA800003CE
(1739001635.058) RX 1D4#F7070000C74600B7
(1739001635.058) RX 1F2#10640000001E030F
(1739001635.059) RX 284#00000000000055DB
(1739001635.061) RX 1DA#C16418000001002F
(1739001635.061) RX 380#02041021000000AF
(1739001635.061) RX 5BF#000000002800003C
(1739001635.065) RX 1C2#5F
(1739001635.067) RX 11A#014000AAC0000003
(1739001635.067) RX 1DB#FC20BFAA000000CA
(1739001635.067) RX 1DC#B40F8FFD0CCCD8E4
(1739001635.068) RX 1D4#F70700000746007B
(1739001635.069) RX 1F2#10640000001E000C
(1739001635.069) RX 50C#000000005DC8
(1739001635.071) RX 1DA#C1641800000101AA
(1739001635.075) RX 1C2#50
(1739001635.077) RX 1DB#FC20BFAA0000014F
(1739001635.077) RX 1DC#B40F8FFD0130C9CE
(1739001635.077) RX 11A#0140005500000115
(1739001635.079) RX 1D4#F7070000474600BC
(1739001635.079) RX 1F2#10640000001E010D
(1739001635.079) RX 284#00000000000056DC
(1739001635.081) RX 1DA#C1641800000102A0
(1739001635.085) RX 1C2#51
(1739001635.087) RX 1DB#FC20BFAA00000245
(1739001635.087) RX 1DC#B40F8FFD0520C64C
(1739001635.087) RX 11A#01400055400002D8
(1739001635.089) RX 1D4#F707000087460070
(1739001635.089) RX 1F2#10640000001E020E
(1739001635.089) RX 50A#8512A00D8020
(1739001635.091) RX 1DA#C164180000010325
(1739001635.093) RX 54A#9E0070062C00002D
(1739001635.094) RX 54B#0076981214000000
(1739001635.095) RX 54C#6D66400000485A00
(1739001635.095) RX 1C2#52
(1739001635.096) RX 54F#2301000007D38A35
(1739001635.097) RX 1DB#FC20BFAA000003C0
(1739001635.097) RX 1DC#B40F8FFD08C0CB1B
(1739001635.097) RX 11A#014000AA800003CE
(1739001635.099) RX 1D4#F7070000C74600B7
(1739001635.099) RX 1F2#10640000001E030F
(1739001635.100) RX 284#00000000000057DD
(1739001635.101) RX 1DA#C16418000001002F
(1739001635.105) RX 1C2#53
(1739001635.107) RX 11A#014000AAC0000003
(1739001635.107) RX 1DB#FC20BFAA000000CA
(1739001635.107) RX 1DC#B40F8FFD0CCCD8E4
(1739001635.109) RX 1D4#F70700000746007B
(1739001635.110) RX 1F2#10640000001E000C
(1739001635.110) RX 50B#000006C00060
(1739001635.111) RX 1DA#C1641800000101AA
(1739001635.115) RX 1C2#54
(1739001635.117) RX 1DB#FC20BFAA0000014F
(1739001635.117) RX 1DC#B40F8FFD0130C9CE
(1739001635.118) RX 11A#0140005500000115
(1739001635.120) RX 1D4#F7070000474600BC
(1739001635.120) RX 1F2#10640000001E010D
(1739001635.120) RX 284#00000000000058DE
(1739001635.121) RX 1DA#C1641800000102A0
(1739001635.121) RX 55A#003331005F365B68
(1739001635.125) RX 1C2#55
(1739001635.127) RX 1DB#FC20BFAA00000245
(1739001635.127) RX 1DC#B40F8FFD0520C64C
(1739001635.128) RX 11A#01400055400002D8
(1739001635.130) RX 1D4#F707000087460070
(1739001635.130) RX 1F2#10640000001E020E
(1739001635.131) RX 1DA#C164180000010325
(1739001635.135) RX 1C2#56
(1739001635.137) RX 1DB#FC20BFAA000003C0
(1739001635.137) RX 1DC#B40F8FFD08C0CB1B
(1739001635.138) RX 11A#014000AA800003CE
(1739001635.138) RX 55B#CA405500E4401195
(1739001635.138) RX 5BC#5A032026B20620A0
(1739001635.140) RX 1D4#F7070000C74600B7
(1739001635.140) RX 1F2#10640000001E030F
(1739001635.141) RX 284#00000000000059DF
(1739001635.141) RX 1DA#C16418000001002F
(1739001635.145) RX 1C2#57
(1739001635.147) RX 11A#014000AAC0000003
(1739001635.147) RX 1DB#FC20BFAA000000CA
(1739001635.147) RX 1DC#B40F8FFD0CCCD8E4
(1739001635.150) RX 1D4#F70700000746007B
(1739001635.151) RX 1F2#10640000001E000C
(1739001635.151) RX 1DA#C1641800000101AA
(1739001635.155) RX 1C2#58
(1739001635.157) RX 1DB#FC20BFAA0000014F
(1739001635.157) RX 1DC#B40F8FFD0130C9CE
(1739001635.158) RX 11A#0140005500000115
(1739001635.161) RX 1D4#F7070000474600BC
(1739001635.161) RX 1F2#10640000001E010D
(1739001635.161) RX 1DA#C1641800000102A0
(1739001635.161) RX 284#0000000000005AE0
(1739001635.162) RX 380#02041021000000B0
(1739001635.162) RX 5BF#0000000028000009
(1739001635.165) RX 1C2#59
(1739001635.167) RX 1DB#FC20BFAA00000245
(1739001635.167) RX 1DC#B40F8FFD0520C64C
(1739001635.168) RX 11A#01400055400002D8
(1739001635.171) RX 1DA#C164180000010325
(1739001635.171) RX 1D4#F707000087460070
(1739001635.171) RX 1F2#10640000001E020E
(1739001635.172) RX 50C#00000001B231
(1739001635.175) RX 1C2#5A
(1739001635.177) RX 1DB#FC20BFAA000003C0
(1739001635.177) RX 11A#014000AA800003CE
(1739001635.178) RX 1DC#B40F8FFD08C0CB1B
(1739001635.181) RX 1DA#C16418000001002F
(1739001635.181) RX 1D4#F7070000C74600B7
(1739001635.181) RX 1F2#10640000001E030F
(1739001635.182) RX 284#0000000000005BE1
(1739001635.185) RX 1C2#5B
(1739001635.187) RX 11A#014000AAC0000003
(1739001635.187) RX 1DB#FC20BFAA000000CA
(1739001635.187) RX 1DC#B40F8FFD0CCCD8E4
(1739001635.191) RX 1DA#C1641800000101AA
(1739001635.191) RX 1D4#F70700000746007B
(1739001635.192) RX 1F2#10640000001E000C
(1739001635.192) RX 50A#8532A00D8020
(1739001635.193) RX 54A#100070062C00002D
(1739001635.194) RX 54B#0076981214000000
(1739001635.195) RX 54C#6D66400000485A00
(1739001635.195) RX 1C2#5C
(1739001635.196) RX 54F#2301000007138A35
(1739001635.197) RX 1DB#FC20BFAA0000014F
(1739001635.197) RX 11A#0140005500000115
(1739001635.198) RX 1DC#B40F8FFD0130C9CE
(1739001635.201) RX 1DA#C1641800000102A0
(1739001635.202) RX 1D4#F7070000474600BC
(1739001635.202) RX 1F2#10640000001E010D
(1739001635.202) RX 284#0000000000005CE2
(1739001635.205) RX 1C2#5D
(1739001635.207) RX 1DB#FC20BFAA00000245
(1739001635.207) RX 11A#01400055400002D8
(1739001635.208) RX 1DC#B40F8FFD0520C64C
(1739001635.211) RX 1DA#C164180000010325
(1739001635.212) RX 1D4#F707000087460070
(1739001635.212) RX 1F2#10640000001E020E
(1739001635.212) RX 50B#000006C00060
(1739001635.215) RX 1C2#5E
(1739001635.217) RX 1DB#FC20BFAA000003C0
(1739001635.217) RX 11A#014000AA800003CE
(1739001635.218) RX 1DC#B40F8FFD08C0CB1B
(1739001635.221) RX 1DA#C16418000001002F
(1739001635.221) RX 55A#003331005F365B68
(1739001635.222) RX 1D4#F7070000C74600B7
(1739001635.222) RX 1F2#10640000001E030F
(1739001635.223) RX 284#0000000000005DE3
(1739001635.225) RX 1C2#5F
(1739001635.227) RX 11A#014000AAC0000003
(1739001635.227) RX 1DB#FC20BFAA000000CA
(1739001635.228) RX 1DC#B40F8FFD0CCCD8E4
(1739001635.231) RX 1DA#C1641800000101AA
(1739001635.232) RX 1D4#F70700000746007B
(1739001635.233) RX 1F2#10640000001E000C
(1739001635.235) RX 1C2#50
(1739001635.237) RX 1DB#FC20BFAA0000014F
(1739001635.238) RX 11A#0140005500000115
(1739001635.238) RX 1DC#B40F8FFD0130C9CE
(1739001635.238) RX 55B#CA40AA00E44012D8
(1739001635.239) RX 5BC#5A032026B20620A0
(1739001635.241) RX 1DA#C1641800000102A0
(1739001635.243) RX 1D4#F7070000474600BC
(1739001635.243) RX 1F2#10640000001E010D
(1739001635.243) RX 284#0000000000005EE4
(1739001635.246) RX 1C2#51
(1739001635.247) RX 11A#01400055400002D8
(1739001635.247) RX 1DB#FC20BFAA00000245
(1739001635.248) RX 1DC#B40F8FFD0520C64C
(1739001635.251) RX 1DA#C064180000010322
(1739001635.253) RX 1D4#F707000087460070
(1739001635.253) RX 1F2#10640000001E020E
(1739001635.255) RX 1C2#52
(1739001635.257) RX 1DB#FC00BFAA00000391
(1739001635.258) RX 11A#014000AA800003CE
(1739001635.258) RX 1DC#B40F8FFD08C0CB1B
(1739001635.261) RX 1DA#C064180000010028
(1739001635.261) RX 380#020410210000008D
(1739001635.262) RX 5BF#000000002800001A
(1739001635.263) RX 1D4#F7070000C74600B7
(1739001635.263) RX 1F2#10640000001E030F
(1739001635.264) RX 284#0000000000005FE5
(1739001635.266) RX 1C2#53
(1739001635.267) RX 11A#014000AAC0000003
(1739001635.267) RX 1DB#FBE0BFAA000000BC
(1739001635.268) RX 1DC#B40F8FFD0CCCD8E4
(1739001635.271) RX 1DA#C0641800000101AD
(1739001635.273) RX 1D4#F70700000746007B
(1739001635.274) RX 1F2#10640000001E000C
(1739001635.274) RX 50C#000000025D63
(1739001635.275) RX 1C2#54
(1739001635.277) RX 1DB#FBC0BFAA00000168
(1739001635.278) RX 11A#0140005500000115
(1739001635.278) RX 1DC#B40F8FFD0130C9CE
(1739001635.281) RX 1DA#C0641800000102A7
(1739001635.284) RX 1D4#F7070000474600BC
(1739001635.284) RX 1F2#10640000001E010D
(1739001635.284) RX 284#00000000000060E6
(1739001635.284) RX 5A9#643C501304300000
(1739001635.286) RX 1C2#55
(1739001635.287) RX 11A#01400055400002D8
(1739001635.287) RX 1DB#FBC0BFAA00000262
(1739001635.288) RX 1DC#B40F8FFD0520C64C
(1739001635.291) RX 1DA#C164180000010325
(1739001635.293) RX 54A#9E0070062C00002D
(1739001635.294) RX 1D4#F707000087460070
(1739001635.294) RX 1F2#10640000001E020E
(1739001635.294) RX 50A#8552A00D8020
(1739001635.295) RX 54B#0076981214000000
(1739001635.295) RX 54C#6D66400000485A00
(1739001635.296) RX 1C2#56
(1739001635.296) RX 54F#2301000007538A35
(1739001635.297) RX 1DB#FBC0BFAA000003E7
(1739001635.298) RX 11A#014000AA800003CE
(1739001635.298) RX 1DC#B40F8FFD08C0CB1B
(1739001635.301) RX 1DA#C16418000001002F
(1739001635.304) RX 1D4#F7070000C74600B7
(1739001635.304) RX 1F2#10640000001E030F
(1739001635.305) RX 284#00000000000061E7
(1739001635.306) RX 1C2#57
(1739001635.307) RX 11A#014000AAC0000003
(1739001635.308) RX 1DB#FBC0BFAA000000ED
(1739001635.308) RX 1DC#B40F8FFD0CCCD8E4
(1739001635.311) RX 1DA#C1641800000101AA
(1739001635.314) RX 1D4#F70700000746007B
(1739001635.315) RX 1F2#10640000001E000C
(1739001635.315) RX 50B#000006C00060
(1739001635.316) RX 1C2#58
(1739001635.317) RX 11A#0140005500000115
(1739001635.318) RX 1DB#FBC0BFAA00000168
(1739001635.318) RX 1DC#B40F8FFD0130C9CE
(1739001635.321) RX 1DA#C1641800000102A0
(1739001635.321) RX 55A#003331005F365B68
(1739001635.325) RX 1D4#F7070000474600BC
(1739001635.325) RX 1F2#10640000001E010D
(1739001635.325) RX 284#00000000000062E8
(1739001635.326) RX 1C2#59
(1739001635.327) RX 11A#01400055400002D8
(1739001635.328) RX 1DB#FBE0BFAA00000233
(1739001635.328) RX 1DC#B40F8FFD0520C64C
(1739001635.331) RX 1DA#C164180000010325
(1739001635.335) RX 1D4#F707000087460070
(1739001635.335) RX 1F2#10640000001E020E
(1739001635.336) RX 1C2#5A
(1739001635.337) RX 11A#014000AA800003CE
(1739001635.338) RX 1DB#FBE0BFAA000003B6
(1739001635.338) RX 1DC#B40F8FFD08C0CB1B
(1739001635.338) RX 55B#CA405500E4001387
(1739001635.339) RX 5BC#5A032026B20620A0
(1739001635.341) RX 1DA#C16418000001002F
(1739001635.345) RX 1D4#F7070000C74600B7
(1739001635.345) RX 1F2#10640000001E030F
(1739001635.346) RX 284#00000000000063E9
(1739001635.346) RX 1C2#5B
(1739001635.347) RX 11A#014000AAC0000003
(1739001635.348) RX 1DB#FBE0BFAA000000BC
(1739001635.348) RX 1DC#B40F8FFD0CCCD8E4
(1739001635.351) RX 1DA#C1641800000101AA
(1739001635.355) RX 1D4#F70700000746007B
(1739001635.356) RX 1F2#10640000001E000C
(1739001635.356) RX 5B9#67FF67FF28
(1739001635.356) RX 1C2#5C
(1739001635.357) RX 11A#0140005500000115
(1739001635.358) RX 1DB#FC00BFAA0000011E
(1739001635.358) RX 1DC#B40F8FFD0130C9CE
(1739001635.361) RX 1DA#C1641800000102A0
(1739001635.361) RX 380#020410210000009E
(1739001635.362) RX 5BF#000000002800002B
(1739001635.366) RX 1D4#F7070000474600BC
(1739001635.366) RX 1C2#5D
(1739001635.366) RX 1F2#10640000001E010D
(1739001635.366) RX 284#00000000000064EA
(1739001635.367) RX 11A#01400055400002D8
(1739001635.368) RX 1DB#FC20BFAA00000245
(1739001635.368) RX 1DC#B40F8FFD0520C64C
(1739001635.371) RX 1DA#C164180000010325
(1739001635.376) RX 1D4#F707000087460070
(1739001635.376) RX 1C2#5E
(1739001635.376) RX 1F2#10640000001E020E
(1739001635.376) RX 50C#00000003B29A
(1739001635.377) RX 11A#014000AA800003CE
(1739001635.378) RX 1DB#FC40BFAA00000333
(1739001635.378) RX 1DC#B40F8FFD08C0CB1B
(1739001635.381) RX 1DA#C16418000001002F
(1739001635.386) RX 1C2#5F
(1739001635.386) RX 1D4#F7070000C74600B7
(1739001635.386) RX 1F2#10640000001E030F
(1739001635.386) RX 284#00000000000065EB
(1739001635.387) RX 11A#014000AAC0000003
(1739001635.388) RX 1DB#FC40BFAA00000039
(1739001635.388) RX 1DC#B40F8FFD0CCCD8E4
(1739001635.391) RX 1DA#C1641800000101AA
(1739001635.393) RX 54A#100070062C00002D
(1739001635.394) RX 54B#0076981214000000
(1739001635.395) RX 54C#6D66400000485A00
(1739001635.396) RX 1C2#50
(1739001635.396) RX 54F#2301000007938A35
(1739001635.396) RX 1D4#F70700000746007B
(1739001635.397) RX 1F2#10640000001E000C
(1739001635.397) RX 50A#8572A00D8020
(1739001635.397) RX 11A#0140005500000115
(1739001635.398) RX 1DB#FC40BFAA000001BC
(1739001635.398) RX 1DC#B40F8FFD0130C9CE
(1739001635.401) RX 1DA#C1641800000102A0
(1739001635.406) RX 1C2#51
(1739001635.406) RX 1D4#F7070000474600BC
(1739001635.407) RX 1F2#10640000001E010D
(1739001635.407) RX 284#00000000000066EC
(1739001635.407) RX 11A#01400055400002D8
(1739001635.408) RX 1DB#FC40BFAA000002B6
(1739001635.408) RX 1DC#B40F8FFD0520C64C
(1739001635.411) RX 1DA#C164180000010325
(1739001635.416) RX 1C2#52
(1739001635.417) RX 1D4#F707000087460070
(1739001635.417) RX 1F2#10640000001E020E
(1739001635.417) RX 284#00000000000067ED
(1739001635.417) RX 50B#000006C00060
(1739001635.418) RX 11A#014000AA800003CE
(1739001635.418) RX 1DB#FC40BFAA00000333
(1739001635.418) RX 1DC#B40F8FFD08C0CB1B
(1739001635.421) RX 1DA#C16418000001002F
(1739001635.421) RX 55A#003331005F365B68
(1739001635.426) RX 1C2#53
(1739001635.427) RX 11A#014000AAC0000003
(1739001635.427) RX 1D4#F7070000C74600B7
(1739001635.427) RX 1F2#10640000001E030F
(1739001635.428) RX 1DB#FC40BFAA00000039
(1739001635.428) RX 1DC#B40F8FFD0CCCD8E4
(1739001635.431) RX 1DA#C1641800000101AA
(1739001635.436) RX 1C2#54
(1739001635.437) RX 1D4#F70700000746007B
(1739001635.437) RX 1F2#10640000001E000C
(1739001635.438) RX 11A#0140005500000115
(1739001635.438) RX 284#00000000000068EE
(1739001635.438) RX 1DB#FC40BFAA000001BC
(1739001635.438) RX 1DC#B40F8FFD0130C9CE
(1739001635.439) RX 55B#CA40AA00E40010CA
(1739001635.439) RX 5BC#5A032026B20620A0
(1739001635.441) RX 1DA#C1641800000102A0
(1739001635.446) RX 1C2#55
(1739001635.447) RX 11A#01400055400002D8
(1739001635.447) RX 1D4#F7070000474600BC
(1739001635.448) RX 1F2#10640000001E010D
(1739001635.448) RX 1DB#FC40BFAA000002B6
(1739001635.449) RX 1DC#B40F8FFD0520C64C
(1739001635.451) RX 1DA#C164180000010325
(1739001635.456) RX 1C2#56
(1739001635.457) RX 11A#014000AA800003CE
(1739001635.458) RX 1D4#F707000087460070
(1739001635.458) RX 1DB#FC40BFAA00000333
(1739001635.458) RX 1F2#10640000001E020E
(1739001635.458) RX 1DC#B40F8FFD08C0CB1B
(1739001635.459) RX 284#00000000000069EF
(1739001635.461) RX 1DA#C16418000001002F
(1739001635.462) RX 380#02041021000000AF
(1739001635.462) RX 5BF#000000002800003C
(1739001635.466) RX 1C2#57
(1739001635.467) RX 11A#014000AAC0000003
(1739001635.468) RX 1DB#FC40BFAA00000039
(1739001635.468) RX 1D4#F7070000C74600B7
(1739001635.468) RX 1DC#B40F8FFD0CCCD8E4
(1739001635.469) RX 1F2#10640000001E030F
(1739001635.471) RX 1DA#C1641800000101AA
(1739001635.476) RX 1C2#58
(1739001635.477) RX 11A#0140005500000115
(1739001635.478) RX 1DB#FC40BFAA000001BC
(1739001635.478) RX 1D4#F70700000746007B
(1739001635.478) RX 1DC#B40F8FFD0130C9CE
(1739001635.479) RX 1F2#10640000001E000C
(1739001635.479) RX 284#0000000000006AF0
(1739001635.479) RX 50C#000000005DC8
(1739001635.481) RX 1DA#C1641800000102A0
(1739001635.486) RX 1C2#59
(1739001635.487) RX 11A#01400055400002D8
(1739001635.488) RX 1DB#FC40BFAA000002B6
(1739001635.488) RX 1D4#F7070000474600BC
(1739001635.489) RX 1DC#B40F8FFD0520C64C
(1739001635.489) RX 1F2#10640000001E010D
(1739001635.491) RX 1DA#C164180000010325
(1739001635.493) RX 54A#9E0070062C00002D
(1739001635.494) RX 54B#0076981214000000
(1739001635.495) RX 54C#6D66400000485A00
(1739001635.496) RX 1C2#5A
(1739001635.496) RX 54F#2301000007D38A35
(1739001635.497) RX 11A#014000AA800003CE
(1739001635.498) RX 1DB#FC40BFAA00000333
(1739001635.498) RX 1DC#B40F8FFD08C0CB1B
(1739001635.499) RX 1D4#F707000087460070
(1739001635.499) RX 1F2#10640000001E020E
(1739001635.499) RX 284#0000000000006BF1
(1739001635.499) RX 50A#8512A00D8020
(1739001635.501) RX 1DA#C16418000001002F
(1739001635.506) RX 1C2#5B
(1739001635.507) RX 11A#014000AAC0000003
(1739001635.508) RX 1DB#FC40BFAA00000039
(1739001635.508) RX 1DC#B40F8FFD0CCCD8E4
(1739001635.509) RX 1D4#F7070000C74600B7
(1739001635.509) RX 1F2#10640000001E030F
(1739001635.511) RX 1DA#C1641800000101AA
(1739001635.516) RX 1C2#5C
(1739001635.517) RX 11A#0140005500000115
(1739001635.518) RX 1DB#FC40BFAA000001BC
(1739001635.519) RX 1DC#B40F8FFD0130C9CE
(1739001635.519) RX 1D4#F70700000746007B
(1739001635.519) RX 1F2#10640000001E000C
(1739001635.520) RX 284#0000000000006CF2
(1739001635.520) RX 50B#000006C00060
(1739001635.521) RX 1DA#C1641800000102A0
(1739001635.521) RX 55A#003331005F365B68
(1739001635.526) RX 1C2#5D
(1739001635.527) RX 11A#01400055400002D8
(1739001635.528) RX 1DB#FC40BFAA000002B6
(1739001635.528) RX 1DC#B40F8FFD0520C64C
(1739001635.529) RX 1D4#F7070000474600BC
(1739001635.530) RX 1F2#10640000001E010D
(1739001635.531) RX 1DA#C164180000010325
(1739001635.536) RX 1C2#5E
(1739001635.537) RX 11A#014000AA800003CE
(1739001635.538) RX 1DB#FC40BFEA000003AD
(1739001635.539) RX 1DC#B40F8FFD08C0CB1B
(1739001635.539) RX 55B#CA405500E4001108
(1739001635.539) RX 5BC#5A032026B20620A0
(1739001635.540) RX 1D4#F707000087460070
(1739001635.540) RX 1F2#10640000001E020E
(1739001635.540) RX 284#0000000000006DF3
(1739001635.541) RX 1DA#C16418000001002F
(1739001635.546) RX 1C2#5F
(1739001635.547) RX 11A#014000AAC0000003
(1739001635.548) RX 1DB#FC40BFEA000000A7
(1739001635.549) RX 1DC#B40F8FFD0CCCD8E4
(1739001635.549) RX 5C0#804C4C0004A01200
(1739001635.549) RX 5EB#E00FFFFFFFFFFFFF
(1739001635.550) RX 1D4#F7070000C74600B7
(1739001635.550) RX 1F2#10640000001E030F
(1739001635.551) RX 1DA#C1641800000101AA
(1739001635.556) RX 1C2#50
(1739001635.557) RX 11A#0140005500000115
(1739001635.558) RX 1DB#FC40BFEA00000122
(1739001635.559) RX 1DC#B40F8FFD0130C9CE
(1739001635.560) RX 1D4#F70700000746007B
(1739001635.560) RX 1F2#10640000001E000C
(1739001635.561) RX 284#0000000000006EF4
(1739001635.561) RX 1DA#C1641800000102A0
(1739001635.562) RX 380#02041021000000B0
(1739001635.562) RX 5BF#0000000028000009
(1739001635.567) RX 1C2#51
(1739001635.567) RX 11A#01400055400002D8
(1739001635.568) RX 1DB#FC40BFEA00000228
(1739001635.568) RX 1DC#B40F8FFD0520C64C
(1739001635.570) RX 1D4#F7070000474600BC
(1739001635.571) RX 1F2#10640000001E010D
(1739001635.571) RX 1DA#C164180000010325
(1739001635.576) RX 1C2#52
(1739001635.577) RX 11A#014000AA800003CE
(1739001635.578) RX 1DB#FC40BFEA000003AD
(1739001635.579) RX 1DC#B40F8FFD08C0CB1B
(1739001635.581) RX 1D4#F707000087460070
(1739001635.581) RX 1DA#C16418000001002F
(1739001635.581) RX 1F2#10640000001E020E
(1739001635.581) RX 284#0000000000006FF5
(1739001635.582) RX 50C#00000001B231
(1739001635.586) RX 1C2#53
(1739001635.587) RX 11A#014000AAC0000003
(1739001635.588) RX 1DB#FC40BFEA000000A7
(1739001635.589) RX 1DC#B40F8FFD0CCCD8E4
(1739001635.591) RX 1DA#C1641800000101AA
(1739001635.591) RX 1D4#F7070000C74600B7
(1739001635.591) RX 1F2#10640000001E030F
(1739001635.593) RX 54A#100070062C00002D
(1739001635.594) RX 54B#0076981214000000
(1739001635.595) RX 54C#6D66400000485A00
(1739001635.596) RX 54F#2301000007138A36
(1739001635.596) RX 1C2#54
(1739001635.597) RX 11A#0140005500000115
(1739001635.598) RX 1DB#FC40BFEA00000122
(1739001635.599) RX 1DC#B40F8FFD0130C9CE
(1739001635.601) RX 1DA#C1641800000102A0
(1739001635.601) RX 1D4#F70700000746007B
(1739001635.601) RX 1F2#10640000001E000C
(1739001635.602) RX 284#00000000000070F6
(1739001635.602) RX 50A#8532A00D8020
(1739001635.606) RX 1C2#55
(1739001635.607) RX 11A#01400055400002D8
(1739001635.608) RX 1DB#FC40BFEA00000228
(1739001635.609) RX 1DC#B40F8FFD0520C64C
(1739001635.611) RX 1DA#C164180000010325
(1739001635.611) RX 1D4#F7070000474600BC
(1739001635.612) RX 1F2#10640000001E010D
(1739001635.616) RX 1C2#56
(1739001635.617) RX 11A#014000AA800003CE
(1739001635.618) RX 1DB#FC40BFEA000003AD
(1739001635.619) RX 1DC#B40F8FFD08C0CB1B
(1739001635.621) RX 1DA#C16418000001002F
(1739001635.621) RX 55A#003331005F365B68
(1739001635.622) RX 1D4#F707000087460070
(1739001635.622) RX 1F2#10640000001E020E
(1739001635.622) RX 284#00000000000071F7
(1739001635.622) RX 50B#000006C00060
(1739001635.626) RX 1C2#57
(1739001635.627) RX 11A#014000AAC0000003
(1739001635.628) RX 1DB#FC40BFEA000000A7
(1739001635.629) RX 1DC#B40F8FFD0CCCD8E4
(1739001635.631) RX 1DA#C1641800000101AA
(1739001635.632) RX 1D4#F7070000C74600B7
(1739001635.632) RX 1F2#10640000001E030F
(1739001635.636) RX 1C2#58
(1739001635.637) RX 11A#0140005500000115
(1739001635.639) RX 1DB#FC40BFEA00000122
(1739001635.639) RX 1DC#B40F8FFD0130C9CE
(1739001635.639) RX 55B#CA40AA00E44012D8
(1739001635.639) RX 5BC#5A032C26B3064080
(1739001635.641) RX 1DA#C1641800000102A0
(1739001635.642) RX 1D4#F70700000746007B
(1739001635.642) RX 1F2#10640000001E000C
(1739001635.643) RX 284#00000000000072F8
(1739001635.646) RX 1C2#59
(1739001635.647) RX 11A#01400055400002D8
(1739001635.648) RX 1DB#FC60BFEA00000279
(1739001635.649) RX 1DC#B40F8FFD0520C64C
(1739001635.651) RX 1DA#C164180000010325
(1739001635.652) RX 1D4#F7070000474600BC
(1739001635.653) RX 1F2#10640000001E010D
(1739001635.656) RX 1C2#5A
(1739001635.657) RX 11A#014000AA800003CE
(1739001635.658) RX 1DB#FC60BFEA000003FC
(1739001635.659) RX 1DC#B40F8FFD08C0CB1B
(1739001635.661) RX 1DA#C16418000001002F
(1739001635.662) RX 380#020410210000008D
(1739001635.662) RX 5BF#000000002800001A
(1739001635.663) RX 1D4#F707000087460070
(1739001635.663) RX 1F2#10640000001E020E
(1739001635.663) RX 284#00000000000073F9
(1739001635.666) RX 1C2#5B
(1739001635.667) RX 11A#014000AAC0000003
(1739001635.668) RX 1DB#FC60BFEA000000F6
(1739001635.669) RX 1DC#B40F8FFD0CCCD8E4
(1739001635.671) RX 1DA#C1641800000101AA
(1739001635.673) RX 1D4#F7070000C74600B7
(1739001635.673) RX 1F2#10640000001E030F
(1739001635.676) RX 1C2#5C
(1739001635.677) RX 11A#0140005500000115
(1739001635.679) RX 1DB#FC60BFEA00000173
(1739001635.679) RX 1DC#B40F8FFD0130C9CE
(1739001635.681) RX 1DA#C1641800000102A0
(1739001635.683) RX 1D4#F70700000746007B
(1739001635.683) RX 1F2#10640000001E000C
(1739001635.684) RX 284#00000000000074FA
(1739001635.684) RX 50C#000000025D63
(1739001635.686) RX 1C2#5D
(1739001635.687) RX 11A#01400055400002D8
(1739001635.689) RX 1DB#FC60BFEA00000279
(1739001635.689) RX 1DC#B40F8FFD0520C64C
(1739001635.691) RX 1DA#C164180000010325
(1739001635.693) RX 1D4#F7070000474600BC
(1739001635.694) RX 1F2#10640000001E010D
(1739001635.694) RX 54A#9E0070062C00002D
(1739001635.694) RX 54B#0076981214000000
(1739001635.695) RX 54C#6D66400000485A00
(1739001635.696) RX 54F#2301000007538A36
(1739001635.697) RX 1C2#5E
(1739001635.697) RX 11A#014000AA800003CE
(1739001635.699) RX 1DB#FC60BFEA000003FC
(1739001635.699) RX 1DC#B40F8FFD08C0CB1B
(1739001635.701) RX 1DA#C16418000001002F
(1739001635.704) RX 1D4#F707000087460070
(1739001635.704) RX 1F2#10640000001E020E
(1739001635.704) RX 284#00000000000075FB
(1739001635.704) RX 50A#8552A00D8020
(1739001635.706) RX 1C2#5F
(1739001635.707) RX 11A#014000AAC0000003
(1739001635.709) RX 1DB#FC60BFEA000000F6
(1739001635.709) RX 1DC#B40F8FFD0CCCD8E4
(1739001635.711) RX 1DA#C1641800000101AA
(1739001635.714) RX 1D4#F7070000C74600B7
(1739001635.714) RX 1F2#10640000001E030F
(1739001635.716) RX 1C2#50
(1739001635.717) RX 11A#0140005500000115
(1739001635.719) RX 1DB#FC60BFEA00000173
(1739001635.719) RX 1DC#B40F8FFD0130C9CE
(1739001635.721) RX 1DA#C1641800000102A0
(1739001635.721) RX 55A#003331005F365B68
(1739001635.724) RX 1D4#F70700000746007B
(1739001635.724) RX 1F2#10640000001E000C
(1739001635.725) RX 284#00000000000076FC
(1739001635.725) RX 50B#000006C00060
(1739001635.726) RX 1C2#51
(1739001635.727) RX 11A#01400055400002D8
(1739001635.729) RX 1DB#FC60BFEA00000279
(1739001635.729) RX 1DC#B40F8FFD0520C64C
(1739001635.731) RX 1DA#C164180000010325
(1739001635.734) RX 1D4#F7070000474600BC
(1739001635.735) RX 1F2#10640000001E010D
(1739001635.737) RX 1C2#52
(1739001635.737) RX 11A#014000AA800003CE
(1739001635.739) RX 1DB#FC60BFEA000003FC
(1739001635.739) RX 1DC#B40F8FFD08C0CB1B
(1739001635.739) RX 55B#CA405500E440131A
(1739001635.740) RX 5BC#5A032C26B3064080
(1739001635.741) RX 1DA#C16418000001002F
(1739001635.745) RX 1D4#F707000087460070
(1739001635.745) RX 1F2#10640000001E020E
(1739001635.745) RX 284#00000000000077FD
(1739001635.747) RX 1C2#53
(1739001635.747) RX 11A#014000AAC0000003
(1739001635.749) RX 1DB#FC60BFEA000000F6
(1739001635.749) RX 1DC#B40F8FFD0CCCD8E4
(1739001635.751) RX 1DA#C1641800000101AA
(1739001635.755) RX 1D4#F7070000C74600B7
(1739001635.755) RX 1F2#10640000001E030F
(1739001635.757) RX 1C2#54
(1739001635.757) RX 11A#0140005500000115
(1739001635.759) RX 1DB#FC60BFEA00000173
(1739001635.759) RX 1DC#B40F8FFD0130C9CE
(1739001635.761) RX 1DA#C1641800000102A0
(1739001635.762) RX 380#020410210000009E
(1739001635.762) RX 5BF#000000002800002B
(1739001635.765) RX 1D4#F70700000746007B
(1739001635.765) RX 1F2#10640000001E000C
(1739001635.766) RX 284#00000000000078FE
(1739001635.767) RX 1C2#55
(1739001635.767) RX 11A#01400055400002D8
(1739001635.769) RX 1DB#FC60BFEA00000279
(1739001635.769) RX 1DC#B40F8FFD0520C64C
(1739001635.771) RX 1DA#C164180000010325
(1739001635.775) RX 1D4#F7070000474600BC
(1739001635.776) RX 1F2#10640000001E010D
(1739001635.777) RX 1C2#56
(1739001635.777) RX 11A#014000AA800003CE
(1739001635.779) RX 1DB#FC60BFEA000003FC
(1739001635.779) RX 1DC#B40F8FFD08C0CB1B
(1739001635.781) RX 1DA#C16418000001002F
(1739001635.786) RX 1D4#F707000087460070
(1739001635.786) RX 1F2#10640000001E020E
(1739001635.786) RX 284#00000000000079FF
(1739001635.786) RX 50C#00000003B29A
(1739001635.787) RX 11A#014000AAC0000003
(1739001635.787) RX 1C2#57
(1739001635.789) RX 1DB#FC60BFEA000000F6
(1739001635.789) RX 1DC#B40F8FFD0CCCD8E4
(1739001635.791) RX 1DA#C1641800000101AA
(1739001635.793) RX 54A#100070062C00002D
(1739001635.794) RX 54B#0076981214000000
(1739001635.795) RX 54C#6D66400000485A00
(1739001635.796) RX 1D4#F7070000C74600B7
(1739001635.796) RX 1F2#10640000001E030F
(1739001635.796) RX 5A9#643C501304300000
(1739001635.796) RX 54F#2301000007938A36
(1739001635.797) RX 1C2#58
(1739001635.797) RX 11A#0140005500000115
(1739001635.799) RX 1DB#FC60BFEA00000173
(1739001635.799) RX 1DC#B40F8FFD0130C9CE
(1739001635.801) RX 1DA#C1641800000102A0
(1739001635.806) RX 1D4#F70700000746007B
(1739001635.806) RX 1F2#10640000001E000C
(1739001635.807) RX 284#0000000000007A00
(1739001635.807) RX 50A#8572A00D8020
(1739001635.807) RX 11A#01400055400002D8
(1739001635.807) RX 1C2#59
(1739001635.809) RX 1DB#FC60BFEA00000279
(1739001635.809) RX 1DC#B40F8FFD0520C64C
(1739001635.811) RX 1DA#C164180000010325
(1739001635.816) RX 1D4#F7070000474600BC
(1739001635.816) RX 1F2#10640000001E010D
(1739001635.817) RX 1C2#5A
(1739001635.817) RX 11A#014000AA800003CE
(1739001635.819) RX 1DB#FC60BFEA000003FC
(1739001635.819) RX 1DC#B40F8FFD08C0CB1B
(1739001635.821) RX 1DA#C16418000001002F
(1739001635.821) RX 55A#003331005F365B68
(1739001635.826) RX 1D4#F707000087460070
(1739001635.827) RX 11A#014000AAC0000003
(1739001635.827) RX 1F2#10640000001E020E
(1739001635.827) RX 1C2#5B
(1739001635.827) RX 284#0000000000007B01
(1739001635.828) RX 50B#000006C00060
(1739001635.829) RX 1DB#FC60BFEA000000F6
(1739001635.829) RX 1DC#B40F8FFD0CCCD8E4
(1739001635.831) RX 1DA#C1641800000101AA
(1739001635.837) RX 1D4#F7070000C74600B7
(1739001635.837) RX 1C2#5C
(1739001635.837) RX 1F2#10640000001E030F
(1739001635.837) RX 284#0000000000007C02
(1739001635.838) RX 11A#0140005500000115
(1739001635.839) RX 1DB#FC60BFEA00000173
(1739001635.840) RX 1DC#B40F8FFD0130C9CE
(1739001635.840) RX 55B#CA40AA00E4401057
(1739001635.840) RX 5BC#5A032C26B3064080
(1739001635.841) RX 1DA#C1641800000102A0
(1739001635.847) RX 1D4#F70700000746007B
(1739001635.847) RX 11A#01400055400002D8
(1739001635.847) RX 1C2#5D
(1739001635.848) RX 1F2#10640000001E000C
(1739001635.849) RX 1DB#FC60BFEA00000279
(1739001635.849) RX 1DC#B40F8FFD0520C64C
(1739001635.851) RX 1DA#C164180000010325
(1739001635.857) RX 1C2#5E
(1739001635.857) RX 1D4#F7070000474600BC
(1739001635.857) RX 1F2#10640000001E010D
(1739001635.858) RX 11A#014000AA800003CE
(1739001635.858) RX 284#0000000000007D03
(1739001635.859) RX 1DB#FC60BFEA000003FC
(1739001635.859) RX 1DC#B40F8FFD08C0CB1B
(1739001635.861) RX 1DA#C16418000001002F
(1739001635.862) RX 380#02041021000000AF
(1739001635.862) RX 5BF#000000002800003C
(1739001635.867) RX 11A#014000AAC0000003
(1739001635.867) RX 1C2#5F
(1739001635.867) RX 1D4#F707000087460070
(1739001635.868) RX 1F2#10640000001E020E
(1739001635.868) RX 5B9#67FF67FF28
(1739001635.869) RX 1DB#FC60BFEA000000F6
(1739001635.869) RX 1DC#B40F8FFD0CCCD8E4
(1739001635.871) RX 1DA#C1641800000101AA
(1739001635.877) RX 1C2#50
(1739001635.877) RX 11A#0140005500000115
(1739001635.878) RX 1D4#F7070000C74600B7
(1739001635.878) RX 1F2#10640000001E030F
(1739001635.878) RX 284#0000000000007E04
(1739001635.879) RX 1DB#FC60BFEA00000173
(1739001635.880) RX 1DC#B40F8FFD0130C9CE
(1739001635.881) RX 1DA#C1641800000102A0
(1739001635.887) RX 1C2#51
(1739001635.887) RX 11A#01400055400002D8
(1739001635.888) RX 1D4#F70700000746007B
(1739001635.888) RX 1F2#10640000001E000C
(1739001635.888) RX 50C#000000005DC8
(1739001635.889) RX 1DB#FC60BFEA00000279
(1739001635.889) RX 1DC#B40F8FFD0520C64C
(1739001635.891) RX 1DA#C164180000010325
(1739001635.894) RX 54A#9E0070062C00002D
(1739001635.894) RX 54B#0076981214000000
(1739001635.895) RX 54C#6D66400000485A00
(1739001635.897) RX 54F#2301000007D38A36
(1739001635.897) RX 1C2#52
(1739001635.897) RX 11A#014000AA800003CE
(1739001635.898) RX 1D4#F7070000474600BC
(1739001635.898) RX 1F2#10640000001E010D
(1739001635.899) RX 284#0000000000007F05
(1739001635.899) RX 1DB#FC60BFEA000003FC
(1739001635.899) RX 1DC#B40F8FFD08C0CB1B
(1739001635.901) RX 1DA#C16418000001002F
(1739001635.907) RX 11A#014000AAC0000003
(1739001635.907) RX 1C2#53
(1739001635.908) RX 1D4#F707000087460070
(1739001635.909) RX 1F2#10640000001E020E
(1739001635.909) RX 50A#8512A00D8020
(1739001635.909) RX 1DB#FC60BFEA000000F6
(1739001635.910) RX 1DC#B40F8FFD0CCCD8E4
(1739001635.911) RX 1DA#C1641800000101AA
(1739001635.917) RX 1C2#54
(1739001635.917) RX 11A#0140005500000115
(1739001635.919) RX 1D4#F7070000C74600B7
(1739001635.919) RX 1F2#10640000001E030F
(1739001635.919) RX 284#0000000000008006
(1739001635.919) RX 1DB#FC60BFEA00000173
(1739001635.920) RX 1DC#B40F8FFD0130C9CE
(1739001635.921) RX 1DA#C1641800000102A0
(1739001635.921) RX 55A#003331005F365B68
(1739001635.927) RX 1C2#55
(1739001635.927) RX 11A#01400055400002D8
(1739001635.929) RX 1D4#F70700000746007B
(1739001635.929) RX 1F2#10640000001E000C
(1739001635.929) RX 1DB#FC60BFEA00000279
(1739001635.930) RX 50B#000006C00060
(1739001635.930) RX 1DC#B40F8FFD0520C64C
(1739001635.931) RX 1DA#C164180000010325
(1739001635.937) RX 1C2#56
(1739001635.937) RX 11A#014000AA800003CE
(1739001635.939) RX 1D4#F7070000474600BC
(1739001635.939) RX 1DB#FC60BFEA000003FC
(1739001635.940) RX 1F2#10640000001E010D
(1739001635.940) RX 1DC#B40F8FFD08C0CB1B
(1739001635.940) RX 284#0000000000008107
(1739001635.940) RX 55B#CA405500E4401195
(1739001635.941) RX 5BC#5A032C26B3064080
(1739001635.941) RX 1DA#C16418000001002F
(1739001635.947) RX 11A#014000AAC0000003
(1739001635.947) RX 1C2#57
(1739001635.949) RX 1DB#FC60BFEA000000F6
(1739001635.949) RX 1D4#F707000087460070
(1739001635.950) RX 1DC#B40F8FFD0CCCD8E4
(1739001635.950) RX 1F2#10640000001E020E
(1739001635.951) RX 1DA#C1641800000101AA
(1739001635.957) RX 1C2#58
(1739001635.957) RX 11A#0140005500000115
(1739001635.959) RX 1DB#FC60BFEA00000173
(1739001635.960) RX 1D4#F7070000C74600B7
(1739001635.960) RX 1DC#B40F8FFD0130C9CE
(1739001635.960) RX 1F2#10640000001E030F
(1739001635.960) RX 284#0000000000008208
(1739001635.961) RX 1DA#C1641800000102A0
(1739001635.962) RX 380#02041021000000B0
(1739001635.962) RX 5BF#0000000028000009
(1739001635.967) RX 1C2#59
(1739001635.967) RX 11A#01400055400002D8
(1739001635.969) RX 1DB#FC60BFEA00000279
(1739001635.970) RX 1DC#B40F8FFD0520C64C
(1739001635.970) RX 1D4#F70700000746007B
(1739001635.970) RX 1F2#10640000001E000C
(1739001635.971) RX 1DA#C164180000010325
(1739001635.977) RX 1C2#5A
(1739001635.977) RX 11A#014000AA800003CE
(1739001635.979) RX 1DB#FC60BFEA000003FC
(1739001635.980) RX 1DC#B40F8FFD08C0CB1B
(1739001635.980) RX 1D4#F7070000474600BC
(1739001635.980) RX 1F2#10640000001E010D
(1739001635.981) RX 284#0000000000008309
(1739001635.981) RX 1DA#C16418000001002F
(1739001635.987) RX 11A#014000AAC0000003
(1739001635.987) RX 1C2#5B
(1739001635.989) RX 1DB#FC60BFEA000000F6
(1739001635.990) RX 1DC#B40F8FFD0CCCD8E4
(1739001635.990) RX 1D4#F707000087460070
(1739001635.991) RX 1F2#10640000001E020E
(1739001635.991) RX 1DA#C1641800000101AA
(1739001635.991) RX 50C#00000001B231
(1739001635.994) RX 54A#100070062C00002D
(1739001635.995) RX 54B#0076981214000000
(1739001635.996) RX 54C#6D66400000485A00
(1739001635.997) RX 54F#2301000007138A36
(1739001635.997) RX 1C2#5C
(1739001635.997) RX 11A#0140005500000115
(1739001635.999) RX 1DB#FC60BFEA00000173
(1739001636.000) RX 1DC#B40F8FFD0130C9CE
(1739001636.001) RX 1D4#F7070000C74600B7
(1739001636.001) RX 1DA#C1641800000102A0
(1739001636.001) RX 1F2#10640000001E030F
(1739001636.001) RX 284#000000000000840A
(1739001636.007) RX 11A#01400055400002D8
(1739001636.007) RX 1C2#5D
(1739001636.009) RX 1DB#FC60BFEA00000279
(1739001636.010) RX 1DC#B40F8FFD0520C64C
(1739001636.011) RX 1DA#C164180000010325
(1739001636.011) RX 1D4#F70700000746007B
(1739001636.011) RX 1F2#10640000001E000C
(1739001636.011) RX 50A#8532A00D8020
(1739001636.017) RX 1C2#5E
(1739001636.017) RX 11A#014000AA800003CE
(1739001636.020) RX 1DB#FC60BFEA000003FC
(1739001636.020) RX 1DC#B40F8FFD08C0CB1B
(1739001636.021) RX 1DA#C16418000001002F
(1739001636.021) RX 55A#003331005F365B68
(1739001636.021) RX 1D4#F7070000474600BC
(1739001636.021) RX 1F2#10640000001E010D
(1739001636.022) RX 284#000000000000850B
(1739001636.027) RX 11A#014000AAC0000003
(1739001636.027) RX 1C2#5F
(1739001636.029) RX 1DB#FC60BFEA000000F6
(1739001636.030) RX 1DC#B40F8FFD0CCCD8E4
(1739001636.031) RX 1DA#C1641800000101AA
(1739001636.031) RX 1D4#F707000087460070
(1739001636.032) RX 1F2#10640000001E020E
(1739001636.032) RX 50B#000006C00060
(1739001636.037) RX 1C2#50
(1739001636.037) RX 11A#0140005500000115
(1739001636.040) RX 1DB#FC60BFEA00000173
(1739001636.040) RX 1DC#B40F8FFD0130C9CE
(1739001636.040) RX 55B#CA40AA00E44012D8
(1739001636.040) RX 5BC#5A032C26B3064080
(1739001636.041) RX 1DA#C1641800000102A0
(1739001636.042) RX 1D4#F7070000C74600B7
(1739001636.042) RX 1F2#10640000001E030F
(1739001636.042) RX 284#000000000000860C
(1739001636.047) RX 11A#01400055400002D8
(1739001636.048) RX 1C2#51
(1739001636.050) RX 1DB#FC60BFEA00000279
(1739001636.050) RX 1DC#B40F8FFD0520C64C
(1739001636.050) RX 5C0#404C4C0004E41200
(1739001636.051) RX 5EB#E00FFFFFFFFFFFFF
(1739001636.051) RX 1DA#C164180000010325
(1739001636.052) RX 1D4#F70700000746007B
(1739001636.052) RX 1F2#10640000001E000C
(1739001636.057) RX 1C2#52
(1739001636.057) RX 11A#014000AA800003CE
(1739001636.060) RX 1DB#FC60BFEA000003FC
(1739001636.060) RX 1DC#B40F8FFD08C0CB1B
(1739001636.061) RX 1DA#C16418000001002F
(1739001636.062) RX 1D4#F7070000474600BC
(1739001636.062) RX 1F2#10640000001E010D
(1739001636.063) RX 284#000000000000870D
(1739001636.063) RX 380#020410210000008D
(1739001636.063) RX 5BF#000000002800001A
(1739001636.067) RX 11A#014000AAC0000003
(1739001636.068) RX 1C2#53
(1739001636.070) RX 1DB#FC40BFEA000000A7
(1739001636.070) RX 1DC#B40F8FFD0CCCD8E4
(1739001636.071) RX 1DA#C1641800000101AA
(1739001636.072) RX 1D4#F707000087460070
(1739001636.073) RX 1F2#10640000001E020E
(1739001636.077) RX 11A#0140005500000115
(1739001636.078) RX 1C2#54
(1739001636.080) RX 1DB#FC40BFAA000001BC
(1739001636.080) RX 1DC#B40F8FFD0130C9CE
(1739001636.081) RX 1DA#C0641800000102A7
(1739001636.083) RX 1D4#F7070000C74600B7
(1739001636.083) RX 1F2#10640000001E030F
(1739001636.083) RX 284#000000000000880E
(1739001636.087) RX 11A#01400055400002D8
(1739001636.087) RX 1C2#55
(1739001636.090) RX 1DB#FC20BFAA00000245
(1739001636.090) RX 1DC#B40F8FFD0520C64C
(1739001636.091) RX 1DA#C064180000010322
(1739001636.093) RX 1D4#F70700000746007B
(1739001636.093) RX 1F2#10640000001E000C
(1739001636.093) RX 50C#000000025D63
(1739001636.094) RX 54A#9E0070062C00002D
(1739001636.095) RX 54B#0076981214000000
(1739001636.096) RX 54C#6D66400000485A00
(1739001636.097) RX 54F#2301000007538A36
(1739001636.097) RX 11A#014000AA800003CE
(1739001636.098) RX 1C2#56
(1739001636.100) RX 1DB#FC00BFAA00000391
(1739001636.100) RX 1DC#B40F8FFD08C0CB1B
(1739001636.101) RX 1DA#C064180000010028
(1739001636.103) RX 1D4#F7070000474600BC
(1739001636.103) RX 1F2#10640000001E010D
(1739001636.104) RX 284#000000000000890F
(1739001636.107) RX 11A#014000AAC0000003
(1739001636.108) RX 1C2#57
(1739001636.110) RX 1DB#FBE0BFAA000000BC
(1739001636.110) RX 1DC#B40F8FFD0CCCD8E4
(1739001636.111) RX 1DA#C0641800000101AD
(1739001636.113) RX 1D4#F707000087460070
(1739001636.114) RX 1F2#10640000001E020E
(1739001636.114) RX 50A#8552A00D8020
(1739001636.117) RX 11A#0140005500000115
(1739001636.118) RX 1C2#58
(1739001636.120) RX 1DB#FBE0BFAA00000139
(1739001636.120) RX 1DC#B40F8FFD0130C9CE
(1739001636.121) RX 1DA#C0641800000102A7
(1739001636.121) RX 55A#003331005F365B68
(1739001636.124) RX 1D4#F7070000C74600B7
(1739001636.124) RX 1F2#10640000001E030F
(1739001636.124) RX 284#0000000000008A10
(1739001636.127) RX 11A#01400055400002D8
(1739001636.127) RX 1C2#59
(1739001636.130) RX 1DB#FBC0BFAA00000262
(1739001636.130) RX 1DC#B40F8FFD0520C64C
(1739001636.131) RX 1DA#C064180000010322
(1739001636.134) RX 1D4#F70700000746007B
(1739001636.134) RX 1F2#10640000001E000C
(1739001636.134) RX 50B#000006C00060
(1739001636.137) RX 11A#014000AA800003CE
(1739001636.138) RX 1C2#5A
(1739001636.140) RX 1DB#FBA0BFAA00000314
(1739001636.140) RX 1DC#B40F8FFD08C0CB1B
(1739001636.141) RX 55B#CA405500E440131A
(1739001636.141) RX 1DA#C064180000010028
(1739001636.141) RX 5BC#5A032026B2040080
(1739001636.144) RX 1D4#F7070000474600BC
(1739001636.144) RX 1F2#10640000001E010D
(1739001636.145) RX 284#0000000000008B11
(1739001636.147) RX 11A#014000AAC0000003
(1739001636.147) RX 1C2#5B
(1739001636.150) RX 1DB#FB80BFAA0000004F
(1739001636.150) RX 1DC#B40F8FFD0CCCD8E4
(1739001636.151) RX 1DA#C0641800000101AD
(1739001636.154) RX 1D4#F707000087460070
(1739001636.154) RX 1F2#10640000001E020E
(1739001636.157) RX 11A#0140005500000115
(1739001636.158) RX 1C2#5C
(1739001636.160) RX 1DB#FB80BFAA000001CA
(1739001636.160) RX 1DC#B40F8FFD0130C9CE
(1739001636.161) RX 1DA#C0641800000102A7
(1739001636.162) RX 380#020410210000009E
(1739001636.162) RX 5BF#000000002800002B
(1739001636.165) RX 1D4#F7070000C74600B7
(1739001636.165) RX 1F2#10640000001E030F
(1739001636.165) RX 284#0000000000008C12
(1739001636.167) RX 11A#01400055400002D8
(1739001636.168) RX 1C2#5D
(1739001636.170) RX 1DB#FB80BFAA000002C0
(1739001636.170) RX 1DC#B40F8FFD0520C64C
(1739001636.171) RX 1DA#C064180000010322
(1739001636.175) RX 1D4#F70700000746007B
(1739001636.175) RX 1F2#10640000001E000C
(1739001636.177) RX 11A#014000AA800003CE
(1739001636.178) RX 1C2#5E
(1739001636.180) RX 1DB#FB80BFAA00000345
(1739001636.180) RX 1DC#B40F8FFD08C0CB1B
(1739001636.181) RX 1DA#C16418000001002F
(1739001636.185) RX 1D4#F7070000474600BC
(1739001636.185) RX 1F2#10640000001E010D
(1739001636.185) RX 284#0000000000008D13
(1739001636.187) RX 11A#014000AAC0000003
(1739001636.188) RX 1C2#5F
(1739001636.190) RX 1DB#FBA0BFAA0000001E
(1739001636.190) RX 1DC#B40F8FFD0CCCD8E4
(1739001636.191) RX 1DA#C1641800000101AA
(1739001636.195) RX 54A#100070062C00002D
(1739001636.195) RX 1D4#F707000087460070
(1739001636.195) RX 1F2#10640000001E020E
(1739001636.196) RX 50C#00000003B29A
(1739001636.196) RX 54B#0076981214000000
(1739001636.197) RX 54C#6D66400000485A00
(1739001636.197) RX 11A#0140005500000115
(1739001636.198) RX 54F#2301000007938A36
(1739001636.198) RX 1C2#50
(1739001636.200) RX 1DB#FBC0BFAA00000168
(1739001636.200) RX 1DC#B40F8FFD0130C9CE
(1739001636.201) RX 1DA#C1641800000102A0
(1739001636.206) RX 1D4#F7070000C74600B7
(1739001636.206) RX 1F2#10640000001E030F
(1739001636.206) RX 284#0000000000008E14
(1739001636.207) RX 11A#01400055400002D8
(1739001636.208) RX 1C2#51
(1739001636.210) RX 1DB#FBE0BFAA00000233
(1739001636.210) RX 1DC#B40F8FFD0520C64C
(1739001636.211) RX 1DA#C164180000010325
(1739001636.216) RX 1D4#F70700000746007B
(1739001636.216) RX 1F2#10640000001E000C
(1739001636.216) RX 50A#8572A00D8020
(1739001636.217) RX 54A#9E0070072B00002D
(1739001636.217) RX 11A#014000AA800003CE
(1739001636.218) RX 54B#0076981214000001
(1739001636.218) RX 1C2#52
(1739001636.219) RX 54C#6D66400000485A00
(1739001636.220) RX 54F#2301000007D38A36
(1739001636.220) RX 1DB#FBE0BFAA000003B6
(1739001636.220) RX 1DC#B40F8FFD08C0CB1B
(1739001636.221) RX 1DA#C16418000001002F
(1739001636.221) RX 55A#003331005F365B68
(1739001636.226) RX 1D4#F7070000474600BC
(1739001636.226) RX 1F2#10640000001E010D
(1739001636.227) RX 284#0000000000008F15
(1739001636.227) RX 11A#014000AAC0000003
(1739001636.228) RX 1C2#53
(1739001636.230) RX 1DB#FC00BFAA0000009B
(1739001636.230) RX 1DC#B40F8FFD0CCCD8E4
(1739001636.231) RX 1DA#C1641800000101AA
(1739001636.236) RX 1D4#F707000087460070
(1739001636.236) RX 1F2#10640000001E020E
(1739001636.237) RX 50B#000006C00060
(1739001636.237) RX 11A#0140005500000115
(1739001636.238) RX 1C2#54
(1739001636.240) RX 1DB#FC20BFAA0000014F
(1739001636.241) RX 1DC#B40F8FFD0130C9CE
(1739001636.241) RX 1DA#C1641800000102A0
(1739001636.241) RX 55B#CA40AA00E4401057
(1739001636.241) RX 5BC#5A032026B2040080
(1739001636.246) RX 1D4#F7070000C74600B7
(1739001636.247) RX 1F2#10640000001E030F
(1739001636.247) RX 284#0000000000009016
(1739001636.247) RX 11A#01400055400002D8
(1739001636.248) RX 1C2#55
(1739001636.250) RX 1DB#FC40BFAA000002B6
(1739001636.250) RX 1DC#B40F8FFD0520C64C
(1739001636.251) RX 1DA#C164180000010325
(1739001636.257) RX 1D4#F70700000746007B
(1739001636.257) RX 1F2#10640000001E000C
(1739001636.257) RX 284#0000000000009117
(1739001636.257) RX 11A#014000AA800003CE
(1739001636.258) RX 1C2#56
(1739001636.260) RX 1DB#FC40BFAA00000333
(1739001636.260) RX 1DC#B40F8FFD08C0CB1B
(1739001636.261) RX 1DA#C16418000001002F
(1739001636.262) RX 380#02041021000000AF
(1739001636.263) RX 5BF#000000002800003C
(1739001636.267) RX 11A#014000AAC0000003
(1739001636.267) RX 1D4#F7070000474600BC
(1739001636.267) RX 1F2#10640000001E010D
(1739001636.268) RX 1C2#57
(1739001636.270) RX 1DB#FC60BFAA00000068
(1739001636.270) RX 1DC#B40F8FFD0CCCD8E4
(1739001636.271) RX 1DA#C1641800000101AA
(1739001636.277) RX 1D4#F707000087460070
(1739001636.277) RX 1F2#10640000001E020E
(1739001636.278) RX 11A#0140005500000115
(1739001636.278) RX 284#0000000000009218
(1739001636.278) RX 1C2#58
(1739001636.260) RX 1DB#FC40BFAA00000333
(1739001636.260) RX 1DC#B40F8FFD08C0CB1B
(1739001636.261) RX 1DA#C16418000001002F
(1739001636.262) RX 380#02041021000000AF
(1739001636.263) RX 5BF#000000002800003C
(1739001636.267) RX 11A#014000AAC0000003
(1739001636.267) RX 1D4#F7070000474600BC
(1739001636.267) RX 1F2#106(1739001636.280) RX 1DB#FC60BFEA00000173
(1739001636.281) RX 1DC#B40F8FFD0130C9CE
(1739001636.281) RX 1DA#C1641800000102A0
(1739001636.287) RX 11A#01400055400002D8
(1739001636.287) RX 1D4#F7070000C74600B7
(1739001636.288) RX 1F2#10640000001E030F
(1739001636.288) RX 1C2#59
(1739001636.290) RX 1DB#FC60BFEA00000279
(1739001636.290) RX 1DC#B40F8FFD0520C64C
(1739001636.291) RX 1DA#C164180000010325
(1739001636.297) RX 11A#014000AA800003CE
(1739001636.298) RX 1D4#F70700000746007B
(1739001636.298) RX 1F2#10640000001E000C
(1739001636.298) RX 1C2#5A
(1739001636.298) RX 284#0000000000009319
(1739001636.299) RX 50C#000000005DC8
(1739001636.300) RX 1DB#FC60BFEA000003FC
(1739001636.301) RX 1DA#C16418000001002F
(1739001636.301) RX 1DC#B40F8FFD08C0CB1B
(1739001636.307) RX 11A#014000AAC0000003
(1739001636.308) RX 1D4#F7070000474600BC
(1739001636.308) RX 1C2#5B
(1739001636.308) RX 1F2#10640000001E010D
(1739001636.308) RX 5A9#643C501304300000
(1739001636.310) RX 1DB#FC60BFEA000000F6
(1739001636.310) RX 1DC#B40F8FFD0CCCD8E4
(1739001636.311) RX 1DA#C1641800000101AA
(1739001636.314) RX 54A#100070072B00002D
(1739001636.315) RX 54B#0076981214000001
(1739001636.316) RX 54C#6D66400000485A00
(1739001636.317) RX 54F#2301000007148A36
(1739001636.317) RX 11A#0140005500000115
(1739001636.318) RX 1C2#5C
(1739001636.318) RX 1D4#F707000087460070
(1739001636.318) RX 1F2#10640000001E020E
(1739001636.319) RX 284#000000000000941A
(1739001636.319) RX 50A#8512A00D8020
(1739001636.320) RX 1DB#FC60BFEA00000173
(1739001636.321) RX 1DC#B40F8FFD0130C9CE
(1739001636.321) RX 1DA#C1641800000102A0
(1739001636.321) RX 55A#003331005F365B68
(1739001636.327) RX 11A#01400055400002D8
(1739001636.328) RX 1D4#F7070000C74600B7
(1739001636.329) RX 1C2#5D
(1739001636.329) RX 1F2#10640000001E030F
(1739001636.330) RX 1DB#FC60BFEA00000279
(1739001636.331) RX 1DC#B40F8FFD0520C64C
(1739001636.331) RX 1DA#C164180000010325
(1739001636.337) RX 11A#014000AA800003CE
(1739001636.338) RX 1C2#5E
(1739001636.339) RX 1D4#F70700000746007B
(1739001636.339) RX 1F2#10640000001E000C
(1739001636.339) RX 284#000000000000951B
(1739001636.339) RX 50B#000006C00060
(1739001636.341) RX 1DB#FC60BFEA000003FC
(1739001636.341) RX 1DA#C16418000001002F
(1739001636.341) RX 1DC#B40F8FFD08C0CB1B
(1739001636.341) RX 55B#CA405500E50011F3
(1739001636.342) RX 5BC#5A032026B2040080
(1739001636.347) RX 11A#014000AAC0000003
(1739001636.348) RX 1C2#5F
(1739001636.349) RX 1D4#F7070000474600BC
(1739001636.349) RX 1F2#10640000001E010D
(1739001636.350) RX 1DB#FC60BFEA000000F6
(1739001636.351) RX 1DC#B40F8FFD0CCCD8E4
(1739001636.351) RX 1DA#C1641800000101AA
(1739001636.357) RX 11A#0140005500000115
(1739001636.358) RX 1C2#50
(1739001636.359) RX 1D4#F707000087460070
(1739001636.359) RX 1F2#10640000001E020E
(1739001636.360) RX 284#000000000000961C
(1739001636.361) RX 1DB#FC60BFEA00000173
(1739001636.361) RX 1DA#C1641800000102A0
(1739001636.361) RX 1DC#B40F8FFD0130C9CE
(1739001636.362) RX 380#02041021000000B0
(1739001636.363) RX 5BF#0000000028000009
(1739001636.367) RX 11A#01400055400002D8
(1739001636.368) RX 1C2#51
(1739001636.369) RX 1D4#F7070000C74600B7
(1739001636.370) RX 1F2#10640000001E030F
(1739001636.371) RX 1DB#FC60BFEA00000279
(1739001636.371) RX 1DA#C164180000010325
(1739001636.371) RX 1DC#B40F8FFD0520C64C
(1739001636.377) RX 11A#014000AA800003CE
(1739001636.378) RX 1C2#52
(1739001636.380) RX 1D4#F70700000746007B
(1739001636.380) RX 1F2#10640000001E000C
(1739001636.380) RX 284#000000000000971D
(1739001636.380) RX 5B9#67FF67FF28
(1739001636.381) RX 1DB#FC60BFEA000003FC
(1739001636.381) RX 1DA#C16418000001002F
(1739001636.381) RX 1DC#B40F8FFD08C0CB1B
(1739001636.387) RX 11A#014000AAC0000003
(1739001636.388) RX 1C2#53
(1739001636.390) RX 1D4#F7070000474600BC
(1739001636.390) RX 1F2#10640000001E010D
(1739001636.390) RX 1DB#FC60BFEA000000F6
(1739001636.391) RX 1DA#C1641800000101AA
(1739001636.391) RX 1DC#B40F8FFD0CCCD8E4
(1739001636.397) RX 11A#0140005500000115
(1739001636.398) RX 1C2#54
(1739001636.400) RX 1D4#F707000087460070
(1739001636.400) RX 1F2#10640000001E020E
(1739001636.401) RX 1DB#FC60BFEA00000173
(1739001636.401) RX 1DA#C1641800000102A0
(1739001636.401) RX 1DC#B40F8FFD0130C9CE
(1739001636.401) RX 284#000000000000981E
(1739001636.402) RX 50C#00000001B231
(1739001636.407) RX 11A#01400055400002D8
(1739001636.408) RX 1C2#55
(1739001636.410) RX 1D4#F7070000C74600B7
(1739001636.411) RX 1DB#FC60BFEA00000279
(1739001636.411) RX 1DA#C164180000010325
(1739001636.411) RX 1DC#B40F8FFD0520C64C
(1739001636.411) RX 1F2#10640000001E030F
(1739001636.414) RX 54A#9E0070072B00002D
(1739001636.415) RX 54B#0076981214000001
(1739001636.416) RX 54C#6D66400000485A00
(1739001636.417) RX 54F#2301000007548A36
(1739001636.417) RX 11A#014000AA800003CE
(1739001636.418) RX 1C2#56
(1739001636.421) RX 1DB#FC60BFEA000003FC
(1739001636.421) RX 1D4#F70700000746007B
(1739001636.421) RX 1DA#C16418000001002F
(1739001636.421) RX 1DC#B40F8FFD08C0CB1B
(1739001636.422) RX 1F2#10640000001E000C
(1739001636.422) RX 284#000000000000991F
(1739001636.422) RX 50A#8532A00D8020
(1739001636.422) RX 55A#003331005F365B68
(1739001636.427) RX 11A#014000AAC0000003
(1739001636.428) RX 1C2#57
(1739001636.431) RX 1DB#FC60BFEA000000F6
(1739001636.431) RX 1DA#C1641800000101AA
(1739001636.431) RX 1D4#F7070000474600BC
(1739001636.431) RX 1DC#B40F8FFD0CCCD8E4
(1739001636.432) RX 1F2#10640000001E010D
(1739001636.437) RX 11A#0140005500000115
(1739001636.438) RX 1C2#58
(1739001636.441) RX 1DA#C1641800000102A0
(1739001636.441) RX 1DB#FC80BFEA00000141
(1739001636.441) RX 1D4#F707000087460070
(1739001636.441) RX 1DC#B40F8FFD0130C9CE
(1739001636.442) RX 1F2#10640000001E020E
(1739001636.442) RX 284#0000000000009A20
(1739001636.442) RX 50B#000006C00060
(1739001636.442) RX 55B#CA40AA00E50012BE
(1739001636.443) RX 5BC#5A032026B2040080
(1739001636.447) RX 11A#01400055400002D8
(1739001636.448) RX 1C2#59
(1739001636.451) RX 1DB#FC80BFEA0000024B
(1739001636.451) RX 1DA#C164180000010325
(1739001636.451) RX 1DC#B40F8FFD0520C64C
(1739001636.451) RX 1D4#F7070000C74600B7
(1739001636.452) RX 1F2#10640000001E030F
(1739001636.457) RX 11A#014000AA800003CE
(1739001636.458) RX 1C2#5A
(1739001636.461) RX 1DA#C16418000001002F
(1739001636.461) RX 1DB#FC80BFEA000003CE
(1739001636.461) RX 1DC#B40F8FFD08C0CB1B
(1739001636.462) RX 1D4#F70700000746007B
(1739001636.462) RX 1F2#10640000001E000C
(1739001636.462) RX 284#0000000000009B21
(1739001636.463) RX 380#020410210000008D
(1739001636.463) RX 5BF#000000002800001A
(1739001636.467) RX 11A#014000AAC0000003
(1739001636.468) RX 1C2#5B
(1739001636.471) RX 1DA#C1641800000101AA
(1739001636.471) RX 1DB#FC80BFEA000000C4
(1739001636.471) RX 1DC#B40F8FFD0CCCD8E4
(1739001636.472) RX 1D4#F7070000474600BC
(1739001636.472) RX 1F2#10640000001E010D
(1739001636.477) RX 11A#0140005500000115
(1739001636.478) RX 1C2#5C
(1739001636.481) RX 1DA#C1641800000102A0
(1739001636.481) RX 1DB#FC80BFEA00000141
(1739001636.481) RX 1DC#B40F8FFD0130C9CE
(1739001636.482) RX 1D4#F707000087460070
(1739001636.482) RX 1F2#10640000001E020E
(1739001636.483) RX 284#0000000000009C22
(1739001636.487) RX 11A#01400055400002D8
(1739001636.488) RX 1C2#5D
(1739001636.491) RX 1DA#C164180000010325
(1739001636.491) RX 1DB#FC80BFEA0000024B
(1739001636.491) RX 1DC#B40F8FFD0520C64C
(1739001636.492) RX 1D4#F7070000C74600B7
(1739001636.493) RX 1F2#10640000001E030F
(1739001636.497) RX 11A#014000AA800003CE
(1739001636.498) RX 1C2#5E
(1739001636.501) RX 1DA#C16418000001002F
(1739001636.501) RX 1DB#FC80BFEA000003CE
(1739001636.501) RX 1DC#B40F8FFD08C0CB1B
(1739001636.503) RX 1D4#F70700000746007B
(1739001636.503) RX 1F2#10640000001E000C
(1739001636.503) RX 284#0000000000009D23
(1739001636.503) RX 50C#000000025D63
(1739001636.507) RX 11A#014000AAC0000003
(1739001636.508) RX 1C2#5F
(1739001636.511) RX 1DA#C1641800000101AA
(1739001636.511) RX 1DB#FC80BFEA000000C4
(1739001636.511) RX 1DC#B40F8FFD0CCCD8E4
(1739001636.513) RX 1D4#F7070000474600BC
(1739001636.513) RX 1F2#10640000001E010D
(1739001636.514) RX 54A#100070072B00002D
(1739001636.515) RX 54B#0076981214000001
(1739001636.516) RX 54C#6D66400000485A00
(1739001636.517) RX 54F#2301000007948A36
(1739001636.517) RX 11A#0140005500000115
(1739001636.518) RX 1C2#50
(1739001636.521) RX 1DA#C1641800000102A0
(1739001636.521) RX 55A#003331005F365B68
(1739001636.521) RX 1DB#FC80BFEA00000141
(1739001636.521) RX 1DC#B40F8FFD0130C9CE
(1739001636.523) RX 1D4#F707000087460070
(1739001636.523) RX 1F2#10640000001E020E
(1739001636.524) RX 284#0000000000009E24
(1739001636.524) RX 50A#8552A00D8020
(1739001636.527) RX 11A#01400055400002D8
(1739001636.528) RX 1C2#51
(1739001636.531) RX 1DA#C164180000010325
(1739001636.531) RX 1DB#FC80BFEA0000024B
(1739001636.531) RX 1DC#B40F8FFD0520C64C
(1739001636.533) RX 1D4#F7070000C74600B7
(1739001636.533) RX 1F2#10640000001E030F
(1739001636.537) RX 11A#014000AA800003CE
(1739001636.538) RX 1C2#52
(1739001636.541) RX 1DA#C16418000001002F
(1739001636.541) RX 1DB#FC80BFEA000003CE
(1739001636.542) RX 1DC#B40F8FFD08C0CB1B
(1739001636.542) RX 55B#CA405500E500137C
(1739001636.542) RX 5BC#5A032026B2040080
(1739001636.544) RX 1D4#F70700000746007B
(1739001636.544) RX 1F2#10640000001E000C
(1739001636.544) RX 284#0000000000009F25
(1739001636.544) RX 50B#000006C00060
(1739001636.547) RX 11A#014000AAC0000003
(1739001636.548) RX 1C2#53
(1739001636.551) RX 1DA#C1641800000101AA
(1739001636.551) RX 1DB#FC80BFEA000000C4
(1739001636.551) RX 1DC#B40F8FFD0CCCD8E4
(1739001636.552) RX 5C0#C04C4C0004541200
(1739001636.552) RX 5EB#E00FFFFFFFFFFFFF
(1739001636.554) RX 1D4#F7070000474600BC
(1739001636.554) RX 1F2#10640000001E010D
(1739001636.557) RX 11A#0140005500000115
(1739001636.558) RX 1C2#54
(1739001636.561) RX 1DA#C1641800000102A0
(1739001636.561) RX 1DB#FC80BFEA00000141
(1739001636.561) RX 1DC#B40F8FFD0130C9CE
(1739001636.563) RX 380#020410210000009E
(1739001636.563) RX 5BF#000000002800002B
(1739001636.564) RX 1D4#F707000087460070
(1739001636.564) RX 1F2#10640000001E020E
(1739001636.564) RX 284#000000000000A026
(1739001636.567) RX 11A#01400055400002D8
(1739001636.568) RX 1C2#55
(1739001636.571) RX 1DA#C164180000010325
(1739001636.571) RX 1DB#FC80BFEA0000024B
(1739001636.571) RX 1DC#B40F8FFD0520C64C
(1739001636.574) RX 1D4#F7070000C74600B7
(1739001636.574) RX 1F2#10640000001E030F
(1739001636.577) RX 11A#014000AA800003CE
(1739001636.578) RX 1C2#56
(1739001636.581) RX 1DA#C16418000001002F
(1739001636.581) RX 1DB#FC80BFEA000003CE
(1739001636.582) RX 1DC#B40F8FFD08C0CB1B
(1739001636.584) RX 1D4#F70700000746007B
(1739001636.585) RX 1F2#10640000001E000C
(1739001636.585) RX 284#000000000000A127
(1739001636.587) RX 11A#014000AAC0000003
(1739001636.588) RX 1C2#57
(1739001636.591) RX 1DA#C1641800000101AA
(1739001636.591) RX 1DB#FC80BFEA000000C4
(1739001636.591) RX 1DC#B40F8FFD0CCCD8E4
(1739001636.595) RX 1D4#F7070000474600BC
(1739001636.595) RX 1F2#10640000001E010D
(1739001636.597) RX 11A#0140005500000115
(1739001636.599) RX 1C2#58
(1739001636.601) RX 1DA#C1641800000102A0
(1739001636.601) RX 1DB#FC80BFEA00000141
(1739001636.602) RX 1DC#B40F8FFD0130C9CE
(1739001636.605) RX 1D4#F707000087460070
(1739001636.605) RX 1F2#10640000001E020E
(1739001636.605) RX 284#000000000000A228
(1739001636.606) RX 50C#00000003B29A
(1739001636.607) RX 11A#01400055400002D8
(1739001636.609) RX 1C2#59
(1739001636.611) RX 1DA#C164180000010325
(1739001636.611) RX 1DB#FC80BFEA0000024B
(1739001636.612) RX 1DC#B40F8FFD0520C64C
(1739001636.614) RX 54A#9E0070072B00002D
