(1739001680.682) RX 1C2#56
(1739001680.683) RX 1DA#C064180000010322
(1739001680.683) RX 1D4#F7070000474600BC
(1739001680.683) RX 1F2#10640000001E010D
(1739001680.683) RX 284#0000000000003EC4
(1739001680.684) RX 11A#01400055400002D8
(1739001680.684) RX 1DB#FC80BFAA000001DF
(1739001680.684) RX 1DC#B40F8FFD0130C9CE
(1739001680.691) RX 1C2#57
(1739001680.693) RX 1DA#C064180000010028
(1739001680.693) RX 1D4#F707000087460070
(1739001680.693) RX 1F2#10640000001E020E
(1739001680.693) RX 50B#000006C00060
(1739001680.694) RX 1DB#FC80BFAA000002D5
(1739001680.694) RX 11A#014000AA800003CE
(1739001680.694) RX 1DC#B40F8FFD0520C64C
(1739001680.701) RX 1C2#58
(1739001680.703) RX 1DA#C0641800000101AD
(1739001680.703) RX 11A#014000AAC0000003
(1739001680.703) RX 1D4#F7070000C74600B7
(1739001680.704) RX 1F2#10640000001E030F
(1739001680.704) RX 1DB#FC80BFAA00000350
(1739001680.704) RX 284#0000000000003FC5
(1739001680.704) RX 1DC#B40F8FFD08C0CB1B
(1739001680.706) RX 380#02041021000000AF
(1739001680.706) RX 5BF#000000002800003C
(1739001680.711) RX 1C2#59
(1739001680.713) RX 1DA#C0641800000102A7
(1739001680.713) RX 55A#003331005F365B68
(1739001680.713) RX 1D4#F70700000746007B
(1739001680.714) RX 1DB#FC80BFAA0000005A
(1739001680.714) RX 11A#0140005500000115
(1739001680.714) RX 1DC#B40F8FFD0CCCD8E4
(1739001680.714) RX 1F2#10640000001E000C
(1739001680.721) RX 1C2#5A
(1739001680.723) RX 1DA#C064180000010322
(1739001680.724) RX 11A#01400055400002D8
(1739001680.724) RX 1D4#F7070000474600BC
(1739001680.724) RX 1DB#FC80BFAA000001DF
(1739001680.724) RX 1F2#10640000001E010D
(1739001680.724) RX 1DC#B40F8FFD0130C9CE
(1739001680.725) RX 284#00000000000040C6
(1739001680.731) RX 1C2#5B
(1739001680.733) RX 1DA#C064180000010028
(1739001680.734) RX 1DB#FC80BFAA000002D5
(1739001680.734) RX 11A#014000AA800003CE
(1739001680.734) RX 1D4#F707000087460070
(1739001680.734) RX 1DC#B40F8FFD0520C64C
(1739001680.735) RX 1F2#10640000001E020E
(1739001680.741) RX 1C2#5C
(1739001680.743) RX 1DA#C0641800000101AD
(1739001680.743) RX 11A#014000AAC0000003
(1739001680.744) RX 1DB#FC80BFAA00000350
(1739001680.744) RX 1DC#B40F8FFD08C0CB1B
(1739001680.744) RX 1D4#F7070000C74600B7
(1739001680.745) RX 1F2#10640000001E030F
(1739001680.745) RX 284#00000000000041C7
(1739001680.751) RX 1C2#5D
(1739001680.753) RX 1DA#C0641800000102A7
(1739001680.754) RX 1DB#FC80BFAA0000005A
(1739001680.754) RX 11A#0140005500000115
(1739001680.754) RX 1DC#B40F8FFD0CCCD8E4
(1739001680.754) RX 1D4#F70700000746007B
(1739001680.755) RX 1F2#10640000001E000C
(1739001680.755) RX 50C#00000002B20D
(1739001680.761) RX 1C2#5E
(1739001680.763) RX 1DA#C064180000010322
(1739001680.764) RX 11A#01400055400002D8
(1739001680.764) RX 1DB#FC80BFAA000001DF
(1739001680.764) RX 1DC#B40F8FFD0130C9CE
(1739001680.764) RX 55B#CA00AA00E4C0104A
(1739001680.765) RX 1D4#F7070000474600BC
(1739001680.765) RX 1F2#10640000001E010D
(1739001680.765) RX 284#00000000000042C8
(1739001680.765) RX 5BC#5A032C26B3064080
(1739001680.768) RX 54A#100070062000002D
(1739001680.769) RX 54B#007698121C000000
(1739001680.770) RX 54C#6E66400000585A00
(1739001680.771) RX 54F#2301000007958A4C
(1739001680.771) RX 1C2#5F
(1739001680.773) RX 1DA#C064180000010028
(1739001680.774) RX 1DB#FC80BFAA000002D5
(1739001680.774) RX 11A#014000AA800003CE
(1739001680.774) RX 1DC#B40F8FFD0520C64C
(1739001680.775) RX 1D4#F707000087460070
(1739001680.775) RX 1F2#10640000001E020E
(1739001680.775) RX 50A#8552A00D8020
(1739001680.781) RX 1C2#50
(1739001680.788) RX 1DA#C0641800000101AD
(1739001680.789) RX 11A#014000AAC0000003
(1739001680.789) RX 1DB#FC80BFAA00000350
(1739001680.789) RX 1DC#B40F8FFD08C0CB1B
(1739001680.789) RX 1D4#F7070000C74600B7
(1739001680.790) RX 1F2#10640000001E030F
(1739001680.790) RX 284#00000000000043C9
(1739001680.791) RX 1C2#51
(1739001680.793) RX 1DA#C0641800000102A7
(1739001680.794) RX 1DB#FC80BFAA0000005A
(1739001680.794) RX 11A#0140005500000115
(1739001680.794) RX 1DC#B40F8FFD0CCCD8E4
(1739001680.795) RX 1D4#F70700000746007B
(1739001680.796) RX 1F2#10640000001E000C
(1739001680.796) RX 50B#000006C00060
(1739001680.801) RX 1C2#52
(1739001680.803) RX 1DA#C064180000010322
(1739001680.804) RX 11A#01400055400002D8
(1739001680.804) RX 1DB#FC80BFAA000001DF
(1739001680.804) RX 1DC#B40F8FFD0130C9CE
(1739001680.806) RX 1D4#F7070000474600BC
(1739001680.806) RX 1F2#10640000001E010D
(1739001680.806) RX 284#00000000000044CA
(1739001680.806) RX 380#02041021000000B0
(1739001680.807) RX 5BF#0000000028000009
(1739001680.811) RX 1C2#53
(1739001680.813) RX 1DA#C064180000010028
(1739001680.813) RX 55A#003331005F365B68
(1739001680.814) RX 1DB#FC80BFAA000002D5
(1739001680.814) RX 11A#014000AA800003CE
(1739001680.814) RX 1DC#B40F8FFD0520C64C
(1739001680.816) RX 1D4#F707000087460070
(1739001680.816) RX 1F2#10640000001E020E
(1739001680.816) RX 284#00000000000045CB
(1739001680.821) RX 1C2#54
(1739001680.823) RX 1DA#C0641800000101AD
(1739001680.823) RX 11A#014000AAC0000003
(1739001680.824) RX 1DB#FC80BFAA00000350
(1739001680.824) RX 1DC#B40F8FFD08C0CB1B
(1739001680.826) RX 1D4#F7070000C74600B7
(1739001680.826) RX 1F2#10640000001E030F
(1739001680.831) RX 1C2#55
(1739001680.833) RX 1DA#C0641800000102A7
(1739001680.834) RX 11A#0140005500000115
(1739001680.834) RX 1DB#FC80BFAA0000005A
(1739001680.834) RX 1DC#B40F8FFD0CCCD8E4
(1739001680.836) RX 1D4#F70700000746007B
(1739001680.837) RX 1F2#10640000001E000C
(1739001680.837) RX 284#00000000000046CC
(1739001680.841) RX 1C2#56
(1739001680.843) RX 1DA#C064180000010322
(1739001680.844) RX 11A#01400055400002D8
(1739001680.844) RX 1DB#FC80BFAA000001DF
(1739001680.845) RX 1DC#B40F8FFD0130C9CE
(1739001680.847) RX 1D4#F7070000474600BC
(1739001680.847) RX 1F2#10640000001E010D
(1739001680.851) RX 1C2#57
(1739001680.853) RX 1DA#C064180000010028
(1739001680.854) RX 11A#014000AA800003CE
(1739001680.854) RX 1DB#FC80BFAA000002D5
(1739001680.854) RX 1DC#B40F8FFD0520C64C
(1739001680.857) RX 1D4#F707000087460070
(1739001680.857) RX 1F2#10640000001E020E
(1739001680.857) RX 284#00000000000047CD
(1739001680.858) RX 50C#000000035DF4
(1739001680.861) RX 1C2#58
(1739001680.863) RX 1DA#C0641800000101AD
(1739001680.863) RX 11A#014000AAC0000003
(1739001680.864) RX 1DB#FC80BFAA00000350
(1739001680.864) RX 1DC#B40F8FFD08C0CB1B
(1739001680.865) RX 55B#CA005500E4C01188
(1739001680.865) RX 5BC#5A032C26B3064080
(1739001680.867) RX 1D4#F7070000C74600B7
(1739001680.867) RX 1F2#10640000001E030F
(1739001680.868) RX 5A9#643C501304300000
(1739001680.868) RX 54A#9E0070062000002D
(1739001680.869) RX 54B#007698121C000000
(1739001680.870) RX 54C#6E66400000585A00
(1739001680.871) RX 54F#2301000007D58A4C
(1739001680.871) RX 1C2#59
(1739001680.873) RX 1DA#C0641800000102A7
(1739001680.874) RX 11A#0140005500000115
(1739001680.874) RX 1DB#FC80BFAA0000005A
(1739001680.874) RX 1DC#B40F8FFD0CCCD8E4
(1739001680.877) RX 1D4#F70700000746007B
(1739001680.878) RX 1F2#10640000001E000C
(1739001680.878) RX 284#00000000000048CE
(1739001680.878) RX 50A#8572A00D8020
(1739001680.881) RX 1C2#5A
(1739001680.883) RX 1DA#C064180000010322
(1739001680.883) RX 11A#01400055400002D8
(1739001680.884) RX 1DB#FC80BFAA000001DF
(1739001680.884) RX 1DC#B40F8FFD0130C9CE
(1739001680.888) RX 1D4#F7070000474600BC
(1739001680.888) RX 1F2#10640000001E010D
(1739001680.891) RX 1C2#5B
(1739001680.893) RX 1DA#C064180000010028
(1739001680.894) RX 11A#014000AA800003CE
(1739001680.894) RX 1DB#FC80BFAA000002D5
(1739001680.894) RX 1DC#B40F8FFD0520C64C
(1739001680.898) RX 1D4#F707000087460070
(1739001680.898) RX 1F2#10640000001E020E
(1739001680.898) RX 284#00000000000049CF
(1739001680.899) RX 50B#000006C00060
(1739001680.901) RX 1C2#5C
(1739001680.903) RX 1DA#C0641800000101AD
(1739001680.903) RX 11A#014000AAC0000003
(1739001680.904) RX 1DB#FC80BFAA00000350
(1739001680.904) RX 1DC#B40F8FFD08C0CB1B
(1739001680.906) RX 380#020410210000008D
(1739001680.907) RX 5BF#000000002800001A
(1739001680.908) RX 1D4#F7070000C74600B7
(1739001680.908) RX 1F2#10640000001E030F
(1739001680.911) RX 1C2#5D
(1739001680.913) RX 1DA#C0641800000102A7
(1739001680.913) RX 55A#003331005F365B68
(1739001680.914) RX 11A#0140005500000115
(1739001680.914) RX 1DB#FC80BFAA0000005A
(1739001680.914) RX 1DC#B40F8FFD0CCCD8E4
(1739001680.918) RX 1D4#F70700000746007B
(1739001680.919) RX 1F2#10640000001E000C
(1739001680.919) RX 284#0000000000004AD0
(1739001680.921) RX 1C2#5E
(1739001680.923) RX 1DA#C064180000010322
(1739001680.923) RX 11A#01400055400002D8
(1739001680.924) RX 1DB#FC80BFAA000001DF
(1739001680.925) RX 1DC#B40F8FFD0130C9CE
(1739001680.929) RX 1D4#F7070000474600BC
(1739001680.929) RX 1F2#10640000001E010D
(1739001680.931) RX 1C2#5F
(1739001680.933) RX 1DA#C064180000010028
(1739001680.934) RX 11A#014000AA800003CE
(1739001680.934) RX 1DB#FC80BFAA000002D5
(1739001680.934) RX 1DC#B40F8FFD0520C64C
(1739001680.939) RX 1D4#F707000087460070
(1739001680.939) RX 1F2#10640000001E020E
(1739001680.939) RX 284#0000000000004BD1
(1739001680.939) RX 5B9#67FF67FF28
(1739001680.941) RX 1C2#50
(1739001680.943) RX 1DA#C0641800000101AD
(1739001680.943) RX 11A#014000AAC0000003
(1739001680.944) RX 1DB#FC80BFAA00000350
(1739001680.945) RX 1DC#B40F8FFD08C0CB1B
(1739001680.949) RX 1D4#F7070000C74600B7
(1739001680.949) RX 1F2#10640000001E030F
(1739001680.951) RX 1C2#51
(1739001680.953) RX 1DA#C0641800000102A7
(1739001680.954) RX 11A#0140005500000115
(1739001680.954) RX 1DB#FC80BFAA0000005A
(1739001680.955) RX 1DC#B40F8FFD0CCCD8E4
(1739001680.959) RX 1D4#F70700000746007B
(1739001680.960) RX 1F2#10640000001E000C
(1739001680.960) RX 284#0000000000004CD2
(1739001680.960) RX 50C#00000000B2A6
(1739001680.961) RX 1C2#52
(1739001680.963) RX 1DA#C064180000010322
(1739001680.963) RX 11A#01400055400002D8
(1739001680.964) RX 1DB#FC80BFAA000001DF
(1739001680.965) RX 1DC#B40F8FFD0130C9CE
(1739001680.965) RX 55B#CA00AA00E4C012C5
(1739001680.965) RX 5BC#5A032C26B3064080
(1739001680.968) RX 54A#100070062000002D
(1739001680.969) RX 54B#007698121C000000
(1739001680.970) RX 1D4#F7070000474600BC
(1739001680.970) RX 1F2#10640000001E010D
(1739001680.970) RX 54C#6E66400000585A00
(1739001680.971) RX 54F#2301000007158A4C
(1739001680.971) RX 1C2#53
(1739001680.973) RX 1DA#C064180000010028
(1739001680.974) RX 11A#014000AA800003CE
(1739001680.974) RX 1DB#FC80BFAA000002D5
(1739001680.975) RX 1DC#B40F8FFD0520C64C
(1739001680.980) RX 1D4#F707000087460070
(1739001680.980) RX 1F2#10640000001E020E
(1739001680.980) RX 284#0000000000004DD3
(1739001680.981) RX 50A#8512A00D8020
(1739001680.982) RX 1C2#54
(1739001680.983) RX 1DA#C0641800000101AD
(1739001680.983) RX 11A#014000A(1739001680.963) RX 11A#01400055400002D8
(1739001680.964) RX 1DB#FC80BFAA000001DF
(1739001680.965) RX 1DC#B40F8FFD0130C9CE
(1739001680.965) RX 55B#CA00AA00E4C012C5
(1739001680.965) RX 5BC#5A032C26B3064080
(1739001680.968) RX 54A#100070062000002D
(1739001680.969) RX 54B#007698121C000000
(1739001680.970) RX 1D4#F7070000474600BC
(1739001680.970) RX 1F2#10640000001E010D
(1739001680.970) RX 54C(1739001680.984) RX 1DB#FC80BFAA00000350
(1739001680.985) RX 1DC#B40F8FFD08C0CB1B
(1739001680.990) RX 1D4#F7070000C74600B7
(1739001680.990) RX 1F2#10640000001E030F
(1739001680.991) RX 1C2#55
(1739001680.993) RX 1DA#C0641800000102A7
(1739001680.994) RX 11A#0140005500000115
(1739001680.994) RX 1DB#FC80BFAA0000005A
(1739001680.995) RX 1DC#B40F8FFD0CCCD8E4
(1739001681.000) RX 1D4#F70700000746007B
(1739001681.000) RX 1F2#10640000001E000C
(1739001681.001) RX 284#0000000000004ED4
(1739001681.001) RX 50B#000006C00060
(1739001681.002) RX 1C2#56
(1739001681.003) RX 1DA#C064180000010322
(1739001681.003) RX 11A#01400055400002D8
(1739001681.004) RX 1DB#FC80BFAA000001DF
(1739001681.005) RX 1DC#B40F8FFD0130C9CE
(1739001681.007) RX 380#020410210000009E
(1739001681.007) RX 5BF#000000002800002B
(1739001681.011) RX 1D4#F7070000474600BC
(1739001681.011) RX 1F2#10640000001E010D
(1739001681.012) RX 1C2#57
(1739001681.013) RX 1DA#C064180000010028
(1739001681.013) RX 55A#003331005F365B68
(1739001681.014) RX 11A#014000AA800003CE
(1739001681.014) RX 1DB#FC80BFAA000002D5
(1739001681.015) RX 1DC#B40F8FFD0520C64C
(1739001681.021) RX 1D4#F707000087460070
(1739001681.021) RX 1F2#10640000001E020E
(1739001681.021) RX 284#0000000000004FD5
(1739001681.022) RX 1C2#58
(1739001681.023) RX 1DA#C0641800000101AD
(1739001681.023) RX 11A#014000AAC0000003
(1739001681.024) RX 1DB#FC80BFAA00000350
(1739001681.025) RX 1DC#B40F8FFD08C0CB1B
(1739001681.031) RX 1D4#F7070000C74600B7
(1739001681.031) RX 1F2#10640000001E030F
(1739001681.032) RX 1C2#59
(1739001681.033) RX 1DA#C0641800000102A7
(1739001681.034) RX 11A#0140005500000115
(1739001681.034) RX 1DB#FC80BFAA0000005A
(1739001681.035) RX 1DC#B40F8FFD0CCCD8E4
(1739001681.041) RX 1D4#F70700000746007B
(1739001681.041) RX 1F2#10640000001E000C
(1739001681.042) RX 284#00000000000050D6
(1739001681.042) RX 1C2#5A
(1739001681.043) RX 1DA#C064180000010322
(1739001681.043) RX 11A#01400055400002D8
(1739001681.044) RX 1DB#FC80BFAA000001DF
(1739001681.045) RX 1DC#B40F8FFD0130C9CE
(1739001681.051) RX 1D4#F7070000474600BC
(1739001681.052) RX 1F2#10640000001E010D
(1739001681.052) RX 1C2#5B
(1739001681.053) RX 1DA#C064180000010028
(1739001681.054) RX 11A#014000AA800003CE
(1739001681.055) RX 1DB#FC80BFAA000002D5
(1739001681.055) RX 1DC#B40F8FFD0520C64C
(1739001681.062) RX 1D4#F707000087460070
(1739001681.062) RX 1C2#5C
(1739001681.062) RX 1F2#10640000001E020E
(1739001681.062) RX 284#00000000000051D7
(1739001681.063) RX 50C#000000015D5F
(1739001681.063) RX 1DA#C0641800000101AD
(1739001681.063) RX 11A#014000AAC0000003
(1739001681.043) RX 11A#01400055400002D8
(1739001681.044) RX 1DB#FC80BFAA000001DF
(1739001681.045) RX 1DC#B40F8FFD0130C9CE
(1739001681.051) RX 1D4#F7070000474600BC
(1739001681.052) RX 1F2#10640000001E010D
(1739001681.052) RX 1C2#5B
(1739001681.053) RX 1DA#C064180000010028
(1739001681.074) RX 11A#0140005500000115
(1739001681.075) RX 1DB#FC80BFAA0000005A
(1739001681.075) RX 1DC#B40F8FFD0CCCD8E4
(1739001681.082) RX 1C2#5E
(1739001681.082) RX 1D4#F70700000746007B
(1739001681.082) RX 1F2#10640000001E000C
(1739001681.083) RX 1DA#C064180000010322
(1739001681.083) RX 284#00000000000052D8
(1739001681.083) RX 50A#8532A00D8020
(1739001681.083) RX 11A#01400055400002D8
(1739001681.085) RX 1DB#FC80BFAA000001DF
(1739001681.085) RX 1DC#B40F8FFD0130C9CE
(1739001681.092) RX 1C2#5F
(1739001681.092) RX 1D4#F7070000474600BC
(1739001681.093) RX 1DA#C064180000010028
(1739001681.093) RX 1F2#10640000001E010D
(1739001681.094) RX 11A#014000AA800003CE
(1739001681.095) RX 1DB#FC80BFAA000002D5
(1739001681.095) RX 1DC#B40F8FFD0520C64C
(1739001681.102) RX 1C2#50
(1739001681.103) RX 1DA#C0641800000101AD
(1739001681.103) RX 1D4#F707000087460070
(1739001681.103) RX 1F2#10640000001E020E
 1739001681.083) RX 284#00000000000052D8
(1739001681.083) RX 50A#8532A00D8020
(1739001681.083) RX 11A#01400055400002D8
(1739001681.085) RX 1DB#FC80BFAA000001DF
(1739001681.085) RX 1DC#B40F8FFD0130C9CE
(1739001681.092) RX 1C2#5F
(1739001681.092) RX 1D4#F7070000474600BC
(1739001681.093) RX 1DA#C064180000010028
(173(1739001681.103) RX 11A#014000AAC0000003
(1739001681.104) RX 284#00000000000053D9
(1739001681.104) RX 50B#000006C00060
(1739001681.105) RX 1DB#FC80BFAA00000350
(1739001681.105) RX 1DC#B40F8FFD08C0CB1B
(1739001681.107) RX 380#02041021000000AF
(1739001681.107) RX 5BF#000000002800003C
(1739001681.112) RX 1C2#51
(1739001681.113) RX 1DA#C0641800000102A7
(1739001681.113) RX 55A#003331005F365B68
(1739001681.113) RX 1D4#F7070000C74600B7
(1739001681.094) RX 11A#014000AA800003CE
(1739001681.095) RX 1DB#FC80BFAA000002D5
(1739001681.095) RX 1DC#B40F8FFD0520C64C
(1739001681.102) RX 1C2#50
(1739001681.103) RX 1DA#C0641800000101AD
(1739001681.103) RX 1D4#F707000087460070
(1739001681.103) RX 1F2#10640000001E020E
(1739001681.123) RX 1D4#F70700000746007B
(1739001681.123) RX 1F2#10640000001E000C
(1739001681.124) RX 11A#01400055400002D8
(1739001681.124) RX 284#00000000000054DA
(1739001681.125) RX 1DB#FC80BFAA000001DF
(1739001681.125) RX 1DC#B40F8FFD0130C9CE
(1739001681.132) RX 1C2#53
(1739001681.133) RX 1DA#C064180000010028
(1739001681.133) RX 1D4#F7070000474600BC
(1739001681.134) RX 1F2#10640000001E010D
(1739001681.134) RX 11A#014000AA800003CE
(1739001681.135) RX 1DB#FC80BFAA000002D5
(1739001681.135) RX 1DC#B40F8FFD0520C64C
(1739001681.142) RX 1C2#54
(1739001681.143) RX 1DA#C0641800000101AD
(1739001681.143) RX 11A#014000AAC0000003
(1739001681.123) RX 1D4#F70700000746007B
(1739001681.123) RX 1F2#10640000001E000C
(1739001681.124) RX 11A#01400055400002D8
(1739001681.124) RX 284#00000000000054DA
(1739001681.125) RX 1DB#FC80BFAA000001DF
(1739001681.125) RX 1DC#B40F8FFD0130C9CE
(1739001681.132) RX 1C2#53
(1739001681.133) RX 1DA#C064180000010028
(1739001681.144) RX 1D4#F707000087460070
(1739001681.144) RX 1F2#10640000001E020E
(1739001681.144) RX 284#00000000000055DB
(1739001681.145) RX 1DB#FC80BFAA00000350
(1739001681.145) RX 1DC#B40F8FFD08C0CB1B
(1739001681.152) RX 1C2#55
(1739001681.153) RX 1DA#C0641800000102A7
(1739001681.154) RX 11A#0140005500000115
(1739001681.154) RX 1D4#F7070000C74600B7
(1739001681.154) RX 1F2#10640000001E030F
(1739001681.155) RX 1DB#FC80BFAA0000005A
(1739001681.155) RX 1DC#B40F8FFD0CCCD8E4
(1739001681.162) RX 1C2#56
(1739001681.163) RX 1DA#C064180000010322
(1739001681.163) RX 11A#01400055400002D8
(1739001681.164) RX 1D4#F70700000746007B
(1739001681.164) RX 1F2#10640000001E000C
(1739001681.165) RX 284#00000000000056DC
(1739001681.165) RX 50C#00000002B20D
(1739001681.165) RX 1DB#FC80BFAA000001DF
(1739001681.165) RX 1DC#B40F8FFD0130C9CE
(1739001681.166) RX 55B#CA00AA00E4C0104A
(1739001681.166) RX 5BC#5A032C26B3064080
(1739001681.168) RX 54A#100070062000002D
(1739001681.169) RX 54B#007698121C000000
(1739001681.170) RX 54C#6E66400000585A00
(1739001681.171) RX 54F#2301000007958A4C
(1739001681.172) RX 1C2#57
(1739001681.173) RX 1DA#C064180000010028
(1739001681.174) RX 11A#014000AA800003CE
(1739001681.174) RX 1D4#F7070000474600BC
(1739001681.175) RX 1F2#10640000001E010D
(1739001681.175) RX 1DB#FC80BFAA000002D5
(1739001681.175) RX 1DC#B40F8FFD0520C64C
(1739001681.176) RX 5C0#404C4C0004E41200
(1739001681.176) RX 5EB#E00FFFFFFFFFFFFF
(1739001681.182) RX 1C2#58
(1739001681.183) RX 1DA#C0641800000101AD
(1739001681.183) RX 11A#014000AAC0000003
(1739001681.185) RX 1D4#F707000087460070
(1739001681.185) RX 1F2#10640000001E020E
(1739001681.185) RX 1DB#FC80BFAA00000350
(1739001681.185) RX 284#00000000000057DD
(1739001681.186) RX 1DC#B40F8FFD08C0CB1B
(1739001681.186) RX 50A#8552A00D8020
(1739001681.192) RX 1C2#59
(1739001681.193) RX 1DA#C0641800000102A7
(1739001681.194) RX 11A#0140005500000115
(1739001681.195) RX 1DB#FC80BFAA0000005A
(1739001681.195) RX 1D4#F7070000C74600B7
(1739001681.195) RX 1DC#B40F8FFD0CCCD8E4
(1739001681.196) RX 1F2#10640000001E030F
(1739001681.202) RX 1C2#5A
(1739001681.203) RX 1DA#C064180000010322
(1739001681.203) RX 11A#01400055400002D8
(1739001681.205) RX 1DB#FC80BFAA000001DF
(1739001681.205) RX 1D4#F70700000746007B
(1739001681.205) RX 1DC#B40F8FFD0130C9CE
(1739001681.206) RX 1F2#10640000001E000C
(1739001681.206) RX 284#00000000000058DE
(1739001681.206) RX 50B#000006C00060
(1739001681.207) RX 380#02041021000000B0
(1739001681.207) RX 5BF#0000000028000009
(1739001681.212) RX 1C2#5B
(1739001681.213) RX 1DA#C064180000010028
(1739001681.213) RX 55A#003331005F365B68
(1739001681.214) RX 11A#014000AA800003CE
(1739001681.215) RX 1DB#FC80BFAA000002D5
(1739001681.215) RX 1DC#B40F8FFD0520C64C
(1739001681.215) RX 1D4#F7070000474600BC
(1739001681.216) RX 1F2#10640000001E010D
(1739001681.222) RX 1C2#5C
(1739001681.223) RX 1DA#C0641800000101AD
(1739001681.223) RX 11A#014000AAC0000003
(1739001681.225) RX 1DB#FC80BFAA00000350
(1739001681.225) RX 1DC#B40F8FFD08C0CB1B
(1739001681.226) RX 1D4#F707000087460070
(1739001681.226) RX 1F2#10640000001E020E
(1739001681.226) RX 284#00000000000059DF
(1739001681.232) RX 1C2#5D
(1739001681.233) RX 1DA#C0641800000102A7
(1739001681.234) RX 11A#0140005500000115
(1739001681.235) RX 1DB#FC80BFAA0000005A
(1739001681.235) RX 1DC#B40F8FFD0CCCD8E4
(1739001681.236) RX 1D4#F7070000C74600B7
(1739001681.236) RX 1F2#10640000001E030F
(1739001681.236) RX 284#0000000000005AE0
(1739001681.242) RX 1C2#5E
(1739001681.243) RX 1DA#C064180000010322
(1739001681.243) RX 11A#01400055400002D8
(1739001681.245) RX 1DB#FC80BFAA000001DF
(1739001681.245) RX 1DC#B40F8FFD0130C9CE
(1739001681.246) RX 1D4#F70700000746007B
(1739001681.246) RX 1F2#10640000001E000C
(1739001681.252) RX 1C2#5F
(1739001681.253) RX 1DA#C064180000010028
(1739001681.254) RX 11A#014000AA800003CE
(1739001681.255) RX 1DB#FC80BFAA000002D5
(1739001681.255) RX 1DC#B40F8FFD0520C64C
(1739001681.256) RX 1D4#F7070000474600BC
(1739001681.257) RX 1F2#10640000001E010D
(1739001681.257) RX 284#0000000000005BE1
(1739001681.262) RX 1C2#50
(1739001681.263) RX 1DA#C0641800000101AD
(1739001681.263) RX 11A#014000AAC0000003
(1739001681.265) RX 1DB#FC80BFAA00000350
(1739001681.266) RX 1DC#B40F8FFD08C0CB1B
(1739001681.266) RX 55B#CA00AA00E4C011CF
(1739001681.266) RX 5BC#5A032026B2040080
(1739001681.267) RX 1D4#F707000087460070
(1739001681.267) RX 1F2#10640000001E020E
(1739001681.267) RX 50C#000000035DF4
(1739001681.268) RX 54A#9E0070062000002D
(1739001681.269) RX 54B#007698121C000000
(1739001681.270) RX 54C#6E66400000585A00
(1739001681.271) RX 54F#2301000007D58A4C
(1739001681.272) RX 1C2#51
(1739001681.273) RX 1DA#C0641800000102A7
(1739001681.274) RX 11A#0140005500000115
(1739001681.275) RX 1DB#FC80BFAA0000005A
(1739001681.275) RX 1DC#B40F8FFD0CCCD8E4
(1739001681.277) RX 1D4#F7070000C74600B7
(1739001681.277) RX 1F2#10640000001E030F
(1739001681.277) RX 284#0000000000005CE2
(1739001681.282) RX 1C2#52
(1739001681.283) RX 1DA#C064180000010322
(1739001681.283) RX 11A#01400055400002D8
(1739001681.285) RX 1DB#FC80BFAA000001DF
(1739001681.285) RX 1DC#B40F8FFD0130C9CE
(1739001681.287) RX 1D4#F70700000746007B
(1739001681.287) RX 1F2#10640000001E000C
(1739001681.287) RX 50A#8572A00D8020
(1739001681.292) RX 1C2#53
(1739001681.293) RX 1DA#C064180000010028
(1739001681.294) RX 11A#014000AA800003CE
(1739001681.295) RX 1DB#FC80BFAA000002D5
(1739001681.295) RX 1DC#B40F8FFD0520C64C
(1739001681.297) RX 1D4#F7070000474600BC
(1739001681.298) RX 1F2#10640000001E010D
(1739001681.298) RX 284#0000000000005DE3
(1739001681.302) RX 1C2#54
(1739001681.303) RX 1DA#C0641800000101AD
(1739001681.303) RX 11A#014000AAC0000003
(1739001681.305) RX 1DB#FC80BFAA00000350
(1739001681.305) RX 1DC#B40F8FFD08C0CB1B
(1739001681.307) RX 380#020410210000008D
(1739001681.307) RX 5BF#000000002800001A
(1739001681.308) RX 1D4#F707000087460070
(1739001681.308) RX 1F2#10640000001E020E
(1739001681.308) RX 50B#000006C00060
(1739001681.312) RX 1C2#55
(1739001681.313) RX 1DA#C0641800000102A7
(1739001681.313) RX 55A#003331005F365B68
(1739001681.314) RX 11A#0140005500000115
(1739001681.315) RX 1DB#FC80BFAA0000005A
(1739001681.315) RX 1DC#B40F8FFD0CCCD8E4
(1739001681.318) RX 1D4#F7070000C74600B7
(1739001681.318) RX 1F2#10640000001E030F
(1739001681.318) RX 284#0000000000005EE4
(1739001681.322) RX 1C2#56
(1739001681.323) RX 1DA#C064180000010322
(1739001681.323) RX 11A#01400055400002D8
(1739001681.325) RX 1DB#FC80BFAA000001DF
(1739001681.325) RX 1DC#B40F8FFD0130C9CE
(1739001681.328) RX 1D4#F70700000746007B
(1739001681.328) RX 1F2#10640000001E000C
(1739001681.332) RX 1C2#57
(1739001681.333) RX 1DA#C064180000010028
(1739001681.334) RX 11A#014000AA800003CE
(1739001681.335) RX 1DB#FC80BFAA000002D5
(1739001681.335) RX 1DC#B40F8FFD0520C64C
(1739001681.338) RX 1D4#F7070000474600BC
(1739001681.339) RX 1F2#10640000001E010D
(1739001681.339) RX 284#0000000000005FE5
(1739001681.342) RX 1C2#58
(1739001681.343) RX 1DA#C0641800000101AD
(1739001681.343) RX 11A#014000AAC0000003
(1739001681.323) RX 11A#01400055400002D8
(1739001681.325) RX 1DB#FC80BFAA000001DF
(1739001681.325) RX 1DC#B40F8FFD0130C9CE
(1739001681.328) RX 1D4#F70700000746007B
(1739001681.328) RX 1F2#10640000001E000C
(1739001681.332) RX 1C2#57
(1739001681.333) RX 1DA#C064180000010028
(1739001681.354) RX 11A#0140005500000115
(1739001681.355) RX 1DB#FC80BFAA0000005A
(1739001681.356) RX 1DC#B40F8FFD0CCCD8E4
(1739001681.359) RX 1D4#F7070000C74600B7
(1739001681.359) RX 1F2#10640000001E030F
(1739001681.359) RX 284#00000000000060E6
(1739001681.362) RX 1C2#5A
(1739001681.363) RX 1DA#C064180000010322
(1739001681.363) RX 11A#01400055400002D8
(1739001681.366) RX 1DB#FC80BFAA000001DF
(1739001681.366) RX 1DC#B40F8FFD0130C9CE
(1739001681.366) RX 55B#CA005500E4C01282
(1739001681.366) RX 5BC#5A032026B2040080
(1739001681.369) RX 54A#100070062000002D
(1739001681.369) RX 1D4#F70700000746007B
(1739001681.369) RX 1F2#10640000001E000C
(1739001681.370) RX 50C#000000005DC8
(1739001681.370) RX 54B#007698121C000000
(1739001681.370) RX 54C#6E66400000585A00
(1739001681.372) RX 54F#2301000007158A4C
(1739001681.372) RX 1C2#5B
(1739001681.373) RX 1DA#C064180000010028
(1739001681.374) RX 11A#014000AA800003CE
(1739001681.375) RX 1DB#FC80BFAA000002D5
(1739001681.376) RX 1DC#B40F8FFD0520C64C
(1739001681.379) RX 1D4#F7070000474600BC
(1739001681.380) RX 1F2#10640000001E010D
(1739001681.380) RX 284#00000000000061E7
(1739001681.380) RX 5A9#643C501304300000
(1739001681.383) RX 1DA#C0641800000101AD
(1739001681.383) RX 1C2#5C
(1739001681.383) RX 11A#014000AAC0000003
(1739001681.385) RX 1DB#FC80BFAA00000350
(1739001681.386) RX 1DC#B40F8FFD08C0CB1B
(1739001681.390) RX 1D4#F707000087460070
(1739001681.390) RX 1F2#10640000001E020E
(1739001681.390) RX 50A#8512A00D8020
(1739001681.392) RX 1DA#C0641800000102A7
(1739001681.393) RX 1C2#5D
(1739001681.394) RX 11A#0140005500000115
(1739001681.395) RX 1DB#FC80BFAA0000005A
(1739001681.396) RX 1DC#B40F8FFD0CCCD8E4
(1739001681.400) RX 1D4#F7070000C74600B7
(1739001681.400) RX 1F2#10640000001E030F
(1739001681.400) RX 284#00000000000062E8
(1739001681.402) RX 1DA#C064180000010322
(1739001681.403) RX 1C2#5E
(1739001681.403) RX 11A#01400055400002D8
(1739001681.405) RX 1DB#FC80BFAA000001DF
(1739001681.406) RX 1DC#B40F8FFD0130C9CE
(1739001681.407) RX 380#020410210000009E
(1739001681.407) RX 5BF#000000002800002B
(1739001681.410) RX 1D4#F70700000746007B
(1739001681.410) RX 1F2#10640000001E000C
(1739001681.410) RX 50B#000006C00060
(1739001681.413) RX 1DA#C064180000010028
(1739001681.413) RX 1C2#5F
(1739001681.413) RX 55A#003331005F365B68
(1739001681.414) RX 11A#014000AA800003CE
(1739001681.415) RX 1DB#FC80BFAA000002D5
(1739001681.416) RX 1DC#B40F8FFD0520C64C
(1739001681.420) RX 1D4#F7070000474600BC
(1739001681.420) RX 1F2#10640000001E010D
(1739001681.421) RX 284#00000000000063E9
(1739001681.422) RX 1DA#C0641800000101AD
(1739001681.423) RX 1C2#50
(1739001681.423) RX 11A#014000AAC0000003
 1739001681.383) RX 11A#014000AAC0000003
(1739001681.403) RX 11A#01400055400002D8
(1739001681.405) RX 1DB#FC80BFAA000001DF
(1739001681.406) RX 1DC#B40F8FFD0130C9CE
(1739001681.407) RX 380#020410210000009E
(1739001681.407) RX 5BF#000000002800002B
(1739001681.410) RX 1D4#F70700000746007B
(1739001681.410) RX 1F2#10640000001E000C
(1739001681.410) RX 50B#000006C00060
(1739001681.413) RX 1DA#C064180(1739001681.425) RX 1DB#FC80BFAA00000350
(1739001681.426) RX 1DC#B40F8FFD08C0CB1B
(1739001681.430) RX 1D4#F707000087460070
(1739001681.431) RX 1F2#10640000001E020E
(1739001681.433) RX 1DA#C0641800000102A7
(1739001681.433) RX 1C2#51
(1739001681.434) RX 11A#0140005500000115
(1739001681.435) RX 1DB#FC80BFAA0000005A
(1739001681.436) RX 1DC#B40F8FFD0CCCD8E4
(1739001681.441) RX 1D4#F7070000C74600B7
(1739001681.441) RX 1F2#10640000001E030F
(1739001681.441) RX 284#00000000000064EA
(1739001681.442) RX 1DA#C064180000010322
(1739001681.443) RX 1C2#52
(1739001681.443) RX 11A#01400055400002D8
(1739001681.446) RX 1DB#FC80BFAA000001DF
(1739001681.446) RX 1DC#B40F8FFD0130C9CE
(1739001681.451) RX 1D4#F70700000746007B
(1739001681.451) RX 1F2#10640000001E000C
(1739001681.451) RX 5B9#67FF67FF28
(1739001681.453) RX 1DA#C064180000010028
(1739001681.453) RX 1C2#53
(1739001681.454) RX 11A#014000AA800003CE
(1739001681.456) RX 1DB#FC80BFAA000002D5
(1739001681.456) RX 1DC#B40F8FFD0520C64C
(1739001681.461) RX 1D4#F7070000474600BC
(1739001681.461) RX 1F2#10640000001E010D
(1739001681.462) RX 284#00000000000065EB
(1739001681.462) RX 1DA#C0641800000101AD
(1739001681.463) RX 1C2#54
(1739001681.463) RX 11A#014000AAC0000003
(1739001681.466) RX 1DB#FC80BFAA00000350
(1739001681.466) RX 1DC#B40F8FFD08C0CB1B
(1739001681.466) RX 55B#CA005500E4C01307
(1739001681.467) RX 5BC#5A032026B2040080
(1739001681.469) RX 54A#9E0070062000002D
(1739001681.470) RX 54B#007698121C000000
(1739001681.471) RX 54C#6E66400000585A00
(1739001681.472) RX 1D4#F707000087460070
(1739001681.472) RX 1F2#10640000001E020E
(1739001681.472) RX 50C#00000001B231
(1739001681.472) RX 54F#2301000007548A4D
(1739001681.472) RX 1DA#C0641800000102A7
(1739001681.473) RX 1C2#55
(1739001681.474) RX 11A#0140005500000115
(1739001681.476) RX 1DB#FC80BFAA0000005A
(1739001681.476) RX 1DC#B40F8FFD0CCCD8E4
(1739001681.482) RX 1D4#F7070000C74600B7
(1739001681.482) RX 1F2#10640000001E030F
(1739001681.482) RX 284#00000000000066EC
(1739001681.482) RX 1DA#C064180000010322
(1739001681.483) RX 1C2#56
(1739001681.483) RX 11A#01400055400002D8
(1739001681.486) RX 1DB#FC80BFAA000001DF
(1739001681.486) RX 1DC#B40F8FFD0130C9CE
(1739001681.492) RX 1D4#F70700000746007B
(1739001681.492) RX 1F2#10640000001E000C
(1739001681.492) RX 50A#8532A00D8020
(1739001681.493) RX 1DA#C064180000010028
(1739001681.493) RX 1C2#57
(1739001681.494) RX 11A#014000AA800003CE
(1739001681.496) RX 1DB#FC80BFAA000002D5
(1739001681.496) RX 1DC#B40F8FFD0520C64C
(1739001681.502) RX 1D4#F7070000474600BC
(1739001681.502) RX 1F2#10640000001E010D
(1739001681.503) RX 1DA#C0641800000101AD
(1739001681.503) RX 1C2#58
(1739001681.503) RX 284#00000000000067ED
(1739001681.483) RX 11A#01400055400002D8
(1739001681.486) RX 1DB#FC80BFAA000001DF
(1739001681.486) RX 1DC#B40F8FFD0130C9CE
(1739001681.492) RX 1D4#F70700000746007B
(1739001681.492) RX 1F2#10640000001E000C
(1739001681.492) RX 50A#8532A00D8020
(1739001681.493) RX 1DA#C064180000010028
(1739001681.493) RX 1C2#57
(1739001681.494) RX 11A#014000AA800003CE
(1739001681.496) RX 1DB#FC80BFAA000002D5
(1739001681.496) RX 1DC#B40F8FFD0520C64C
(1739001681.502) RX 1D4#F7070000474600BC
(1739001681.502) RX 1F2#10640000001E010D
(1739001681.503) RX 1DA#C0641800000101AD
(1739001681.503) RX 1C2#58
(1739001681.503) RX 284#00000000000067ED
(1739001681.523) RX 1F2#10640000001E030F
(1739001681.523) RX 284#00000000000068EE
(1739001681.524) RX 11A#01400055400002D8
(1739001681.526) RX 1DB#FC80BFAA000001DF
(1739001681.526) RX 1DC#B40F8FFD0130C9CE
(1739001681.532) RX 1DA#C064180000010028
(1739001681.533) RX 1C2#5B
(1739001681.533) RX 1D4#F70700000746007B
(1739001681.533) RX 1F2#10640000001E000C
(1739001681.534) RX 11A#014000AA800003CE
(1739001681.536) RX 1DB#FC80BFAA000002D5
(1739001681.536) RX 1DC#B40F8FFD0520C64C
(1739001681.542) RX 1DA#C0641800000101AD
(1739001681.543) RX 1C2#5C
(1739001681.543) RX 11A#014000AAC0000003
(1739001681.543) RX 1D4#F7070000474600BC
(1739001681.543) RX 1F2#10640000001E010D
(1739001681.544) RX 284#00000000000069EF
(1739001681.546) RX 1DB#FC80BFAA00000350
(1739001681.546) RX 1DC#B40F8FFD08C0CB1B
(1739001681.552) RX 1DA#C0641800000102A7
(1739001681.553) RX 1C2#5D
(1739001681.553) RX 1D4#F707000087460070
(1739001681.554) RX 1F2#10640000001E020E
(1739001681.554) RX 11A#0140005500000115
(1739001681.556) RX 1DB#FC80BFAA0000005A
(1739001681.556) RX 1DC#B40F8FFD0CCCD8E4
(1739001681.562) RX 1DA#C064180000010322
(1739001681.563) RX 1C2#5E
(1739001681.563) RX 11A#01400055400002D8
(1739001681.564) RX 1D4#F7070000C74600B7
(1739001681.564) RX 1F2#10640000001E030F
(1739001681.564) RX 284#0000000000006AF0
(1739001681.566) RX 1DB#FC80BFAA000001DF
(1739001681.566) RX 1DC#B40F8FFD0130C9CE
(1739001681.567) RX 55B#CA00AA00E4C0104A
(1739001681.567) RX 5BC#5A032026B2040080
(1739001681.569) RX 54A#100070062000002D
(1739001681.570) RX 54B#007698121C000000
(1739001681.571) RX 54C#6E66400000585A00
(1739001681.572) RX 54F#2301000007948A4D
(1739001681.572) RX 1DA#C064180000010028
(1739001681.573) RX 1C2#5F
(1739001681.574) RX 11A#014000AA800003CE
(1739001681.574) RX 1D4#F70700000746007B
(1739001681.574) RX 1F2#10640000001E000C
(1739001681.574) RX 50C#00000002B20D
(1739001681.576) RX 1DB#FC80BFAA000002D5
(1739001681.576) RX 1DC#B40F8FFD0520C64C
(1739001681.582) RX 1DA#C0641800000101AD
(1739001681.583) RX 11A#014000AAC0000003
(1739001681.563) RX 11A#01400055400002D8
(1739001681.564) RX 1D4#F7070000C74600B7
(1739001681.564) RX 1F2#10640000001E030F
(1739001681.564) RX 284#0000000000006AF0
(1739001681.566) RX 1DB#FC80BFAA000001DF
(1739001681.566) RX 1DC#B40F8FFD0130C9CE
(1739001681.567) RX 55B#CA00AA00E4C0104A
(1739001681.567) RX 5BC#5A032026B2040080
(1739001681.569) RX 54A(1739001681.583) RX 1C2#50
(1739001681.584) RX 1D4#F7070000474600BC
(1739001681.584) RX 1F2#10640000001E010D
(1739001681.585) RX 284#0000000000006BF1
(1739001681.586) RX 1DB#FC80BFAA00000350
(1739001681.586) RX 1DC#B40F8FFD08C0CB1B
(1739001681.592) RX 1DA#C0641800000102A7
(1739001681.593) RX 1C2#51
(1739001681.594) RX 11A#0140005500000115
(1739001681.594) RX 1D4#F707000087460070
(1739001681.595) RX 1F2#10640000001E020E
(1739001681.595) RX 50A#8552A00D8020
(1739001681.596) RX 1DB#FC80BFAA0000005A
(1739001681.596) RX 1DC#B40F8FFD0CCCD8E4
(1739001681.602) RX 1DA#C064180000010322
(1739001681.603) RX 1C2#52
(1739001681.563) RX 11A#01400055400002D8
(1739001681.564) RX 1D4#F7070000C74600B7
(1739001681.564) RX 1F2#10640000001E030F
(1739001681.564) RX 284#0000000000006AF0
(1739001681.566) RX 1DB#FC80BFAA000001DF
(1739001681.566) RX 1DC#B40F8FFD0130C9CE
(1739001681.567) RX 55B#CA00AA00E4C0104A
(1739001681.567) RX 5BC(1739001681.603) RX 11A#01400055400002D8
(1739001681.605) RX 1D4#F7070000C74600B7
(1739001681.605) RX 1F2#10640000001E030F
(1739001681.605) RX 284#0000000000006CF2
(1739001681.606) RX 1DB#FC80BFAA000001DF
(1739001681.606) RX 1DC#B40F8FFD0130C9CE
(1739001681.607) RX 380#02041021000000B0
(1739001681.607) RX 5BF#0000000028000009
(1739001681.612) RX 1DA#C064180000010028
(1739001681.613) RX 55A#003331005F365B68
(1739001681.613) RX 1C2#53
(1739001681.614) RX 11A#014000AA800003CE
(1739001681.615) RX 1D4#F70700000746007B
(1739001681.615) RX 1F2#10640000001E000C
(1739001681.615) RX 50B#000006C00060
(1739001681.616) RX 1DB#FC80BFAA000002D5
(1739001681.616) RX 1DC#B40F8FFD0520C64C
(1739001681.622) RX 1DA#C0641800000101AD
(1739001681.623) RX 11A#014000AAC0000003
(1739001681.623) RX 1C2#54
(1739001681.625) RX 1D4#F7070000474600BC
(1739001681.625) RX 1F2#10640000001E010D
(1739001681.626) RX 284#0000000000006DF3
(1739001681.626) RX 1DB#FC80BFAA00000350
(1739001681.627) RX 1DC#B40F8FFD08C0CB1B
(1739001681.632) RX 1DA#C0641800000102A7
(1739001681.633) RX 1C2#55
(1739001681.634) RX 11A#0140005500000115
(1739001681.635) RX 1D4#F707000087460070
(1739001681.636) RX 1F2#10640000001E020E
(1739001681.636) RX 1DB#FC80BFAA0000005A
(1739001681.636) RX 1DC#B40F8FFD0CCCD8E4
(1739001681.642) RX 1DA#C064180000010322
(1739001681.643) RX 1C2#56
(1739001681.643) RX 11A#01400055400002D8
(1739001681.646) RX 1D4#F7070000C74600B7
(1739001681.646) RX 1F2#10640000001E030F
(1739001681.646) RX 284#0000000000006EF4
(1739001681.646) RX 1DB#FC80BFAA000001DF
(1739001681.647) RX 1DC#B40F8FFD0130C9CE
(1739001681.652) RX 1DA#C064180000010028
(1739001681.653) RX 1C2#57
(1739001681.654) RX 11A#014000AA800003CE
(1739001681.656) RX 1D4#F70700000746007B
(1739001681.656) RX 1F2#10640000001E000C
(1739001681.656) RX 1DB#FC80BFAA000002D5
(1739001681.657) RX 284#0000000000006FF5
(1739001681.657) RX 1DC#B40F8FFD0520C64C
(1739001681.662) RX 1DA#C0641800000101AD
(1739001681.663) RX 11A#014000AAC0000003
(1739001681.663) RX 1C2#58
(1739001681.666) RX 1D4#F7070000474600BC
(1739001681.666) RX 1F2#10640000001E010D
(1739001681.667) RX 1DB#FC80BFAA00000350
(1739001681.667) RX 1DC#B40F8FFD08C0CB1B
(1739001681.667) RX 55B#CA00AA00E4C011CF
(1739001681.668) RX 5BC#5A032026B2040080
(1739001681.669) RX 54A#9E0070062000002D
(1739001681.670) RX 54B#007698121C000000
(1739001681.671) RX 54C#6E66400000585A00
(1739001681.672) RX 54F#2301000007D48A4D
(1739001681.672) RX 1DA#C0641800000102A7
(1739001681.673) RX 1C2#59
(1739001681.674) RX 11A#0140005500000115
(1739001681.676) RX 1DB#FC80BFAA0000005A
(1739001681.677) RX 1D4#F707000087460070
(1739001681.677) RX 1DC#B40F8FFD0CCCD8E4
(1739001681.677) RX 1F2#10640000001E020E
(1739001681.677) RX 284#00000000000070F6
(1739001681.677) RX 50C#000000035DF4
(1739001681.678) RX 5C0#C04C4C0004541200
(1739001681.678) RX 5EB#E00FFFFFFFFFFFFF
(1739001681.682) RX 1DA#C064180000010322
(1739001681.683) RX 1C2#5A
(1739001681.683) RX 11A#01400055400002D8
(1739001681.686) RX 1DB#FC80BFAA000001DF
(1739001681.687) RX 1DC#B40F8FFD0130C9CE
(1739001681.687) RX 1D4#F7070000C74600B7
(1739001681.687) RX 1F2#10640000001E030F
(1739001681.692) RX 1DA#C064180000010028
(1739001681.693) RX 1C2#5B
(1739001681.694) RX 11A#014000AA800003CE
(1739001681.696) RX 1DB#FC80BFAA000002D5
(1739001681.697) RX 1DC#B40F8FFD0520C64C
(1739001681.697) RX 1D4#F70700000746007B
(1739001681.697) RX 1F2#10640000001E000C
(1739001681.697) RX 284#00000000000071F7
(1739001681.697) RX 50A#8572A00D8020
(1739001681.702) RX 1DA#C0641800000101AD
(1739001681.703) RX 11A#014000AAC0000003
(1739001681.703) RX 1C2#5C
(1739001681.706) RX 1DB#FC80BFAA00000350
(1739001681.707) RX 1DC#B40F8FFD08C0CB1B
(1739001681.707) RX 1D4#F7070000474600BC
(1739001681.707) RX 1F2#10640000001E010D
(1739001681.708) RX 380#020410210000008D
(1739001681.708) RX 5BF#000000002800001A
(1739001681.712) RX 1DA#C0641800000102A7
(1739001681.713) RX 55A#003331005F365B68
(1739001681.713) RX 1C2#5D
(1739001681.714) RX 11A#0140005500000115
(1739001681.716) RX 1DB#FC80BFAA0000005A
(1739001681.717) RX 1DC#B40F8FFD0CCCD8E4
(1739001681.717) RX 1D4#F707000087460070
(1739001681.718) RX 1F2#10640000001E020E
(1739001681.718) RX 284#00000000000072F8
(1739001681.718) RX 50B#000006C00060
(1739001681.722) RX 1DA#C064180000010322
(1739001681.723) RX 1C2#5E
(1739001681.724) RX 11A#01400055400002D8
(1739001681.726) RX 1DB#FC80BFAA000001DF
(1739001681.727) RX 1DC#B40F8FFD0130C9CE
(1739001681.728) RX 1D4#F7070000C74600B7
(1739001681.728) RX 1F2#10640000001E030F
(1739001681.732) RX 1DA#C064180000010028
(1739001681.733) RX 1C2#5F
(1739001681.734) RX 11A#014000AA800003CE
(1739001681.736) RX 1DB#FC80BFAA000002D5
(1739001681.737) RX 1DC#B40F8FFD0520C64C
(1739001681.738) RX 1D4#F70700000746007B
(1739001681.738) RX 1F2#10640000001E000C
(1739001681.738) RX 284#00000000000073F9
(1739001681.742) RX 1DA#C0641800000101AD
(1739001681.743) RX 11A#014000AAC0000003
(1739001681.743) RX 1C2#50
(1739001681.746) RX 1DB#FC80BFAA00000350
(1739001681.747) RX 1DC#B40F8FFD08C0CB1B
(1739001681.748) RX 1D4#F7070000474600BC
(1739001681.748) RX 1F2#10640000001E010D
(1739001681.752) RX 1DA#C0641800000102A7
(1739001681.753) RX 1C2#51
(1739001681.754) RX 11A#0140005500000115
(1739001681.756) RX 1DB#FC80BFAA0000005A
(1739001681.757) RX 1DC#B40F8FFD0CCCD8E4
(1739001681.758) RX 1D4#F707000087460070
(1739001681.758) RX 1F2#10640000001E020E
(1739001681.759) RX 284#00000000000074FA
(1739001681.762) RX 1DA#C064180000010322
(1739001681.763) RX 1C2#52
(1739001681.764) RX 11A#01400055400002D8
(1739001681.767) RX 1DB#FC80BFAA000001DF
(1739001681.767) RX 1DC#B40F8FFD0130C9CE
(1739001681.767) RX 55B#CA005500E4C01282
(1739001681.768) RX 5BC#5A032C26B3052092
(1739001681.769) RX 1D4#F7070000C74600B7
(1739001681.769) RX 1F2#10640000001E030F
(1739001681.769) RX 54A#100070062000002D
(1739001681.770) RX 54B#007698121C000000
(1739001681.771) RX 54C#6E66400000585A00
(1739001681.772) RX 54F#2301000007148A4D
(1739001681.772) RX 1DA#C064180000010028
(1739001681.773) RX 1C2#53
(1739001681.774) RX 11A#014000AA800003CE
(1739001681.776) RX 1DB#FC80BFAA000002D5
(1739001681.777) RX 1DC#B40F8FFD0520C64C
(1739001681.779) RX 1D4#F70700000746007B
(1739001681.779) RX 1F2#10640000001E000C
(1739001681.779) RX 284#00000000000075FB
(1739001681.780) RX 50C#000000005DC8
(1739001681.782) RX 1DA#C0641800000101AD
(1739001681.783) RX 11A#014000AAC0000003
(1739001681.784) RX 1C2#54
(1739001681.787) RX 1DB#FC80BFAA00000350
(1739001681.787) RX 1DC#B40F8FFD08C0CB1B
(1739001681.789) RX 1D4#F7070000474600BC
(1739001681.789) RX 1F2#10640000001E010D
(1739001681.792) RX 1DA#C0641800000102A7
(1739001681.793) RX 1C2#55
(1739001681.794) RX 11A#0140005500000115
(1739001681.796) RX 1DB#FC80BFAA0000005A
(1739001681.797) RX 1DC#B40F8FFD0CCCD8E4
(1739001681.799) RX 1D4#F707000087460070
(1739001681.799) RX 1F2#10640000001E020E
(1739001681.800) RX 284#00000000000076FC
(1739001681.800) RX 50A#8512A00D8020
(1739001681.802) RX 1DA#C064180000010322
(1739001681.803) RX 1C2#56
(1739001681.804) RX 11A#01400055400002D8
(1739001681.807) RX 1DB#FC80BFAA000001DF
(1739001681.807) RX 1DC#B40F8FFD0130C9CE
(1739001681.807) RX 380#020410210000009E
(1739001681.808) RX 5BF#000000002800002B
(1739001681.809) RX 1D4#F7070000C74600B7
(1739001681.810) RX 1F2#10640000001E030F
(1739001681.812) RX 1DA#C064180000010028
(1739001681.813) RX 55A#003331005F365B68
(1739001681.813) RX 1C2#57
(1739001681.814) RX 11A#014000AA800003CE
(1739001681.817) RX 1DB#FC80BFAA000002D5
(1739001681.817) RX 1DC#B40F8FFD0520C64C
(1739001681.820) RX 1D4#F70700000746007B
(1739001681.820) RX 1F2#10640000001E000C
(1739001681.820) RX 284#00000000000077FD
(1739001681.820) RX 50B#000006C00060
(1739001681.822) RX 1DA#C0641800000101AD
(1739001681.823) RX 11A#014000AAC0000003
(1739001681.824) RX 1C2#58
(1739001681.827) RX 1DB#FC80BFAA00000350
(1739001681.827) RX 1DC#B40F8FFD08C0CB1B
(1739001681.830) RX 1D4#F7070000474600BC
(1739001681.830) RX 1F2#10640000001E010D
(1739001681.832) RX 1DA#C0641800000102A7
(1739001681.833) RX 1C2#59
(1739001681.834) RX 11A#0140005500000115
(1739001681.837) RX 1DB#FC80BFAA0000005A
(1739001681.837) RX 1DC#B40F8FFD0CCCD8E4
(1739001681.840) RX 1D4#F707000087460070
(1739001681.840) RX 1F2#10640000001E020E
(1739001681.841) RX 284#00000000000078FE
(1739001681.842) RX 1DA#C064180000010322
(1739001681.843) RX 11A#01400055400002D8
(1739001681.844) RX 1C2#5A
(1739001681.847) RX 1DB#FC80BFAA000001DF
(1739001681.847) RX 1DC#B40F8FFD0130C9CE
(1739001681.850) RX 1D4#F7070000C74600B7
(1739001681.851) RX 1F2#10640000001E030F
(1739001681.852) RX 1DA#C064180000010028
(1739001681.854) RX 11A#014000AA800003CE
(1739001681.854) RX 1C2#5B
(1739001681.857) RX 1DB#FC80BFAA000002D5
(1739001681.857) RX 1DC#B40F8FFD0520C64C
(1739001681.861) RX 1D4#F70700000746007B
(1739001681.861) RX 1F2#10640000001E000C
(1739001681.861) RX 284#00000000000079FF
(1739001681.862) RX 1DA#C0641800000101AD
(1739001681.863) RX 11A#014000AAC0000003
(1739001681.864) RX 1C2#5C
(1739001681.867) RX 1DB#FC80BFAA00000350
(1739001681.867) RX 1DC#B40F8FFD08C0CB1B
(1739001681.868) RX 55B#CA005500E4C01307
(1739001681.868) RX 5BC#5A032C26B3052092
(1739001681.869) RX 54A#9E0070062000002D
(1739001681.870) RX 54B#007698121C000000
(1739001681.871) RX 54C#6E66400000585A00
(1739001681.871) RX 1D4#F7070000474600BC
(1739001681.871) RX 1F2#10640000001E010D
(1739001681.872) RX 54F#2301000007548A4D
(1739001681.872) RX 1DA#C0641800000102A7
(1739001681.874) RX 1C2#5D
(1739001681.874) RX 11A#0140005500000115
(1739001681.877) RX 1DB#FC80BFAA0000005A
(1739001681.877) RX 1DC#B40F8FFD0CCCD8E4
(1739001681.881) RX 1D4#F707000087460070
(1739001681.882) RX 1F2#10640000001E020E
(1739001681.882) RX 284#0000000000007A00
(1739001681.882) RX 50C#00000001B231
(1739001681.882) RX 1DA#C064180000010322
(1739001681.883) RX 11A#01400055400002D8
(1739001681.884) RX 1C2#5E
(1739001681.887) RX 1DB#FC80BFAA000001DF
(1739001681.887) RX 1DC#B40F8FFD0130C9CE
(1739001681.891) RX 1D4#F7070000C74600B7
(1739001681.892) RX 1F2#10640000001E030F
(1739001681.892) RX 5A9#643C501304300000
(1739001681.892) RX 1DA#C064180000010028
(1739001681.894) RX 1C2#5F
(1739001681.894) RX 11A#014000AA800003CE
(1739001681.897) RX 1DB#FC80BFAA000002D5
(1739001681.897) RX 1DC#B40F8FFD0520C64C
(1739001681.902) RX 1D4#F70700000746007B
(1739001681.902) RX 1F2#10640000001E000C
(1739001681.902) RX 284#0000000000007B01
(1739001681.902) RX 1DA#C0641800000101AD
(1739001681.903) RX 50A#8532A00D8020
(1739001681.903) RX 11A#014000AAC0000003
(1739001681.904) RX 1C2#50
(1739001681.907) RX 1DB#FC80BFAA00000350
(1739001681.907) RX 1DC#B40F8FFD08C0CB1B
(1739001681.907) RX 380#02041021000000AF
(1739001681.908) RX 5BF#000000002800003C
(1739001681.912) RX 1D4#F7070000474600BC
(1739001681.912) RX 1F2#10640000001E010D
(1739001681.912) RX 1DA#C0641800000102A7
(1739001681.913) RX 55A#003331005F365B68
(1739001681.914) RX 11A#0140005500000115
(1739001681.914) RX 1C2#51
(1739001681.917) RX 1DB#FC80BFAA0000005A
(1739001681.917) RX 1DC#B40F8FFD0CCCD8E4
(1739001681.922) RX 1D4#F707000087460070
(1739001681.922) RX 1F2#10640000001E020E
(1739001681.923) RX 1DA#C064180000010322
(1739001681.923) RX 284#0000000000007C02
(1739001681.923) RX 50B#000006C00060
(1739001681.923) RX 11A#01400055400002D8
(1739001681.924) RX 1C2#52
(1739001681.927) RX 1DB#FC80BFAA000001DF
(1739001681.927) RX 1DC#B40F8FFD0130C9CE
(1739001681.932) RX 1D4#F7070000C74600B7
(1739001681.933) RX 1DA#C064180000010028
(1739001681.933) RX 1F2#10640000001E030F
(1739001681.934) RX 11A#014000AA800003CE
(1739001681.934) RX 1C2#53
(1739001681.937) RX 1DB#FC80BFAA000002D5
(1739001681.937) RX 1DC#B40F8FFD0520C64C
(1739001681.942) RX 1DA#C0641800000101AD
(1739001681.943) RX 1D4#F70700000746007B
(1739001681.943) RX 1F2#10640000001E000C
(1739001681.943) RX 11A#014000AAC0000003
(1739001681.943) RX 284#0000000000007D03
(1739001681.944) RX 1C2#54
(1739001681.947) RX 1DB#FC80BFAA00000350
(1739001681.947) RX 1DC#B40F8FFD08C0CB1B
(1739001681.952) RX 1DA#C0641800000102A7
(1739001681.953) RX 1D4#F7070000474600BC
(1739001681.953) RX 1F2#10640000001E010D
(1739001681.954) RX 11A#0140005500000115
(1739001681.954) RX 1C2#55
(1739001681.957) RX 1DB#FC80BFAA0000005A
(1739001681.957) RX 1DC#B40F8FFD0CCCD8E4
(1739001681.962) RX 1DA#C064180000010322
(1739001681.963) RX 1D4#F707000087460070
(1739001681.963) RX 1F2#10640000001E020E
(1739001681.964) RX 11A#01400055400002D8
(1739001681.964) RX 284#0000000000007E04
(1739001681.964) RX 1C2#56
(1739001681.964) RX 5B9#67FF67FF28
(1739001681.967) RX 1DB#FC80BF6A000001F8
(1739001681.967) RX 1DC#B40F8FFD0130C9CE
(1739001681.968) RX 55B#CA00AA00E4C0104A
(1739001681.968) RX 5BC#5A032C26B3052092
(1739001681.969) RX 54A#100070062000002D
(1739001681.970) RX 54B#007698121C000000
(1739001681.971) RX 54C#6E66400000585A00
(1739001681.972) RX 54F#2301000007948A4D
(1739001681.972) RX 1DA#C064180000010028
(1739001681.973) RX 1D4#F7070000C74600B7
(1739001681.974) RX 11A#014000AA800003CE
(1739001681.974) RX 1C2#57
(1739001681.974) RX 1F2#10640000001E030F
(1739001681.977) RX 1DB#FC80BF6A000002F2
(1739001681.977) RX 1DC#B40F8FFD0520C64C
(1739001681.982) RX 1DA#C0641800000101AD
(1739001681.983) RX 11A#014000AAC0000003
(1739001681.984) RX 1D4#F70700000746007B
(1739001681.984) RX 1C2#58
(1739001681.984) RX 1F2#10640000001E000C
(1739001681.984) RX 284#0000000000007F05
(1739001681.984) RX 50C#000000025D63
(1739001681.987) RX 1DB#FC80BF6A00000377
(1739001681.987) RX 1DC#B40F8FFD08C0CB1B
(1739001681.992) RX 1DA#C0641800000102A7
(1739001681.994) RX 11A#0140005500000115
(1739001681.994) RX 1C2#59
(1739001681.994) RX 1D4#F7070000474600BC
(1739001681.994) RX 1F2#10640000001E010D
(1739001681.997) RX 1DB#FC80BF6A0000007D
(1739001681.997) RX 1DC#B40F8FFD0CCCD8E4
(1739001682.002) RX 1DA#C064180000010322
(1739001682.003) RX 11A#01400055400002D8
(1739001682.004) RX 1D4#F707000087460070
(1739001682.004) RX 1C2#5A
(1739001682.004) RX 1F2#10640000001E020E
(1739001682.005) RX 284#0000000000008006
(1739001682.005) RX 50A#8552A00D8020
(1739001682.007) RX 1DB#FC80BFAA000001DF
(1739001682.008) RX 380#02041021000000B0
(1739001682.008) RX 1DC#B40F8FFD0130C9CE
(1739001682.008) RX 5BF#0000000028000009
(1739001682.012) RX 1DA#C064180000010028
(1739001682.013) RX 55A#003331005F365B68
(1739001682.014) RX 11A#014000AA800003CE
(1739001682.014) RX 1C2#5B
(1739001682.014) RX 1D4#F7070000C74600B7
(1739001682.015) RX 1F2#10640000001E030F
(1739001682.017) RX 1DB#FC80BFAA000002D5
(1739001682.017) RX 1DC#B40F8FFD0520C64C
(1739001682.022) RX 1DA#C0641800000101AD
(1739001682.023) RX 11A#014000AAC0000003
(1739001682.024) RX 1C2#5C
(1739001682.025) RX 1D4#F70700000746007B
(1739001682.025) RX 1F2#10640000001E000C
(1739001682.025) RX 284#0000000000008107
(1739001682.025) RX 50B#000006C00060
(1739001682.027) RX 1DB#FC80BFAA00000350
(1739001682.028) RX 1DC#B40F8FFD08C0CB1B
(1739001682.032) RX 1DA#C0641800000102A7
(1739001682.034) RX 11A#0140005500000115
(1739001682.034) RX 1C2#5D
(1739001682.035) RX 1D4#F7070000474600BC
(1739001682.035) RX 1F2#10640000001E010D
 B7
(1739001682.015) RX 1F2#10640000001E030F
(1739001682.017) RX 1DB#FC80BFAA000002D5
(1739001682.017) RX 1DC#B40F8FFD0520C64C
(1739001682.022) RX 1DA#C0641800000101AD
(1739001682.023) RX 11A#014000AAC0000003
(1739001682.024) RX 1C2#5C
(1739001682.025) RX 1D4#F70700000746007B
(1739001682.025) RX 1F2#10640000001E000C
(1739001682.045) RX 1D4#F707000087460070
(1739001682.045) RX 1F2#10640000001E020E
(1739001682.046) RX 284#0000000000008208
(1739001682.047) RX 1DB#FC80BFAA000001DF
(1739001682.048) RX 1DC#B40F8FFD0130C9CE
(1739001682.052) RX 1DA#C064180000010028
(1739001682.054) RX 11A#014000AA800003CE
(1739001682.054) RX 1C2#5F
(1739001682.055) RX 1D4#F7070000C74600B7
(1739001682.056) RX 1F2#10640000001E030F
(1739001682.057) RX 1DB#FC80BFAA000002D5
(1739001682.058) RX 1DC#B40F8FFD0520C64C
(1739001682.062) RX 1DA#C0641800000101AD
(1739001682.063) RX 11A#014000AAC0000003
(1739001682.064) RX 1C2#50
(1739001682.066) RX 1D4#F70700000746007B
(1739001682.066) RX 1F2#10640000001E000C
(1739001682.066) RX 284#0000000000008309
(1739001682.067) RX 1DB#FC80BFAA00000350
(1739001682.068) RX 1DC#B40F8FFD08C0CB1B
(1739001682.068) RX 55B#CA005500E4C01188
(1739001682.068) RX 5BC#5A032C26B3052092
(1739001682.069) RX 54A#9E0070062000002D
(1739001682.070) RX 54B#007698121C000000
(1739001682.071) RX 54C#6E66400000585A00
(1739001682.072) RX 54F#2301000007D48A4D
(1739001682.072) RX 1DA#C0641800000102A7
(1739001682.074) RX 11A#0140005500000115
(1739001682.074) RX 1C2#51
(1739001682.076) RX 1D4#F7070000474600BC
(1739001682.076) RX 1F2#10640000001E010D
(1739001682.076) RX 284#000000000000840A
(1739001682.077) RX 1DB#FC80BFAA0000005A
(1739001682.078) RX 1DC#B40F8FFD0CCCD8E4
(1739001682.082) RX 1DA#C064180000010322
(1739001682.083) RX 11A#01400055400002D8
(1739001682.084) RX 1C2#52
(1739001682.086) RX 1D4#F707000087460070
(1739001682.086) RX 1F2#10640000001E020E
(1739001682.087) RX 50C#00000003B29A
(1739001682.087) RX 1DB#FC80BFAA000001DF
(1739001682.088) RX 1DC#B40F8FFD0130C9CE
(1739001682.092) RX 1DA#C064180000010028
(1739001682.094) RX 11A#014000AA800003CE
(1739001682.094) RX 1C2#53
(1739001682.096) RX 1D4#F7070000C74600B7
(1739001682.097) RX 1F2#10640000001E030F
(1739001682.097) RX 284#000000000000850B
(1739001682.097) RX 1DB#FC80BFAA000002D5
(1739001682.098) RX 1DC#B40F8FFD0520C64C
(1739001682.102) RX 1DA#C0641800000101AD
(1739001682.103) RX 11A#014000AAC0000003
(1739001682.104) RX 1C2#54
(1739001682.107) RX 1D4#F70700000746007B
(1739001682.107) RX 1F2#10640000001E000C
(1739001682.107) RX 50A#8572A00D8020
(1739001682.107) RX 1DB#FC80BFAA00000350
(1739001682.108) RX 380#020410210000008D
(1739001682.108) RX 1DC#B40F8FFD08C0CB1B
(1739001682.108) RX 5BF#000000002800001A
(1739001682.112) RX 1DA#C0641800000102A7
(1739001682.113) RX 55A#003331005F365B68
(1739001682.114) RX 11A#0140005500000115
(1739001682.114) RX 1C2#55
(1739001682.117) RX 1D4#F7070000474600BC
(1739001682.117) RX 1F2#10640000001E010D
(1739001682.117) RX 284#000000000000860C
(1739001682.118) RX 1DB#FC80BFAA0000005A
(1739001682.118) RX 1DC#B40F8FFD0CCCD8E4
(1739001682.122) RX 1DA#C064180000010322
(1739001682.123) RX 11A#01400055400002D8
(1739001682.124) RX 1C2#56
(1739001682.127) RX 1D4#F707000087460070
(1739001682.127) RX 1F2#10640000001E020E
(1739001682.127) RX 1DB#FC80BFAA000001DF
(1739001682.128) RX 50B#000006C00060
(1739001682.128) RX 1DC#B40F8FFD0130C9CE
(1739001682.132) RX 1DA#C064180000010028
(1739001682.134) RX 11A#014000AA800003CE
(1739001682.134) RX 1C2#57
(1739001682.137) RX 1D4#F7070000C74600B7
(1739001682.138) RX 1DB#FC80BFAA000002D5
(1739001682.138) RX 1F2#10640000001E030F
(1739001682.138) RX 1DC#B40F8FFD0520C64C
(1739001682.138) RX 284#000000000000870D
(1739001682.142) RX 1DA#C0641800000101AD
(1739001682.143) RX 11A#014000AAC0000003
(1739001682.144) RX 1C2#58
(1739001682.148) RX 1D4#F70700000746007B
(1739001682.148) RX 1DB#FC80BFAA00000350
(1739001682.148) RX 1F2#10640000001E000C
(1739001682.148) RX 1DC#B40F8FFD08C0CB1B
(1739001682.152) RX 1DA#C0641800000102A7
(1739001682.154) RX 11A#0140005500000115
(1739001682.154) RX 1C2#59
(1739001682.157) RX 1DB#FC80BFAA0000005A
(1739001682.158) RX 1D4#F7070000474600BC
(1739001682.158) RX 1DC#B40F8FFD0CCCD8E4
(1739001682.158) RX 1F2#10640000001E010D
(1739001682.158) RX 284#000000000000880E
(1739001682.162) RX 1DA#C064180000010322
(1739001682.163) RX 11A#01400055400002D8
(1739001682.164) RX 1C2#5A
(1739001682.168) RX 1DB#FC80BFAA000001DF
(1739001682.168) RX 1D4#F707000087460070
(1739001682.168) RX 1DC#B40F8FFD0130C9CE
(1739001682.168) RX 1F2#10640000001E020E
(1739001682.169) RX 55B#CA00AA00E4C012C5
(1739001682.169) RX 5BC#5A032C26B3052092
(1739001682.169) RX 54A#100070062000002D
(1739001682.170) RX 54B#007698121C000000
(1739001682.171) RX 54C#6E66400000585A00
(1739001682.172) RX 54F#2301000007148A4D
(1739001682.172) RX 1DA#C064180000010028
(1739001682.174) RX 11A#014000AA800003CE
(1739001682.174) RX 1C2#5B
(1739001682.178) RX 1DB#FC80BFAA000002D5
(1739001682.178) RX 1DC#B40F8FFD0520C64C
(1739001682.178) RX 1D4#F7070000C74600B7
(1739001682.179) RX 1F2#10640000001E030F
(1739001682.179) RX 284#000000000000890F
(1739001682.179) RX 5C0#804C4C0004A01200
(1739001682.179) RX 5EB#E00FFFFFFFFFFFFF
(1739001682.182) RX 1DA#C0641800000101AD
(1739001682.183) RX 11A#014000AAC0000003
(1739001682.184) RX 1C2#5C
(1739001682.188) RX 1DB#FC80BFAA00000350
(1739001682.188) RX 1DC#B40F8FFD08C0CB1B
(1739001682.189) RX 1D4#F70700000746007B
(1739001682.189) RX 1F2#10640000001E000C
(1739001682.189) RX 50C#000000005DC8
(1739001682.192) RX 1DA#C0641800000102A7
(1739001682.194) RX 11A#0140005500000115
(1739001682.194) RX 1C2#5D
(1739001682.198) RX 1DB#FC80BFAA0000005A
(1739001682.198) RX 1DC#B40F8FFD0CCCD8E4
(1739001682.199) RX 1D4#F7070000474600BC
(1739001682.199) RX 1F2#10640000001E010D
(1739001682.199) RX 284#0000000000008A10
(1739001682.202) RX 1DA#C064180000010322
(1739001682.203) RX 11A#01400055400002D8
(1739001682.204) RX 1C2#5E
(1739001682.208) RX 380#020410210000009E
(1739001682.208) RX 1DB#FC80BFAA000001DF
(1739001682.208) RX 5BF#000000002800002B
(1739001682.208) RX 1DC#B40F8FFD0130C9CE
(1739001682.209) RX 1D4#F707000087460070
(1739001682.209) RX 1F2#10640000001E020E
(1739001682.209) RX 50A#8512A00D8020
(1739001682.212) RX 1DA#C064180000010028
(1739001682.213) RX 55A#003331005F365B68
(1739001682.214) RX 11A#014000AA800003CE
(1739001682.214) RX 1C2#5F
(1739001682.218) RX 1DB#FC80BFAA000002D5
(1739001682.218) RX 1DC#B40F8FFD0520C64C
(1739001682.219) RX 1D4#F7070000C74600B7
(1739001682.219) RX 1F2#10640000001E030F
(1739001682.220) RX 284#0000000000008B11
(1739001682.222) RX 1DA#C0641800000101AD
(1739001682.223) RX 11A#014000AAC0000003
(1739001682.224) RX 1C2#50
(1739001682.228) RX 1DB#FC80BFAA00000350
(1739001682.228) RX 1DC#B40F8FFD08C0CB1B
(1739001682.229) RX 1D4#F70700000746007B
(1739001682.230) RX 1F2#10640000001E000C
(1739001682.230) RX 50B#000006C00060
(1739001682.232) RX 1DA#C0641800000102A7
(1739001682.234) RX 11A#0140005500000115
(1739001682.234) RX 1C2#51
(1739001682.238) RX 1DB#FC80BFAA0000005A
(1739001682.238) RX 1DC#B40F8FFD0CCCD8E4
(1739001682.240) RX 1D4#F7070000474600BC
(1739001682.240) RX 1F2#10640000001E010D
(1739001682.240) RX 284#0000000000008C12
(1739001682.242) RX 1DA#C064180000010322
(1739001682.243) RX 11A#01400055400002D8
(1739001682.244) RX 1C2#52
(1739001682.248) RX 1DB#FC80BFAA000001DF
(1739001682.248) RX 1DC#B40F8FFD0130C9CE
(1739001682.250) RX 1D4#F707000087460070
(1739001682.250) RX 1F2#10640000001E020E
(1739001682.252) RX 1DA#C064180000010028
(1739001682.254) RX 11A#014000AA800003CE
(1739001682.254) RX 1C2#53
(1739001682.258) RX 1DB#FC80BFAA000002D5
(1739001682.258) RX 1DC#B40F8FFD0520C64C
(1739001682.260) RX 1D4#F7070000C74600B7
(1739001682.260) RX 1F2#10640000001E030F
(1739001682.261) RX 284#0000000000008D13
(1739001682.262) RX 1DA#C0641800000101AD
(1739001682.263) RX 11A#014000AAC0000003
(1739001682.264) RX 1C2#54
(1739001682.268) RX 1DB#FC80BFAA00000350
(1739001682.268) RX 1DC#B40F8FFD08C0CB1B
(1739001682.269) RX 55B#CA005500E4C01307
(1739001682.269) RX 5BC#5A032026B2054074
(1739001682.269) RX 54A#9E0070062000002D
(1739001682.270) RX 54B#007698121C000000
(1739001682.270) RX 1D4#F70700000746007B
(1739001682.271) RX 1F2#10640000001E000C
(1739001682.271) RX 54C#6E66400000585A00
(1739001682.272) RX 54F#2301000007548A4D
(1739001682.272) RX 1DA#C0641800000102A7
(1739001682.274) RX 11A#0140005500000115
(1739001682.274) RX 1C2#55
(1739001682.278) RX 1DB#FC80BFAA0000005A
(1739001682.278) RX 1DC#B40F8FFD0CCCD8E4
(1739001682.281) RX 1D4#F7070000474600BC
(1739001682.281) RX 1F2#10640000001E010D
(1739001682.281) RX 284#0000000000008E14
(1739001682.282) RX 1DA#C064180000010322
(1739001682.283) RX 11A#01400055400002D8
(1739001682.284) RX 1C2#56
(1739001682.288) RX 1DB#FC80BFAA000001DF
(1739001682.288) RX 1DC#B40F8FFD0130C9CE
(1739001682.291) RX 1D4#F707000087460070
(1739001682.291) RX 1F2#10640000001E020E
(1739001682.291) RX 50C#00000001B231
(1739001682.292) RX 1DA#C064180000010028
(1739001682.294) RX 11A#014000AA800003CE
(1739001682.295) RX 1C2#57
(1739001682.298) RX 1DB#FC80BFAA000002D5
(1739001682.298) RX 1DC#B40F8FFD0520C64C
(1739001682.301) RX 1D4#F7070000C74600B7
(1739001682.301) RX 1F2#10640000001E030F
(1739001682.302) RX 284#0000000000008F15
(1739001682.302) RX 1DA#C0641800000101AD
(1739001682.303) RX 11A#014000AAC0000003
(1739001682.305) RX 1C2#58
(1739001682.308) RX 380#02041021000000AF
(1739001682.308) RX 1DB#FC80BF6A00000377
(1739001682.308) RX 5BF#000000002800003C
(1739001682.309) RX 1DC#B40F8FFD08C0CB1B
(1739001682.311) RX 1D4#F70700000746007B
(1739001682.312) RX 1F2#10640000001E000C
(1739001682.312) RX 50A#8532A00D8020
(1739001682.312) RX 1DA#C0641800000102A7
(1739001682.313) RX 55A#003331005F365B68
(1739001682.314) RX 11A#0140005500000115
(1739001682.315) RX 1C2#59
(1739001682.318) RX 1DB#FC80BF6A0000007D
(1739001682.318) RX 1DC#B40F8FFD0CCCD8E4
(1739001682.322) RX 1D4#F7070000474600BC
(1739001682.322) RX 1F2#10640000001E010D
(1739001682.322) RX 284#0000000000009016
(1739001682.322) RX 1DA#C064180000010322
(1739001682.323) RX 11A#01400055400002D8
(1739001682.325) RX 1C2#5A
(1739001682.328) RX 1DB#FC80BF6A000001F8
(1739001682.328) RX 1DC#B40F8FFD0130C9CE
(1739001682.332) RX 1D4#F707000087460070
(1739001682.332) RX 1F2#10640000001E020E
(1739001682.332) RX 1DA#C064180000010028
(1739001682.333) RX 50B#000006C00060
(1739001682.334) RX 11A#014000AA800003CE
(1739001682.335) RX 1C2#5B
(1739001682.338) RX 1DB#FC80BF6A000002F2
(1739001682.338) RX 1DC#B40F8FFD0520C64C
(1739001682.342) RX 1D4#F7070000C74600B7
(1739001682.342) RX 1DA#C0641800000101AD
(1739001682.343) RX 1F2#10640000001E030F
(1739001682.343) RX 284#0000000000009117
(1739001682.343) RX 11A#014000AAC0000003
(1739001682.345) RX 1C2#5C
(1739001682.348) RX 1DB#FC80BFAA00000350
(1739001682.348) RX 1DC#B40F8FFD08C0CB1B
(1739001682.352) RX 1DA#C0641800000102A7
(1739001682.353) RX 1D4#F70700000746007B
(1739001682.353) RX 1F2#10640000001E000C
(1739001682.354) RX 11A#0140005500000115
(1739001682.355) RX 1C2#5D
(1739001682.358) RX 1DB#FC80BFAA0000005A
(1739001682.358) RX 1DC#B40F8FFD0CCCD8E4
(1739001682.362) RX 1DA#C064180000010322
(1739001682.363) RX 1D4#F7070000474600BC
(1739001682.363) RX 1F2#10640000001E010D
(1739001682.363) RX 284#0000000000009218
(1739001682.363) RX 11A#01400055400002D8
(1739001682.365) RX 1C2#5E
(1739001682.368) RX 1DB#FC80BFAA000001DF
(1739001682.369) RX 1DC#B40F8FFD0130C9CE
(1739001682.369) RX 55B#CA00AA00E4C0104A
(1739001682.369) RX 5BC#5A032026B2054074
(1739001682.369) RX 54A#100070062000002D
(1739001682.370) RX 54B#007698121C000000
(1739001682.371) RX 54C#6E66400000585A00
(1739001682.372) RX 54F#2301000007948A4D
(1739001682.373) RX 1DA#C064180000010028
(1739001682.373) RX 1D4#F707000087460070
(1739001682.373) RX 1F2#10640000001E020E
(1739001682.374) RX 11A#014000AA800003CE
(1739001682.375) RX 1C2#5F
(1739001682.378) RX 1DB#FC80BFAA000002D5
(1739001682.378) RX 1DC#B40F8FFD0520C64C
(1739001682.382) RX 1DA#C0641800000101AD
(1739001682.383) RX 11A#014000AAC0000003
(1739001682.383) RX 1D4#F7070000C74600B7
(1739001682.383) RX 1F2#10640000001E030F
(1739001682.384) RX 284#0000000000009319
(1739001682.385) RX 1C2#50
(1739001682.388) RX 1DB#FC80BFAA00000350
(1739001682.389) RX 1DC#B40F8FFD08C0CB1B
(1739001682.392) RX 1DA#C0641800000102A7
(1739001682.393) RX 1D4#F70700000746007B
(1739001682.394) RX 1F2#10640000001E000C
(1739001682.394) RX 11A#0140005500000115
(1739001682.394) RX 50C#000000025D63
(1739001682.395) RX 1C2#51
(1739001682.398) RX 1DB#FC80BFAA0000005A
(1739001682.398) RX 1DC#B40F8FFD0CCCD8E4
(1739001682.402) RX 1DA#C064180000010322
(1739001682.403) RX 11A#01400055400002D8
(1739001682.404) RX 1D4#F7070000474600BC
(1739001682.404) RX 1F2#10640000001E010D
(1739001682.404) RX 284#000000000000941A
(1739001682.404) RX 5A9#643C501304300000
(1739001682.405) RX 1C2#52
(1739001682.408) RX 380#02041021000000B0
(1739001682.408) RX 5BF#0000000028000009
(1739001682.408) RX 1DB#FC80BFAA000001DF
(1739001682.409) RX 1DC#B40F8FFD0130C9CE
(1739001682.412) RX 1DA#C064180000010028
(1739001682.413) RX 55A#003331005F365B68
(1739001682.414) RX 11A#014000AA800003CE
(1739001682.414) RX 1D4#F707000087460070
(1739001682.414) RX 1F2#10640000001E020E
(1739001682.414) RX 50A#8552A00D8020
(1739001682.415) RX 1C2#53
(1739001682.418) RX 1DB#FC80BFAA000002D5
(1739001682.418) RX 1DC#B40F8FFD0520C64C
(1739001682.422) RX 1DA#C0641800000101AD
(1739001682.423) RX 11A#014000AAC0000003
(1739001682.424) RX 1D4#F7070000C74600B7
(1739001682.424) RX 1F2#10640000001E030F
(1739001682.425) RX 284#000000000000951B
(1739001682.425) RX 1C2#54
(1739001682.428) RX 1DB#FC80BFAA00000350
(1739001682.429) RX 1DC#B40F8FFD08C0CB1B
(1739001682.432) RX 1DA#C0641800000102A7
(1739001682.434) RX 11A#0140005500000115
(1739001682.434) RX 1D4#F70700000746007B
(1739001682.435) RX 1F2#10640000001E000C
(1739001682.435) RX 50B#000006C00060
(1739001682.435) RX 1C2#55
(1739001682.438) RX 1DB#FC80BFAA0000005A
(1739001682.439) RX 1DC#B40F8FFD0CCCD8E4
(1739001682.442) RX 1DA#C064180000010322
(1739001682.443) RX 11A#01400055400002D8
(1739001682.445) RX 1D4#F7070000474600BC
(1739001682.445) RX 1F2#10640000001E010D
(1739001682.445) RX 1C2#56
(1739001682.445) RX 284#000000000000961C
(1739001682.448) RX 1DB#FC80BFAA000001DF
(1739001682.449) RX 1DC#B40F8FFD0130C9CE
(1739001682.452) RX 1DA#C064180000010028
(1739001682.454) RX 11A#014000AA800003CE
(1739001682.455) RX 1D4#F707000087460070
(1739001682.455) RX 1C2#57
(1739001682.455) RX 1F2#10640000001E020E
(1739001682.458) RX 1DB#FC80BFAA000002D5
(1739001682.459) RX 1DC#B40F8FFD0520C64C
(1739001682.462) RX 1DA#C0641800000101AD
(1739001682.463) RX 11A#014000AAC0000003
(1739001682.465) RX 1C2#58
(1739001682.465) RX 1D4#F7070000C74600B7
(1739001682.465) RX 1F2#10640000001E030F
(1739001682.466) RX 284#000000000000971D
(1739001682.469) RX 1DB#FC80BFAA00000350
(1739001682.469) RX 1DC#B40F8FFD08C0CB1B
(1739001682.469) RX 55B#CA005500E4C01188
(1739001682.469) RX 54A#9E0070062000002D
(1739001682.470) RX 5BC#5A032026B2054074
(1739001682.470) RX 54B#007698121C000000
(1739001682.471) RX 54C#6E66400000585A00
(1739001682.472) RX 1DA#C0641800000102A7
(1739001682.473) RX 54F#2301000007D48A4D
(1739001682.474) RX 11A#0140005500000115
(1739001682.475) RX 1C2#59
(1739001682.475) RX 1D4#F70700000746007B
(1739001682.476) RX 1F2#10640000001E000C
(1739001682.476) RX 5B9#67FF67FF28
(1739001682.478) RX 1DB#FC80BFAA0000005A
(1739001682.479) RX 1DC#B40F8FFD0CCCD8E4
(1739001682.482) RX 1DA#C064180000010322
(1739001682.484) RX 11A#01400055400002D8
(1739001682.485) RX 1C2#5A
(1739001682.486) RX 1D4#F7070000474600BC
(1739001682.486) RX 1F2#10640000001E010D
(1739001682.486) RX 284#000000000000981E
(1739001682.489) RX 1DB#FC80BFAA000001DF
(1739001682.489) RX 1DC#B40F8FFD0130C9CE
(1739001682.492) RX 1DA#C064180000010028
(1739001682.494) RX 11A#014000AA800003CE
(1739001682.495) RX 1C2#5B
(1739001682.496) RX 1D4#F707000087460070
(1739001682.496) RX 1F2#10640000001E020E
(1739001682.496) RX 284#000000000000991F
(1739001682.497) RX 50C#00000003B29A
(1739001682.498) RX 1DB#FC80BFAA000002D5
(1739001682.499) RX 1DC#B40F8FFD0520C64C
(1739001682.502) RX 1DA#C0641800000101AD
(1739001682.503) RX 11A#014000AAC0000003
(1739001682.505) RX 1C2#5C
(1739001682.506) RX 1D4#F7070000C74600B7
(1739001682.506) RX 1F2#10640000001E030F
(1739001682.508) RX 380#020410210000008D
(1739001682.508) RX 5BF#000000002800001A
(1739001682.509) RX 1DB#FC80BFAA00000350
(1739001682.509) RX 1DC#B40F8FFD08C0CB1B
(1739001682.512) RX 1DA#C0641800000102A7
(1739001682.513) RX 55A#003331005F365B68
(1739001682.514) RX 11A#0140005500000115
(1739001682.515) RX 1C2#5D
(1739001682.516) RX 1D4#F70700000746007B
(1739001682.517) RX 1F2#10640000001E000C
(1739001682.517) RX 284#0000000000009A20
(1739001682.517) RX 50A#8572A00D8020
(1739001682.519) RX 1DB#FC80BFAA0000005A
(1739001682.519) RX 1DC#B40F8FFD0CCCD8E4
(1739001682.522) RX 1DA#C064180000010322
(1739001682.523) RX 11A#01400055400002D8
(1739001682.525) RX 1C2#5E
(1739001682.527) RX 1D4#F7070000474600BC
(1739001682.527) RX 1F2#10640000001E010D
(1739001682.529) RX 1DB#FC80BFAA000001DF
(1739001682.529) RX 1DC#B40F8FFD0130C9CE
(1739001682.532) RX 1DA#C064180000010028
(1739001682.534) RX 11A#014000AA800003CE
(1739001682.516) RX 1D4#F70700000746007B
(1739001682.517) RX 1F2#10640000001E000C
(1739001682.517) RX 284#0000000000009A20
(1739001682.517) RX 50A#8572A00D8020
(1739001682.519) RX 1DB#FC80BFAA0000005A
(1739001682.519) RX 1DC#B40F8FFD0CCCD8E4
(173(1739001682.535) RX 1C2#5F
(1739001682.537) RX 1D4#F707000087460070
(1739001682.537) RX 1F2#10640000001E020E
(1739001682.537) RX 284#0000000000009B21
(1739001682.537) RX 50B#000006C00060
(1739001682.539) RX 1DB#FC80BFAA000002D5
(1739001682.539) RX 1DC#B40F8FFD0520C64C
(1739001682.542) RX 1DA#C0641800000101AD
(1739001682.543) RX 11A#014000AAC0000003
(1739001682.545) RX 1C2#50
(1739001682.547) RX 1D4#F7070000C74600B7
(1739001682.547) RX 1F2#10640000001E030F
(1739001682.549) RX 1DB#FC80BFAA00000350
(1739001682.549) RX 1DC#B40F8FFD08C0CB1B
(1739001682.552) RX 1DA#C0641800000102A7
(1739001682.554) RX 11A#0140005500000115
(1739001682.555) RX 1C2#51
(1739001682.557) RX 1D4#F70700000746007B
(1739001682.558) RX 1F2#10640000001E000C
(1739001682.558) RX 284#0000000000009C22
(1739001682.559) RX 1DB#FC80BFAA0000005A
(1739001682.559) RX 1DC#B40F8FFD0CCCD8E4
(1739001682.562) RX 1DA#C064180000010322
(1739001682.563) RX 11A#01400055400002D8
(1739001682.565) RX 1C2#52
(1739001682.567) RX 1D4#F7070000474600BC
(1739001682.568) RX 1F2#10640000001E010D
(1739001682.569) RX 1DB#FC80BFAA000001DF
(1739001682.569) RX 1DC#B40F8FFD0130C9CE
(1739001682.569) RX 54A#100070062000002D
(1739001682.570) RX 55B#CA00AA00E4C012C5
(1739001682.570) RX 5BC#5A032026B2054074
(1739001682.570) RX 54B#007698121C000000
(1739001682.571) RX 54C#6E66400000585A00
(1739001682.572) RX 1DA#C064180000010028
(1739001682.573) RX 54F#2301000007148A4D
(1739001682.574) RX 11A#014000AA800003CE
(1739001682.575) RX 1C2#53
(1739001682.578) RX 1D4#F707000087460070
(1739001682.578) RX 1F2#10640000001E020E
(1739001682.578) RX 284#0000000000009D23
(1739001682.579) RX 1DB#FC80BFAA000002D5
(1739001682.579) RX 1DC#B40F8FFD0520C64C
(1739001682.582) RX 1DA#C0641800000101AD
(1739001682.583) RX 11A#014000AAC0000003
(1739001682.585) RX 1C2#54
(1739001682.588) RX 1D4#F7070000C74600B7
(1739001682.588) RX 1F2#10640000001E030F
(1739001682.589) RX 1DB#FC80BFAA00000350
(1739001682.589) RX 1DC#B40F8FFD08C0CB1B
(1739001682.592) RX 1DA#C0641800000102A7
(1739001682.594) RX 11A#0140005500000115
(1739001682.595) RX 1C2#55
(1739001682.598) RX 1D4#F70700000746007B
(1739001682.598) RX 1F2#10640000001E000C
(1739001682.599) RX 1DB#FC80BFAA0000005A
(1739001682.599) RX 284#0000000000009E24
(1739001682.599) RX 1DC#B40F8FFD0CCCD8E4
(1739001682.599) RX 50C#000000005DC8
(1739001682.602) RX 1DA#C064180000010322
(1739001682.603) RX 11A#01400055400002D8
(1739001682.605) RX 1C2#56
(1739001682.608) RX 380#020410210000009E
(1739001682.608) RX 5BF#000000002800002B
(1739001682.609) RX 1D4#F7070000474600BC
(1739001682.609) RX 1F2#10640000001E010D
(1739001682.609) RX 1DB#FC80BFAA000001DF
(1739001682.609) RX 1DC#B40F8FFD0130C9CE
(1739001682.612) RX 1DA#C064180000010028
(1739001682.613) RX 55A#003331005F365B68
(1739001682.614) RX 11A#014000AA800003CE
(1739001682.615) RX 1C2#57
(1739001682.619) RX 1D4#F707000087460070
(1739001682.619) RX 1DB#FC80BFAA000002D5
(1739001682.619) RX 1F2#10640000001E020E
(1739001682.619) RX 1DC#B40F8FFD0520C64C
(1739001682.620) RX 284#0000000000009F25
(1739001682.620) RX 50A#8512A00D8020
(1739001682.622) RX 1DA#C0641800000101AD
(1739001682.623) RX 11A#014000AAC0000003
(1739001682.625) RX 1C2#58
(1739001682.629) RX 1DB#FC80BF6A00000377
(1739001682.629) RX 1D4#F7070000C74600B7
(1739001682.629) RX 1DC#B40F8FFD08C0CB1B
(1739001682.630) RX 1F2#10640000001E030F
(1739001682.632) RX 1DA#C0641800000102A7
(1739001682.634) RX 11A#0140005500000115
(1739001682.635) RX 1C2#59
(1739001682.639) RX 1DB#FC80BF6A0000007D
(1739001682.639) RX 1DC#B40F8FFD0CCCD8E4
(1739001682.639) RX 1D4#F70700000746007B
(1739001682.640) RX 1F2#10640000001E000C
(1739001682.640) RX 284#000000000000A026
(1739001682.640) RX 50B#000006C00060
(1739001682.642) RX 1DA#C064180000010322
(1739001682.643) RX 11A#01400055400002D8
(1739001682.645) RX 1C2#5A
(1739001682.649) RX 1DB#FC80BF6A000001F8
(1739001682.649) RX 1DC#B40F8FFD0130C9CE
(1739001682.649) RX 1D4#F7070000474600BC
(1739001682.650) RX 1F2#10640000001E010D
(1739001682.652) RX 1DA#C064180000010028
(1739001682.654) RX 11A#014000AA800003CE
(1739001682.655) RX 1C2#5B
(1739001682.659) RX 1DB#FC80BF6A000002F2
(1739001682.659) RX 1DC#B40F8FFD0520C64C
(1739001682.660) RX 1D4#F707000087460070
(1739001682.660) RX 1F2#10640000001E020E
(1739001682.660) RX 284#000000000000A127
(1739001682.662) RX 1DA#C0641800000101AD
(1739001682.663) RX 11A#014000AAC0000003
(1739001682.665) RX 1C2#5C
(1739001682.669) RX 1DB#FC80BF6A00000377
(1739001682.669) RX 1DC#B40F8FFD08C0CB1B
(1739001682.670) RX 54A#9E0070062000002D
(1739001682.670) RX 55B#CA005500E4C01307
(1739001682.670) RX 1D4#F7070000C74600B7
(1739001682.670) RX 1F2#10640000001E030F
(1739001682.671) RX 54B#007698121C000000
(1739001682.671) RX 5BC#5A032026B2054074
(1739001682.671) RX 54C#6E66400000585A00
(1739001682.672) RX 1DA#C0641800000102A7
(1739001682.673) RX 54F#2301000007548A4D
(1739001682.674) RX 11A#0140005500000115
(1739001682.676) RX 1C2#5D
(1739001682.679) RX 1DB#FC80BF6A0000007D
(1739001682.679) RX 1DC#B40F8FFD0CCCD8E4
(1739001682.680) RX 5C0#404C4C0004E41200
(1739001682.680) RX 5EB#E00FFFFFFFFFFFFF
(1739001682.680) RX 1D4#F70700000746007B
(1739001682.681) RX 1F2#10640000001E000C
(1739001682.681) RX 284#000000000000A228
(1739001682.682) RX 1DA#C064180000010322
(1739001682.683) RX 11A#01400055400002D8
(1739001682.685) RX 1C2#5E
(1739001682.689) RX 1DB#FC80BFAA000001DF
(1739001682.689) RX 1DC#B40F8FFD0130C9CE
(1739001682.690) RX 1D4#F7070000474600BC
(1739001682.691) RX 1F2#10640000001E010D
(1739001682.692) RX 1DA#C064180000010028
(1739001682.694) RX 11A#014000AA800003CE
(1739001682.695) RX 1C2#5F
(1739001682.699) RX 1DB#FC80BFAA000002D5
(1739001682.699) RX 1DC#B40F8FFD0520C64C
(1739001682.701) RX 1D4#F707000087460070
(1739001682.701) RX 1F2#10640000001E020E
(1739001682.701) RX 284#000000000000A329
(1739001682.701) RX 50C#00000001B231
(1739001682.702) RX 1DA#C0641800000101AD
(1739001682.703) RX 11A#014000AAC0000003
(1739001682.705) RX 1C2#50
(1739001682.708) RX 380#02041021000000AF
(1739001682.708) RX 5BF#000000002800003C
(1739001682.709) RX 1DB#FC80BFAA00000350
(1739001682.709) RX 1DC#B40F8FFD08C0CB1B
(1739001682.711) RX 1D4#F7070000C74600B7
(1739001682.711) RX 1F2#10640000001E030F
(1739001682.712) RX 1DA#C0641800000102A7
(1739001682.712) RX 55A#003331005F365B68
(1739001682.714) RX 11A#0140005500000115
(1739001682.715) RX 1C2#51
(1739001682.719) RX 1DB#FC80BFAA0000005A
(1739001682.719) RX 1DC#B40F8FFD0CCCD8E4
(1739001682.721) RX 1D4#F70700000746007B
(1739001682.721) RX 1F2#10640000001E000C
(1739001682.722) RX 284#000000000000A42A
(1739001682.722) RX 50A#8532A00D8020
(1739001682.722) RX 1DA#C064180000010322
(1739001682.723) RX 11A#01400055400002D8
(1739001682.726) RX 1C2#52
(1739001682.729) RX 1DB#FC80BFAA000001DF
(1739001682.729) RX 1DC#B40F8FFD0130C9CE
(1739001682.731) RX 1D4#F7070000474600BC
(1739001682.732) RX 1F2#10640000001E010D
(1739001682.732) RX 1DA#C064180000010028
(1739001682.734) RX 11A#014000AA800003CE
(1739001682.736) RX 1C2#53
(1739001682.739) RX 1DB#FC80BFAA000002D5
(1739001682.739) RX 1DC#B40F8FFD0520C64C
(1739001682.742) RX 1D4#F707000087460070
(1739001682.742) RX 1F2#10640000001E020E
(1739001682.742) RX 284#000000000000A52B
(1739001682.742) RX 1DA#C0641800000101AD
(1739001682.743) RX 50B#000006C00060
(1739001682.743) RX 11A#014000AAC0000003
(1739001682.746) RX 1C2#54
(1739001682.749) RX 1DB#FC80BFAA00000350
(1739001682.750) RX 1DC#B40F8FFD08C0CB1B
(1739001682.752) RX 1D4#F7070000C74600B7
(1739001682.752) RX 1F2#10640000001E030F
(1739001682.752) RX 1DA#C0641800000102A7
(1739001682.754) RX 11A#0140005500000115
(1739001682.756) RX 1C2#55
(1739001682.759) RX 1DB#FC80BFAA0000005A
(1739001682.760) RX 1DC#B40F8FFD0CCCD8E4
(1739001682.762) RX 1D4#F70700000746007B
(1739001682.762) RX 1DA#C064180000010322
(1739001682.763) RX 1F2#10640000001E000C
(1739001682.763) RX 284#000000000000A62C
(1739001682.763) RX 11A#01400055400002D8
(1739001682.766) RX 1C2#56
(1739001682.769) RX 1DB#FC80BFAA000001DF
(1739001682.770) RX 54A#100070062000002D
(1739001682.770) RX 1DC#B40F8FFD0130C9CE
(1739001682.770) RX 55B#CA00AA00E4C0104A
(1739001682.771) RX 5BC#5A032C26B30620A0
(1739001682.771) RX 54B#007698121C000000
(1739001682.772) RX 54C#6E66400000585A00
(1739001682.772) RX 1DA#C064180000010028
(1739001682.772) RX 1D4#F7070000474600BC
(1739001682.773) RX 1F2#10640000001E010D
(1739001682.773) RX 54F#2301000007948A4D
(1739001682.774) RX 11A#014000AA800003CE
(1739001682.776) RX 1C2#57
(1739001682.779) RX 1DB#FC80BFAA000002D5
(1739001682.780) RX 1DC#B40F8FFD0520C64C
(1739001682.782) RX 1DA#C0641800000101AD
(1739001682.783) RX 1D4#F707000087460070
(1739001682.783) RX 1F2#10640000001E020E
(1739001682.783) RX 11A#014000AAC0000003
(1739001682.783) RX 284#000000000000A72D
(1739001682.786) RX 1C2#58
(1739001682.789) RX 1DB#FC80BFAA00000350
(1739001682.790) RX 1DC#B40F8FFD08C0CB1B
(1739001682.792) RX 1DA#C0641800000102A7
(1739001682.793) RX 1D4#F7070000C74600B7
(1739001682.793) RX 1F2#10640000001E030F
(1739001682.794) RX 11A#0140005500000115
(1739001682.796) RX 1C2#59
(1739001682.799) RX 1DB#FC80BFAA0000005A
(1739001682.800) RX 1DC#B40F8FFD0CCCD8E4
(1739001682.802) RX 1DA#C064180000010322
(1739001682.803) RX 1D4#F70700000746007B
(1739001682.803) RX 11A#01400055400002D8
(1739001682.804) RX 1F2#10640000001E000C
(1739001682.804) RX 284#000000000000A82E
(1739001682.804) RX 50C#000000025D63
(1739001682.806) RX 1C2#5A
(1739001682.808) RX 380#02041021000000B0
(1739001682.809) RX 5BF#0000000028000009
(1739001682.809) RX 1DB#FC80BFAA000001DF
(1739001682.810) RX 1DC#B40F8FFD0130C9CE
(1739001682.812) RX 1DA#C064180000010028
(1739001682.812) RX 55A#003331005F365B68
(1739001682.813) RX 1D4#F7070000474600BC
(1739001682.814) RX 1F2#10640000001E010D
(1739001682.814) RX 11A#014000AA800003CE
(1739001682.816) RX 1C2#5B
(1739001682.819) RX 1DB#FC80BFAA000002D5
(1739001682.820) RX 1DC#B40F8FFD0520C64C
(1739001682.822) RX 1DA#C0641800000101AD
(1739001682.823) RX 11A#014000AAC0000003
(1739001682.824) RX 1D4#F707000087460070
(1739001682.824) RX 1F2#10640000001E020E
(1739001682.824) RX 284#000000000000A92F
(1739001682.824) RX 50A#8552A00D8020
(1739001682.826) RX 1C2#5C
(1739001682.829) RX 1DB#FC80BFAA00000350
(1739001682.830) RX 1DC#B40F8FFD08C0CB1B
(1739001682.832) RX 1DA#C0641800000102A7
(1739001682.834) RX 11A#0140005500000115
(1739001682.834) RX 1D4#F7070000C74600B7
(1739001682.834) RX 1F2#10640000001E030F
(1739001682.836) RX 1C2#5D
(1739001682.839) RX 1DB#FC80BFAA0000005A
(1739001682.840) RX 1DC#B40F8FFD0CCCD8E4
(1739001682.842) RX 1DA#C064180000010322
(1739001682.843) RX 11A#01400055400002D8
(1739001682.844) RX 1D4#F70700000746007B
(1739001682.844) RX 1F2#10640000001E000C
(1739001682.845) RX 284#000000000000AA30
(1739001682.845) RX 50B#000006C00060
(1739001682.846) RX 1C2#5E
(1739001682.849) RX 1DB#FC80BFAA000001DF
(1739001682.850) RX 1DC#B40F8FFD0130C9CE
(1739001682.852) RX 1DA#C064180000010028
(1739001682.854) RX 11A#014000AA800003CE
(1739001682.854) RX 1D4#F7070000474600BC
(1739001682.855) RX 1F2#10640000001E010D
(1739001682.856) RX 1C2#5F
(1739001682.859) RX 1DB#FC80BFAA000002D5
(1739001682.860) RX 1DC#B40F8FFD0520C64C
(1739001682.862) RX 1DA#C0641800000101AD
(1739001682.863) RX 11A#014000AAC0000003
(1739001682.865) RX 1D4#F707000087460070
(1739001682.865) RX 1F2#10640000001E020E
(1739001682.865) RX 284#000000000000AB31
(1739001682.866) RX 1C2#50
(1739001682.870) RX 1DB#FC80BFAA00000350
(1739001682.870) RX 54A#9E0070062000002D
(1739001682.870) RX 1DC#B40F8FFD08C0CB1B
(1739001682.870) RX 55B#CA005500E4C01188
(1739001682.871) RX 54B#007698121C000000
(1739001682.871) RX 5BC#5A032C26B30620A0
(1739001682.872) RX 54C#6E66400000585A00
(1739001682.872) RX 1DA#C0641800000102A7
(1739001682.873) RX 54F#2301000007D48A4D
(1739001682.874) RX 11A#0140005500000115
(1739001682.875) RX 1D4#F7070000C74600B7
(1739001682.875) RX 1F2#10640000001E030F
(1739001682.876) RX 1C2#51
(1739001682.880) RX 1DB#FC80BFAA0000005A
(1739001682.880) RX 1DC#B40F8FFD0CCCD8E4
(1739001682.882) RX 1DA#C064180000010322
(1739001682.883) RX 11A#01400055400002D8
(1739001682.885) RX 1D4#F70700000746007B
(1739001682.885) RX 1F2#10640000001E000C
(1739001682.886) RX 284#000000000000AC32
(1739001682.886) RX 1C2#52
(1739001682.890) RX 1DB#FC80BFAA000001DF
(1739001682.890) RX 1DC#B40F8FFD0130C9CE
(1739001682.892) RX 1DA#C064180000010028
(1739001682.894) RX 11A#014000AA800003CE
(1739001682.895) RX 1D4#F7070000474600BC
(1739001682.896) RX 1F2#10640000001E010D
(1739001682.896) RX 1C2#53
(1739001682.900) RX 1DB#FC80BFAA000002D5
(1739001682.900) RX 1DC#B40F8FFD0520C64C
(1739001682.902) RX 1DA#C0641800000101AD
(1739001682.903) RX 11A#014000AAC0000003
(1739001682.906) RX 1D4#F707000087460070
(1739001682.906) RX 1F2#10640000001E020E
(1739001682.906) RX 1C2#54
(1739001682.906) RX 284#000000000000AD33
(1739001682.906) RX 50C#00000003B29A
(1739001682.908) RX 380#020410210000008D
(1739001682.909) RX 5BF#000000002800001A
(1739001682.910) RX 1DB#FC80BF6A00000377
(1739001682.910) RX 1DC#B40F8FFD08C0CB1B
(1739001682.912) RX 1DA#C0641800000102A7
(1739001682.912) RX 55A#003331005F365B68
(1739001682.914) RX 11A#0140005500000115
(1739001682.916) RX 1D4#F7070000C74600B7
(1739001682.916) RX 1F2#10640000001E030F
(1739001682.916) RX 284#000000000000AE34
(1739001682.916) RX 1C2#55
(1739001682.917) RX 5A9#643C501304300000
(1739001682.920) RX 1DB#FC80BF6A0000007D
(1739001682.920) RX 1DC#B40F8FFD0CCCD8E4
(1739001682.922) RX 1DA#C064180000010322
(1739001682.923) RX 11A#01400055400002D8
(1739001682.926) RX 1D4#F70700000746007B
(1739001682.926) RX 1C2#56
(1739001682.926) RX 1F2#10640000001E000C
(1739001682.927) RX 50A#8572A00D8020
(1739001682.930) RX 1DB#FC80BFAA000001DF
(1739001682.930) RX 1DC#B40F8FFD0130C9CE
(1739001682.932) RX 1DA#C064180000010028
(1739001682.934) RX 11A#014000AA800003CE
(1739001682.936) RX 1D4#F7070000474600BC
(1739001682.936) RX 1C2#57
(1739001682.937) RX 1F2#10640000001E010D
(1739001682.937) RX 284#000000000000AF35
(1739001682.940) RX 1DB#FC80BFAA000002D5
(1739001682.940) RX 1DC#B40F8FFD0520C64C
(1739001682.942) RX 1DA#C0641800000101AD
(1739001682.943) RX 11A#014000AAC0000003
(1739001682.946) RX 1C2#58
(1739001682.946) RX 1D4#F707000087460070
(1739001682.947) RX 1F2#10640000001E020E
(1739001682.947) RX 50B#000006C00060
(1739001682.950) RX 1DB#FC80BF6A00000377
(1739001682.950) RX 1DC#B40F8FFD08C0CB1B
(1739001682.952) RX 1DA#C0641800000102A7
(1739001682.954) RX 11A#0140005500000115
(1739001682.956) RX 1C2#59
(1739001682.957) RX 1D4#F7070000C74600B7
(1739001682.957) RX 1F2#10640000001E030F
(1739001682.957) RX 284#000000000000B036
(1739001682.960) RX 1DB#FC80BF6A0000007D
(1739001682.960) RX 1DC#B40F8FFD0CCCD8E4
(1739001682.962) RX 1DA#C064180000010322
(1739001682.963) RX 11A#01400055400002D8
(1739001682.966) RX 1C2#5A
(1739001682.967) RX 1D4#F70700000746007B
(1739001682.967) RX 1F2#10640000001E000C
(1739001682.970) RX 54A#100070062000002D
(1739001682.970) RX 1DB#FC80BFAA000001DF
(1739001682.970) RX 1DC#B40F8FFD0130C9CE
(1739001682.971) RX 55B#CA00AA00E4C012C5
(1739001682.971) RX 54B#007698121C000000
(1739001682.971) RX 5BC#5A032C26B30620A0
(1739001682.972) RX 54C#6E66400000585A00
(1739001682.972) RX 1DA#C064180000010028
(1739001682.973) RX 54F#2301000007148A4D
(1739001682.974) RX 11A#014000AA800003CE
(1739001682.976) RX 1C2#5B
(1739001682.977) RX 1D4#F7070000474600BC
(1739001682.978) RX 1F2#10640000001E010D
(1739001682.978) RX 284#000000000000B137
(1739001682.980) RX 1DB#FC80BFAA000002D5
(1739001682.980) RX 1DC#B40F8FFD0520C64C
(1739001682.982) RX 1DA#C0641800000101AD
(1739001682.983) RX 11A#014000AAC0000003
(1739001682.986) RX 1C2#5C
(1739001682.987) RX 1D4#F707000087460070
(1739001682.988) RX 1F2#10640000001E020E
(1739001682.988) RX 5B9#67FF67FF28
(1739001682.990) RX 1DB#FC80BFAA00000350
(1739001682.990) RX 1DC#B40F8FFD08C0CB1B
(1739001682.992) RX 1DA#C0641800000102A7
(1739001682.994) RX 11A#0140005500000115
(1739001682.996) RX 1C2#5D
(1739001682.998) RX 1D4#F7070000C74600B7
(1739001682.998) RX 1F2#10640000001E030F
(1739001682.998) RX 284#000000000000B238
(1739001683.000) RX 1DB#FC80BFAA0000005A
(1739001683.000) RX 1DC#B40F8FFD0CCCD8E4
(1739001683.002) RX 1DA#C064180000010322
(1739001683.003) RX 11A#01400055400002D8
(1739001683.006) RX 1C2#5E
(1739001683.008) RX 1D4#F70700000746007B
(1739001683.008) RX 1F2#10640000001E000C
(1739001683.008) RX 50C#000000005DC8
(1739001683.009) RX 380#020410210000009E
(1739001683.009) RX 5BF#000000002800002B
(1739001683.010) RX 1DB#FC80BFAA000001DF
(1739001683.010) RX 1DC#B40F8FFD0130C9CE
(1739001683.012) RX 1DA#C064180000010028
(1739001683.012) RX 55A#003331005F365B68
(1739001683.014) RX 11A#014000AA800003CE
(1739001683.016) RX 1C2#5F
(1739001683.018) RX 1D4#F7070000474600BC
(1739001683.019) RX 1F2#10640000001E010D
(1739001683.019) RX 284#000000000000B339
(1739001683.020) RX 1DB#FC80BFAA000002D5
(1739001683.020) RX 1DC#B40F8FFD0520C64C
(1739001683.022) RX 1DA#C0641800000101AD
(1739001683.023) RX 11A#014000AAC0000003
(1739001683.026) RX 1C2#50
(1739001683.028) RX 1D4#F707000087460070
(1739001683.029) RX 1F2#10640000001E020E
(1739001683.029) RX 50A#8512A00D8020
(1739001683.030) RX 1DB#FC80BF6A00000377
(1739001683.030) RX 1DC#B40F8FFD08C0CB1B
(1739001683.032) RX 1DA#C0641800000102A7
(1739001683.034) RX 11A#0140005500000115
(1739001683.036) RX 1C2#51
(1739001683.039) RX 1D4#F7070000C74600B7
(1739001683.039) RX 1F2#10640000001E030F
(1739001683.039) RX 284#000000000000B43A
(1739001683.040) RX 1DB#FC80BF6A0000007D
(1739001683.041) RX 1DC#B40F8FFD0CCCD8E4
(1739001683.042) RX 1DA#C064180000010322
(1739001683.043) RX 11A#01400055400002D8
(1739001683.046) RX 1C2#52
(1739001683.049) RX 1D4#F70700000746007B
(1739001683.049) RX 1F2#10640000001E000C
(1739001683.049) RX 50B#000006C00060
(1739001683.050) RX 1DB#FC80BF6A000001F8
(1739001683.050) RX 1DC#B40F8FFD0130C9CE
(1739001683.052) RX 1DA#C064180000010028
(1739001683.054) RX 11A#014000AA800003CE
(1739001683.056) RX 1C2#53
(1739001683.059) RX 1D4#F7070000474600BC
(1739001683.059) RX 1F2#10640000001E010D
(1739001683.060) RX 284#000000000000B53B
(1739001683.060) RX 1DB#FC80BF6A000002F2
(1739001683.060) RX 1DC#B40F8FFD0520C64C
(1739001683.062) RX 1DA#C0641800000101AD
(1739001683.063) RX 11A#014000AAC0000003
(1739001683.066) RX 1C2#54
(1739001683.069) RX 1D4#F707000087460070
(1739001683.070) RX 1F2#10640000001E020E
(1739001683.070) RX 54A#9E0070062000002D
(1739001683.070) RX 1DB#FC80BFAA00000350
(1739001683.071) RX 1DC#B40F8FFD08C0CB1B
(1739001683.071) RX 54B#007698121C000000
(1739001683.071) RX 55B#CA005500E4C01307
(1739001683.071) RX 5BC#5A032C26B30620A0
(1739001683.072) RX 54C#6E66400000585A00
(1739001683.072) RX 1DA#C0641800000102A7
(1739001683.073) RX 54F#2301000007548A4D
(1739001683.074) RX 11A#0140005500000115
(1739001683.076) RX 1C2#55
(1739001683.080) RX 1D4#F7070000C74600B7
(1739001683.080) RX 1F2#10640000001E030F
(1739001683.080) RX 1DB#FC80BFAA0000005A
(1739001683.080) RX 284#000000000000B63C
(1739001683.081) RX 1DC#B40F8FFD0CCCD8E4
(1739001683.082) RX 1DA#C064180000010322
(1739001683.083) RX 11A#01400055400002D8
(1739001683.086) RX 1C2#56
(1739001683.090) RX 1D4#F70700000746007B
(1739001683.090) RX 1DB#FC80BFAA000001DF
(1739001683.090) RX 1F2#10640000001E000C
(1739001683.091) RX 1DC#B40F8FFD0130C9CE
(1739001683.092) RX 1DA#C064180000010028
(1739001683.094) RX 11A#014000AA800003CE
(1739001683.096) RX 1C2#57
(1739001683.100) RX 1DB#FC80BFAA000002D5
(1739001683.100) RX 1D4#F7070000474600BC
(1739001683.101) RX 1DC#B40F8FFD0520C64C
(1739001683.101) RX 1F2#10640000001E010D
(1739001683.101) RX 284#000000000000B73D
(1739001683.102) RX 1DA#C0641800000101AD
(1739001683.103) RX 11A#014000AAC0000003
(1739001683.106) RX 1C2#58
(1739001683.109) RX 380#02041021000000AF
(1739001683.109) RX 5BF#000000002800003C
(1739001683.110) RX 1DB#FC80BFAA00000350
(1739001683.110) RX 1D4#F707000087460070
(1739001683.111) RX 1DC#B40F8FFD08C0CB1B
(1739001683.111) RX 1F2#10640000001E020E
(1739001683.111) RX 50C#00000001B231
(1739001683.112) RX 1DA#C0641800000102A7
(1739001683.112) RX 55A#003331005F365B68
(1739001683.114) RX 11A#0140005500000115
(1739001683.116) RX 1C2#59
(1739001683.120) RX 1DB#FC80BFAA0000005A
(1739001683.120) RX 1DC#B40F8FFD0CCCD8E4
(1739001683.121) RX 1D4#F7070000C74600B7
(1739001683.121) RX 1F2#10640000001E030F
(1739001683.121) RX 284#000000000000B83E
(1739001683.122) RX 1DA#C064180000010322
(1739001683.123) RX 11A#01400055400002D8
(1739001683.126) RX 1C2#5A
(1739001683.130) RX 1DB#FC80BFAA000001DF
(1739001683.131) RX 1DC#B40F8FFD0130C9CE
(1739001683.131) RX 1D4#F70700000746007B
(1739001683.131) RX 1F2#10640000001E000C
(1739001683.131) RX 50A#8532A00D8020
(1739001683.132) RX 1DA#C064180000010028
(1739001683.134) RX 11A#014000AA800003CE
(1739001683.137) RX 1C2#5B
(1739001683.140) RX 1DB#FC80BFAA000002D5
(1739001683.141) RX 1DC#B40F8FFD0520C64C
(1739001683.141) RX 1D4#F7070000474600BC
(1739001683.141) RX 1F2#10640000001E010D
(1739001683.142) RX 284#000000000000B93F
(1739001683.142) RX 1DA#C0641800000101AD
(1739001683.143) RX 11A#014000AAC0000003
(1739001683.146) RX 1C2#5C
(1739001683.150) RX 1DB#FC80BF6A00000377
(1739001683.151) RX 1DC#B40F8FFD08C0CB1B
(1739001683.151) RX 1D4#F707000087460070
(1739001683.152) RX 1F2#10640000001E020E
(1739001683.152) RX 50B#000006C00060
(1739001683.152) RX 1DA#C0641800000102A7
(1739001683.154) RX 11A#0140005500000115
(1739001683.157) RX 1C2#5D
(1739001683.160) RX 1DB#FC80BF6A0000007D
(1739001683.161) RX 1DC#B40F8FFD0CCCD8E4
(1739001683.162) RX 1D4#F7070000C74600B7
(1739001683.162) RX 1F2#10640000001E030F
(1739001683.162) RX 284#000000000000BA40
(1739001683.162) RX 1DA#C064180000010322
(1739001683.163) RX 11A#01400055400002D8
(1739001683.167) RX 1C2#5E
(1739001683.170) RX 54A#100070062000002D
(1739001683.170) RX 1DB#FC80BF6A000001F8
(1739001683.171) RX 1DC#B40F8FFD0130C9CE
(1739001683.171) RX 54B#007698121C000000
(1739001683.171) RX 55B#CA00AA00E4C0104A
(1739001683.172) RX 5BC#5A032C26B30620A0
(1739001683.172) RX 1D4#F70700000746007B
(1739001683.172) RX 1F2#10640000001E000C
(1739001683.172) RX 1DA#C064180000010028
(1739001683.173) RX 54C#6E66400000585A00
(1739001683.174) RX 11A#014000AA800003CE
(1739001683.174) RX 54F#2301000007948A4D
(1739001683.177) RX 1C2#5F
(1739001683.180) RX 1DB#FC80BF6A000002F2
(1739001683.181) RX 1DC#B40F8FFD0520C64C
(1739001683.181) RX 5C0#C04C4C0004541200
(1739001683.181) RX 5EB#E00FFFFFFFFFFFFF
(1739001683.182) RX 1DA#C0641800000101AD
(1739001683.182) RX 1D4#F7070000474600BC
(1739001683.183) RX 1F2#10640000001E010D
(1739001683.183) RX 11A#014000AAC0000003
(1739001683.183) RX 284#000000000000BB41
(1739001683.187) RX 1C2#50
(1739001683.190) RX 1DB#FC80BF6A00000377
(1739001683.191) RX 1DC#B40F8FFD08C0CB1B
(1739001683.192) RX 1DA#C0641800000102A7
(1739001683.192) RX 1D4#F707000087460070
(1739001683.193) RX 1F2#10640000001E020E
(1739001683.194) RX 11A#0140005500000115
(1739001683.197) RX 1C2#51
(1739001683.200) RX 1DB#FC80BF6A0000007D
(1739001683.201) RX 1DC#B40F8FFD0CCCD8E4
(1739001683.202) RX 1DA#C064180000010322
(1739001683.203) RX 1D4#F7070000C74600B7
(1739001683.203) RX 1F2#10640000001E030F
(1739001683.203) RX 284#000000000000BC42
(1739001683.203) RX 11A#01400055400002D8
(1739001683.207) RX 1C2#52
(1739001683.209) RX 380#02041021000000B0
(1739001683.209) RX 5BF#0000000028000009
(1739001683.211) RX 1DB#FC80BF6A000001F8
(1739001683.211) RX 1DC#B40F8FFD0130C9CE
(1739001683.212) RX 1DA#C064180000010028
(1739001683.212) RX 55A#003331005F365B68
(1739001683.213) RX 1D4#F70700000746007B
(1739001683.213) RX 1F2#10640000001E000C
(1739001683.213) RX 50C#000000025D63
(1739001683.214) RX 11A#014000AA800003CE
(1739001683.217) RX 1C2#53
(1739001683.220) RX 1DB#FC80BF6A000002F2
(1739001683.221) RX 1DC#B40F8FFD0520C64C
(1739001683.222) RX 1DA#C0641800000101AD
(1739001683.223) RX 11A#014000AAC0000003
(1739001683.223) RX 1D4#F7070000474600BC
(1739001683.223) RX 1F2#10640000001E010D
(1739001683.224) RX 284#000000000000BD43
(1739001683.227) RX 1C2#54
(1739001683.231) RX 1DB#FC80BFAA00000350
(1739001683.231) RX 1DC#B40F8FFD08C0CB1B
(1739001683.232) RX 1DA#C0641800000102A7
(1739001683.233) RX 1D4#F707000087460070
(1739001683.234) RX 1F2#10640000001E020E
(1739001683.234) RX 11A#0140005500000115
(1739001683.234) RX 50A#8552A00D8020
(1739001683.237) RX 1C2#55
(1739001683.241) RX 1DB#FC80BFAA0000005A
(1739001683.241) RX 1DC#B40F8FFD0CCCD8E4
(1739001683.242) RX 1DA#C064180000010322
(1739001683.243) RX 11A#01400055400002D8
(1739001683.244) RX 1D4#F7070000C74600B7
(1739001683.244) RX 1F2#10640000001E030F
(1739001683.244) RX 284#000000000000BE44
(1739001683.247) RX 1C2#56
(1739001683.251) RX 1DB#FC80BFAA000001DF
(1739001683.251) RX 1DC#B40F8FFD0130C9CE
(1739001683.252) RX 1DA#C064180000010028
(1739001683.254) RX 11A#014000AA800003CE
(1739001683.254) RX 1D4#F70700000746007B
(1739001683.254) RX 1F2#10640000001E000C
(1739001683.254) RX 50B#000006C00060
(1739001683.257) RX 1C2#57
(1739001683.261) RX 1DB#FC80BFAA000002D5
(1739001683.261) RX 1DC#B40F8FFD0520C64C
(1739001683.262) RX 1DA#C0641800000101AD
(1739001683.263) RX 11A#014000AAC0000003
(1739001683.264) RX 1D4#F7070000474600BC
(1739001683.264) RX 1F2#10640000001E010D
(1739001683.265) RX 284#000000000000BF45
(1739001683.267) RX 1C2#58
(1739001683.270) RX 54A#9E0070062000002D
(1739001683.271) RX 1DB#FC80BFAA00000350
(1739001683.271) RX 54B#007698121C000000
(1739001683.271) RX 1DC#B40F8FFD08C0CB1B
(1739001683.272) RX 55B#CA005500E4C01188
(1739001683.272) RX 5BC#5A032026B2064080
(1739001683.272) RX 54C#6E66400000585A00
(1739001683.272) RX 1DA#C0641800000102A7
(1739001683.273) RX 54F#2301000007D48A4D
(1739001683.274) RX 11A#0140005500000115
(1739001683.274) RX 1D4#F707000087460070
(1739001683.275) RX 1F2#10640000001E020E
(1739001683.277) RX 1C2#59
(1739001683.281) RX 1DB#FC80BFAA0000005A
(1739001683.281) RX 1DC#B40F8FFD0CCCD8E4
(1739001683.282) RX 1DA#C064180000010322
(1739001683.283) RX 11A#01400055400002D8
(1739001683.285) RX 1D4#F7070000C74600B7
(1739001683.285) RX 1F2#10640000001E030F
(1739001683.285) RX 284#000000000000C046
(1739001683.287) RX 1C2#5A
(1739001683.291) RX 1DB#FC80BFAA000001DF
(1739001683.291) RX 1DC#B40F8FFD0130C9CE
(1739001683.292) RX 1DA#C064180000010028
(1739001683.294) RX 11A#014000AA800003CE
(1739001683.295) RX 1D4#F70700000746007B
(1739001683.295) RX 1F2#10640000001E000C
(1739001683.297) RX 1C2#5B
(1739001683.301) RX 1DB#FC80BFAA000002D5
(1739001683.301) RX 1DC#B40F8FFD0520C64C
(1739001683.302) RX 1DA#C0641800000101AD
(1739001683.303) RX 11A#014000AAC0000003
(1739001683.305) RX 1D4#F7070000474600BC
(1739001683.305) RX 1F2#10640000001E010D
(1739001683.306) RX 284#000000000000C147
(1739001683.307) RX 1C2#5C
(1739001683.309) RX 380#020410210000008D
(1739001683.309) RX 5BF#000000002800001A
(1739001683.311) RX 1DB#FC80BFAA00000350
(1739001683.311) RX 1DC#B40F8FFD08C0CB1B
(1739001683.312) RX 1DA#C0641800000102A7
(1739001683.312) RX 55A#003331005F365B68
(1739001683.314) RX 11A#0140005500000115
(1739001683.315) RX 1D4#F707000087460070
(1739001683.316) RX 1F2#10640000001E020E
(1739001683.316) RX 50C#00000003B29A
(1739001683.317) RX 1C2#5D
(1739001683.321) RX 1DB#FC80BFAA0000005A
(1739001683.321) RX 1DC#B40F8FFD0CCCD8E4
(1739001683.322) RX 1DA#C064180000010322
(1739001683.323) RX 11A#01400055400002D8
(1739001683.326) RX 1D4#F7070000C74600B7
(1739001683.326) RX 1F2#10640000001E030F
(1739001683.326) RX 284#000000000000C248
(1739001683.327) RX 1C2#5E
(1739001683.331) RX 1DB#FC80BFAA000001DF
(1739001683.331) RX 1DC#B40F8FFD0130C9CE
(1739001683.332) RX 1DA#C064180000010028
(1739001683.334) RX 11A#014000AA800003CE
(1739001683.336) RX 1D4#F70700000746007B
(1739001683.336) RX 1F2#10640000001E000C
(1739001683.336) RX 284#000000000000C349
(1739001683.336) RX 50A#8572A00D8020
(1739001683.337) RX 1C2#5F
(1739001683.341) RX 1DB#FC80BFAA000002D5
(1739001683.341) RX 1DC#B40F8FFD0520C64C
(1739001683.342) RX 1DA#C0641800000101AD
(1739001683.343) RX 11A#014000AAC0000003
(1739001683.346) RX 1D4#F7070000474600BC
(1739001683.346) RX 1F2#10640000001E010D
(1739001683.347) RX 1C2#50
(1739001683.351) RX 1DB#FC80BFAA00000350
(1739001683.351) RX 1DC#B40F8FFD08C0CB1B
(1739001683.352) RX 1DA#C0641800000102A7
(1739001683.354) RX 11A#0140005500000115
(1739001683.356) RX 1D4#F707000087460070
(1739001683.356) RX 1F2#10640000001E020E
(1739001683.357) RX 284#000000000000C44A
(1739001683.357) RX 50B#000006C00060
(1739001683.357) RX 1C2#51
(1739001683.361) RX 1DB#FC80BFAA0000005A
(1739001683.361) RX 1DC#B40F8FFD0CCCD8E4
(1739001683.362) RX 1DA#C064180000010322
(1739001683.363) RX 11A#01400055400002D8
(1739001683.366) RX 1D4#F7070000C74600B7
(1739001683.367) RX 1F2#10640000001E030F
(1739001683.367) RX 1C2#52
(1739001683.370) RX 54A#100070062000002D
(1739001683.371) RX 1DB#FC80BFAA000001DF
(1739001683.371) RX 54B#007698121C000000
(1739001683.371) RX 1DC#B40F8FFD0130C9CE
(1739001683.372) RX 55B#CA00AA00E4C012C5
(1739001683.372) RX 54C#6E66400000585A00
(1739001683.372) RX 1DA#C064180000010028
(1739001683.373) RX 5BC#5A032026B2064080
(1739001683.373) RX 54F#2301000007148A4D
(1739001683.374) RX 11A#014000AA800003CE
(1739001683.377) RX 1D4#F70700000746007B
(1739001683.377) RX 1F2#10640000001E000C
(1739001683.377) RX 1C2#53
(1739001683.377) RX 284#000000000000C54B
(1739001683.381) RX 1DB#FC80BFAA000002D5
(1739001683.381) RX 1DC#B40F8FFD0520C64C
(1739001683.382) RX 1DA#C0641800000101AD
(1739001683.383) RX 11A#014000AAC0000003
(1739001683.387) RX 1D4#F7070000474600BC
(1739001683.387) RX 1C2#54
(1739001683.387) RX 1F2#10640000001E010D
(1739001683.391) RX 1DB#FC80BFAA00000350
(1739001683.391) RX 1DC#B40F8FFD08C0CB1B
(1739001683.392) RX 1DA#C0641800000102A7
(1739001683.394) RX 11A#0140005500000115
(1739001683.397) RX 1C2#55
(1739001683.397) RX 1D4#F707000087460070
(1739001683.398) RX 1F2#10640000001E020E
(1739001683.398) RX 284#000000000000C64C
(1739001683.401) RX 1DB#FC80BFAA0000005A
(1739001683.401) RX 1DC#B40F8FFD0CCCD8E4
(1739001683.402) RX 1DA#C064180000010322
(1739001683.403) RX 11A#01400055400002D8
(1739001683.407) RX 1C2#56
(1739001683.407) RX 1D4#F7070000C74600B7
(1739001683.408) RX 1F2#10640000001E030F
(1739001683.409) RX 380#020410210000009E
(1739001683.409) RX 5BF#000000002800002B
(1739001683.411) RX 1DB#FC80BFAA000001DF
(1739001683.411) RX 1DC#B40F8FFD0130C9CE
(1739001683.412) RX 1DA#C064180000010028
(1739001683.412) RX 55A#003331005F365B68
(1739001683.414) RX 11A#014000AA800003CE
(1739001683.417) RX 1C2#57
(1739001683.418) RX 1D4#F70700000746007B
(1739001683.418) RX 1F2#10640000001E000C
(1739001683.418) RX 284#000000000000C74D
(1739001683.419) RX 50C#000000005DC8
(1739001683.421) RX 1DB#FC80BFAA000002D5
(1739001683.421) RX 1DC#B40F8FFD0520C64C
(1739001683.422) RX 1DA#C0641800000101AD
(1739001683.423) RX 11A#014000AAC0000003
(1739001683.427) RX 1C2#58
(1739001683.428) RX 1D4#F7070000474600BC
(1739001683.428) RX 1F2#10640000001E010D
(1739001683.428) RX 5A9#643C501304300000
(1739001683.431) RX 1DB#FC80BFAA00000350
(1739001683.431) RX 1DC#B40F8FFD08C0CB1B
(1739001683.432) RX 1DA#C0641800000102A7
(1739001683.434) RX 11A#0140005500000115
(1739001683.438) RX 1C2#59
(1739001683.438) RX 1D4#F707000087460070
(1739001683.438) RX 1F2#10640000001E020E
(1739001683.439) RX 284#000000000000C84E
(1739001683.439) RX 50A#8512A00D8020
(1739001683.441) RX 1DB#FC80BFAA0000005A
(1739001683.441) RX 1DC#B40F8FFD0CCCD8E4
(1739001683.442) RX 1DA#C064180000010322
(1739001683.443) RX 11A#01400055400002D8
(1739001683.447) RX 1C2#5A
(1739001683.448) RX 1D4#F7070000C74600B7
(1739001683.449) RX 1F2#10640000001E030F
(1739001683.451) RX 1DB#FC80BFAA000001DF
(1739001683.451) RX 1DC#B40F8FFD0130C9CE
(1739001683.452) RX 1DA#C064180000010028
(1739001683.454) RX 11A#014000AA800003CE
(1739001683.458) RX 1C2#5B
(1739001683.459) RX 1D4#F70700000746007B
(1739001683.459) RX 1F2#10640000001E000C
(1739001683.459) RX 284#000000000000C94F
(1739001683.459) RX 50B#000006C00060
(1739001683.461) RX 1DB#FCA0BFAA00000284
(1739001683.461) RX 1DC#B40F8FFD0520C64C
(1739001683.462) RX 1DA#C0641800000101AD
(1739001683.463) RX 11A#014000AAC0000003
(1739001683.467) RX 1C2#5C
(1739001683.469) RX 1D4#F7070000474600BC
(1739001683.469) RX 1F2#10640000001E010D
(1739001683.470) RX 54A#9E0070062000002D
(1739001683.471) RX 54B#007698121C000000
(1739001683.471) RX 1DB#FCA0BFAA00000301
(1739001683.472) RX 1DC#B40F8FFD08C0CB1B
(1739001683.472) RX 55B#CA005500E4C01307
(1739001683.472) RX 1DA#C0641800000102A7
(1739001683.472) RX 54C#6E66400000585A00
(1739001683.473) RX 5BC#5A032026B2064080
(1739001683.473) RX 54F#2301000007548A4D
(1739001683.474) RX 11A#0140005500000115
(1739001683.478) RX 1C2#5D
(1739001683.479) RX 1D4#F707000087460070
(1739001683.479) RX 1F2#10640000001E020E
(1739001683.480) RX 284#000000000000CA50
(1739001683.481) RX 1DB#FC80BFAA0000005A
(1739001683.481) RX 1DC#B40F8FFD0CCCD8E4
(1739001683.482) RX 1DA#C064180000010322
(1739001683.483) RX 11A#01400055400002D8
(1739001683.487) RX 1C2#5E
(1739001683.489) RX 1D4#F7070000C74600B7
(1739001683.490) RX 1F2#10640000001E030F
(1739001683.491) RX 1DB#FC80BFAA000001DF
(1739001683.492) RX 1DC#B40F8FFD0130C9CE
(1739001683.492) RX 1DA#C064180000010028
(1739001683.494) RX 11A#014000AA800003CE
(1739001683.498) RX 1C2#5F
(1739001683.500) RX 1D4#F70700000746007B
(1739001683.500) RX 1F2#10640000001E000C
(1739001683.500) RX 284#000000000000CB51
(1739001683.500) RX 5B9#67FF67FF28
(1739001683.501) RX 1DB#FC80BFAA000002D5
(1739001683.502) RX 1DC#B40F8FFD0520C64C
(1739001683.502) RX 1DA#C0641800000101AD
(1739001683.503) RX 11A#014000AAC0000003
(1739001683.507) RX 1C2#50
(1739001683.509) RX 380#02041021000000AF
(1739001683.509) RX 5BF#000000002800003C
(1739001683.510) RX 1D4#F7070000474600BC
(1739001683.510) RX 1F2#10640000001E010D
(1739001683.511) RX 1DB#FC80BFAA00000350
(1739001683.512) RX 1DC#B40F8FFD08C0CB1B
(1739001683.512) RX 1DA#C0641800000102A7
(1739001683.512) RX 55A#003331005F365B68
(1739001683.514) RX 11A#0140005500000115
(1739001683.517) RX 1C2#51
(1739001683.520) RX 1D4#F707000087460070
(1739001683.520) RX 1F2#10640000001E020E
(1739001683.521) RX 284#000000000000CC52
(1739001683.521) RX 50C#00000001B231
(1739001683.521) RX 1DB#FC80BFAA0000005A
(1739001683.522) RX 1DC#B40F8FFD0CCCD8E4
(1739001683.522) RX 1DA#C064180000010322
(1739001683.523) RX 11A#01400055400002D8
(1739001683.527) RX 1C2#52
(1739001683.530) RX 1D4#F7070000C74600B7
(1739001683.531) RX 1F2#10640000001E030F
(1739001683.532) RX 1DB#FC80BFAA000001DF
(1739001683.532) RX 1DC#B40F8FFD0130C9CE
(1739001683.532) RX 1DA#C064180000010028
(1739001683.534) RX 11A#014000AA800003CE
(1739001683.537) RX 1C2#53
(1739001683.541) RX 1D4#F70700000746007B
