(1739018327.704) RX 1DA#C064180000010322
(1739018327.704) RX 1F2#10640000001E010D
(1739018327.705) RX 284#0000000000000B91
(1739018327.711) RX 11A#0140005500000115
(1739018327.711) RX 1C2#54
(1739018327.713) RX 1DB#FDE0BF2A00000298
(1739018327.714) RX 1DC#B40F8FFD0520C64C
(1739018327.714) RX 1DA#C064180000010028
(1739018327.714) RX 1D4#F707000087460070
(1739018327.715) RX 1F2#10640000001E020E
(1739018327.715) RX 50C#000000035DF4
(1739018327.716) RX 11A#01400055400002D8
(1739018327.719) RX 1C2#55
(1739018327.723) RX 1DB#FDE0BF2A0000031D
(1739018327.724) RX 1DC#B40F8FFD08C0CB1B
(1739018327.724) RX 1DA#C0641800000101AD
(1739018327.724) RX 1D4#F7070000C74600B7
(1739018327.725) RX 1F2#10640000001E030F
(1739018327.725) RX 284#0000000000000C92
(1739018327.726) RX 11A#014000AA800003CE
(1739018327.726) RX 54A#100070062600002C
(1739018327.727) RX 54B#007898120C000000
(1739018327.728) RX 54C#6F66400000405800
(1739018327.729) RX 1C2#56
(1739018327.729) RX 54F#24010000078D8A5A
(1739018327.733) RX 1DB#FDE0BF2A00000017
(1739018327.734) RX 1DC#B40F8FFD0CCCD8E4
(1739018327.734) RX 1DA#C0641800000102A7
(1739018327.735) RX 1D4#F70700000746007B
(1739018327.735) RX 1F2#10640000001E000C
(1739018327.735) RX 50A#8572A00C8020
(1739018327.735) RX 11A#014000AAC0000003
(1739018327.739) RX 1C2#57
(1739018327.743) RX 1DB#FDE0BF2A00000192
(1739018327.744) RX 1DC#B40F8FFD0130C9CE
(1739018327.744) RX 1DA#C064180000010322
(1739018327.745) RX 1D4#F7070000474600BC
(1739018327.745) RX 1F2#10640000001E010D
(1739018327.745) RX 284#0000000000000D93
(1739018327.746) RX 11A#0140005500000115
(1739018327.749) RX 1C2#58
(1739018327.753) RX 1DB#FDE0BF2A00000298
(1739018327.754) RX 1DC#B40F8FFD0520C64C
(1739018327.754) RX 1DA#C064180000010028
(1739018327.754) RX 55A#002F2E005F315B68
(1739018327.755) RX 1D4#F707000087460070
(1739018327.755) RX 1F2#10640000001E020E
(1739018327.756) RX 50B#000006C00060
(1739018327.756) RX 11A#01400055400002D8
(1739018327.759) RX 1C2#59
(1739018327.764) RX 1DB#FDE0BF2A0000031D
(1739018327.764) RX 1DC#B40F8FFD08C0CB1B
(1739018327.764) RX 1DA#C0641800000101AD
(1739018327.764) RX 55B#C8405500E54013EF
(1739018327.765) RX 5BC#59032C26B3054074
(1739018327.765) RX 1D4#F7070000C74600B7
(1739018327.766) RX 1F2#10640000001E030F
(1739018327.766) RX 284#0000000000000E94
(1739018327.766) RX 11A#014000AA800003CE
(1739018327.769) RX 1C2#5A
(1739018327.773) RX 1DB#FDE0BF2A00000017
(1739018327.774) RX 1DC#B40F8FFD0CCCD8E4
(1739018327.774) RX 1DA#C0641800000102A7
(1739018327.775) RX 11A#014000AAC0000003
(1739018327.776) RX 1D4#F70700000746007B
(1739018327.776) RX 1F2#10640000001E000C
(1739018327.779) RX 1C2#5B
(1739018327.784) RX 1DB#FDE0BF2A00000192
(1739018327.784) RX 1DC#B40F8FFD0130C9CE
(1739018327.784) RX 1DA#C064180000010322
(1739018327.786) RX 1D4#F7070000474600BC
(1739018327.786) RX 1F2#10640000001E010D
(1739018327.786) RX 11A#0140005500000115
(1739018327.787) RX 284#0000000000000F95
(1739018327.789) RX 1C2#5C
(1739018327.790) RX 380#020410210000008D
(1739018327.790) RX 5BF#000000002800001A
(1739018327.794) RX 1DB#FDE0BF2A00000298
(1739018327.794) RX 1DC#B40F8FFD0520C64C
(1739018327.794) RX 1DA#C064180000010028
(1739018327.796) RX 11A#01400055400002D8
(1739018327.796) RX 1D4#F707000087460070
(1739018327.796) RX 1F2#10640000001E020E
(1739018327.799) RX 1C2#5D
(1739018327.804) RX 1DB#FDE0BF2A0000031D
(1739018327.804) RX 1DC#B40F8FFD08C0CB1B
(1739018327.804) RX 1DA#C0641800000101AD
(1739018327.806) RX 11A#014000AA800003CE
(1739018327.806) RX 1D4#F7070000C74600B7
(1739018327.807) RX 1F2#10640000001E030F
(1739018327.807) RX 284#0000000000001096
(1739018327.809) RX 1C2#5E
(1739018327.817) RX 1DB#FDE0BF2A00000017
(1739018327.817) RX 1DC#B40F8FFD0CCCD8E4
(1739018327.817) RX 1DA#C0641800000102A7
(1739018327.818) RX 11A#014000AAC0000003
(1739018327.818) RX 1D4#F70700000746007B
(1739018327.818) RX 1F2#10640000001E000C
(1739018327.818) RX 50C#00000000B2A6
(1739018327.819) RX 1C2#5F
(1739018327.824) RX 1DB#FDE0BF2A00000192
(1739018327.824) RX 1DC#B40F8FFD0130C9CE
(1739018327.804) RX 1DA#C0641800000101AD
(1739018327.806) RX 11A#014000AA800003CE
(1739018327.806) RX 1D4#F7070000C74600B7
(1739018327.807) RX 1F2#10640000001E030F
(1739018327.807) RX 284#0000000000001096
(1739018327.809) RX 1C2#5E
(1739018327.834) RX 1DA#C064180000010028
(1739018327.836) RX 11A#01400055400002D8
(1739018327.837) RX 1D4#F707000087460070
(1739018327.837) RX 1F2#10640000001E020E
(1739018327.838) RX 50A#8512A00C8020
(1739018327.839) RX 1C2#51
(1739018327.844) RX 1DB#FDE0BF2A0000031D
(1739018327.844) RX 1DC#B40F8FFD08C0CB1B
(1739018327.844) RX 1DA#C0641800000101AD
(1739018327.846) RX 11A#014000AA800003CE
(1739018327.847) RX 1D4#F7070000C74600B7
(1739018327.848) RX 1F2#10640000001E030F
(1739018327.848) RX 284#0000000000001298
(1739018327.849) RX 1C2#52
(1739018327.854) RX 1DB#FDE0BF2A00000017
(1739018327.854) RX 1DC#B40F8FFD0CCCD8E4
(1739018327.854) RX 1DA#C0641800000102A7
(1739018327.855) RX 55A#002F2E005F315B68
(1739018327.855) RX 11A#014000AAC0000003
(1739018327.858) RX 1D4#F70700000746007B
(1739018327.858) RX 1F2#10640000001E000C
(1739018327.858) RX 50B#000006C00060
(1739018327.859) RX 1C2#53
(1739018327.864) RX 1DB#FDE0BF2A00000192
(1739018327.864) RX 1DA#C064180000010322
(1739018327.864) RX 1DC#B40F8FFD0130C9CE
(1739018327.865) RX 55B#C840AA00E54010A2
(1739018327.865) RX 5BC#59032C26B3054074
(1739018327.866) RX 11A#0140005500000115
(1739018327.868) RX 1D4#F7070000474600BC
(1739018327.868) RX 1F2#10640000001E010D
(1739018327.868) RX 284#0000000000001399
(1739018327.869) RX 1C2#54
(1739018327.874) RX 1DB#FDE0BF2A00000298
(1739018327.874) RX 1DA#C064180000010028
(1739018327.874) RX 1DC#B40F8FFD0520C64C
(1739018327.876) RX 11A#01400055400002D8
(1739018327.878) RX 1D4#F707000087460070
(1739018327.878) RX 1F2#10640000001E020E
(1739018327.878) RX 284#000000000000149A
(1739018327.879) RX 1C2#55
(1739018327.884) RX 1DB#FDE0BF2A0000031D
(1739018327.884) RX 1DA#C0641800000101AD
(1739018327.884) RX 1DC#B40F8FFD08C0CB1B
(1739018327.886) RX 11A#014000AA800003CE
(1739018327.888) RX 1D4#F7070000C74600B7
(1739018327.888) RX 1F2#10640000001E030F
(1739018327.889) RX 1C2#56
(1739018327.890) RX 380#020410210000009E
(1739018327.890) RX 5BF#000000002800002B
(1739018327.894) RX 1DB#FDE0BF2A00000017
(1739018327.894) RX 1DA#C0641800000102A7
(1739018327.894) RX 1DC#B40F8FFD0CCCD8E4
(1739018327.895) RX 11A#014000AAC0000003
(1739018327.898) RX 1D4#F70700000746007B
(1739018327.899) RX 1F2#10640000001E000C
(1739018327.899) RX 284#000000000000159B
(1739018327.899) RX 1C2#57
(1739018327.904) RX 1DB#FDE0BF2A00000192
(1739018327.904) RX 1DA#C064180000010322
(1739018327.904) RX 1DC#B40F8FFD0130C9CE
(1739018327.906) RX 11A#0140005500000115
(1739018327.909) RX 1D4#F7070000474600BC
(1739018327.909) RX 1F2#10640000001E010D
(1739018327.909) RX 1C2#58
(1739018327.914) RX 1DB#FDE0BF2A00000298
(1739018327.914) RX 1DA#C064180000010028
(1739018327.914) RX 1DC#B40F8FFD0520C64C
(1739018327.916) RX 11A#01400055400002D8
(1739018327.919) RX 1D4#F707000087460070
(1739018327.919) RX 1F2#10640000001E020E
(1739018327.919) RX 1C2#59
(1739018327.920) RX 284#000000000000169C
(1739018327.920) RX 50C#000000015D5F
(1739018327.924) RX 1DB#FDE0BF2A0000031D
(1739018327.924) RX 1DA#C0641800000101AD
(1739018327.925) RX 1DC#B40F8FFD08C0CB1B
(1739018327.926) RX 11A#014000AA800003CE
(1739018327.927) RX 54A#100070062600002C
(1739018327.928) RX 54B#007898120C000000
(1739018327.929) RX 54C#6F66400000405800
(1739018327.929) RX 1D4#F7070000C74600B7
(1739018327.929) RX 1C2#5A
(1739018327.930) RX 1F2#10640000001E030F
(1739018327.930) RX 54F#24010000070D8A5A
(1739018327.930) RX 5A9#643BB01304300000
(1739018327.934) RX 1DB#FDE0BF2A00000017
(1739018327.934) RX 1DA#C0641800000102A7
(1739018327.934) RX 1DC#B40F8FFD0CCCD8E4
(1739018327.935) RX 11A#014000AAC0000003
(1739018327.939) RX 1C2#5B
(1739018327.940) RX 1D4#F70700000746007B
(1739018327.940) RX 1F2#10640000001E000C
(1739018327.940) RX 284#000000000000179D
(1739018327.940) RX 50A#8532A00C8020
(1739018327.944) RX 1DB#FDE0BF2A00000192
(1739018327.944) RX 1DA#C064180000010322
(1739018327.944) RX 1DC#B40F8FFD0130C9CE
(1739018327.946) RX 11A#0140005500000115
(1739018327.949) RX 1C2#5C
(1739018327.950) RX 1D4#F7070000474600BC
(1739018327.950) RX 1F2#10640000001E010D
(1739018327.954) RX 1DB#FDE0BF2A00000298
(1739018327.954) RX 1DA#C064180000010028
(1739018327.954) RX 1DC#B40F8FFD0520C64C
(1739018327.955) RX 55A#002F2E005F315B68
(1739018327.956) RX 11A#01400055400002D8
(1739018327.959) RX 1C2#5D
(1739018327.960) RX 1D4#F707000087460070
(1739018327.960) RX 1F2#10640000001E020E
(1739018327.960) RX 284#000000000000189E
(1739018327.961) RX 50B#000006C00060
(1739018327.964) RX 1DA#C0641800000101AD
(1739018327.964) RX 1DB#FDE0BF2A0000031D
(1739018327.965) RX 1DC#B40F8FFD08C0CB1B
(1739018327.965) RX 55B#C8405500E5401160
(1739018327.965) RX 5BC#59032C26B3054074
(1739018327.966) RX 11A#014000AA800003CE
(1739018327.969) RX 1C2#5E
(1739018327.970) RX 1D4#F7070000C74600B7
(1739018327.970) RX 1F2#10640000001E030F
(1739018327.974) RX 1DA#C0641800000102A7
(1739018327.974) RX 1DB#FDE0BF2A00000017
(1739018327.975) RX 1DC#B40F8FFD0CCCD8E4
(1739018327.975) RX 11A#014000AAC0000003
(1739018327.979) RX 1C2#5F
(1739018327.980) RX 1D4#F70700000746007B
(1739018327.981) RX 1F2#10640000001E000C
(1739018327.981) RX 284#000000000000199F
(1739018327.984) RX 1DA#C064180000010322
(1739018327.984) RX 1DB#FDE0BF2A00000192
(1739018327.985) RX 1DC#B40F8FFD0130C9CE
(1739018327.986) RX 11A#0140005500000115
(1739018327.989) RX 1C2#50
(1739018327.990) RX 380#02041021000000AF
(1739018327.991) RX 5BF#000000002800003C
(1739018327.991) RX 1D4#F7070000474600BC
(1739018327.991) RX 1F2#10640000001E010D
(1739018327.994) RX 1DA#C064180000010028
(1739018327.994) RX 1DB#FDE0BF2A00000298
(1739018327.995) RX 1DC#B40F8FFD0520C64C
(1739018327.996) RX 11A#01400055400002D8
(1739018327.999) RX 1C2#51
(1739018328.001) RX 1D4#F707000087460070
(1739018328.001) RX 1F2#10640000001E020E
(1739018328.001) RX 284#0000000000001AA0
(1739018328.002) RX 5B9#67FF67FF28
(1739018328.004) RX 1DA#C0641800000101AD
(1739018328.004) RX 1DB#FDE0BF2A0000031D
(1739018328.005) RX 1DC#B40F8FFD08C0CB1B
(1739018328.006) RX 11A#014000AA800003CE
(1739018328.009) RX 1C2#52
(1739018328.011) RX 1D4#F7070000C74600B7
(1739018328.011) RX 1F2#10640000001E030F
(1739018328.014) RX 1DA#C0641800000102A7
(1739018328.014) RX 1DB#FDE0BF2A00000017
(1739018328.015) RX 1DC#B40F8FFD0CCCD8E4
(1739018328.015) RX 11A#014000AAC0000003
(1739018328.020) RX 1C2#53
(1739018328.021) RX 1D4#F70700000746007B
(1739018328.022) RX 1F2#10640000001E000C
(1739018328.022) RX 284#0000000000001BA1
(1739018328.022) RX 50C#00000002B20D
(1739018328.024) RX 1DA#C064180000010322
(1739018328.024) RX 1DB#FDE0BF2A00000192
(1739018328.025) RX 1DC#B40F8FFD0130C9CE
(1739018328.026) RX 11A#0140005500000115
(1739018328.027) RX 54A#9E0070062600002C
(1739018328.028) RX 54B#007898120C000000
(1739018328.029) RX 54C#6F66400000405800
(1739018328.030) RX 54F#25010000074D8A5A
(1739018328.030) RX 1C2#54
(1739018328.032) RX 1D4#F7070000474600BC
(1739018328.032) RX 1F2#10640000001E010D
(1739018328.034) RX 1DA#C064180000010028
(1739018328.034) RX 1DB#FDE0BF2A00000298
(1739018328.035) RX 1DC#B40F8FFD0520C64C
(1739018328.036) RX 11A#01400055400002D8
(1739018328.040) RX 1C2#55
(1739018328.042) RX 1D4#F707000087460070
(1739018328.042) RX 1F2#10640000001E020E
(1739018328.042) RX 284#0000000000001CA2
(1739018328.043) RX 50A#8552A00C8020
(1739018328.044) RX 1DA#C0641800000101AD
(1739018328.044) RX 1DB#FDC0BF2A0000034C
(1739018328.045) RX 1DC#B40F8FFD08C0CB1B
(1739018328.046) RX 11A#014000AA800003CE
(1739018328.050) RX 1C2#56
(1739018328.052) RX 1D4#F7070000C74600B7
(1739018328.052) RX 1F2#10640000001E030F
(1739018328.054) RX 1DA#C0641800000102A7
(1739018328.054) RX 55A#002F2E005F315B68
(1739018328.054) RX 1DB#FDA0BF2A000000B5
(1739018328.055) RX 1DC#B40F8FFD0CCCD8E4
(1739018328.055) RX 11A#014000AAC0000003
(1739018328.060) RX 1C2#57
(1739018328.062) RX 1D4#F70700000746007B
(1739018328.063) RX 1F2#10640000001E000C
(1739018328.063) RX 284#0000000000001DA3
(1739018328.063) RX 50B#000006C00060
(1739018328.064) RX 1DA#C064180000010322
(1739018328.064) RX 1DB#FD80BF2A00000161
(1739018328.065) RX 1DC#B40F8FFD0130C9CE
(1739018328.065) RX 55B#C840AA00E540122D
(1739018328.066) RX 5BC#59032C26B3054074
(1739018328.066) RX 11A#0140005500000115
(1739018328.070) RX 1C2#58
(1739018328.073) RX 1D4#F7070000474600BC
(1739018328.073) RX 1F2#10640000001E010D
(1739018328.074) RX 1DA#C064180000010028
(1739018328.074) RX 1DB#FD60BF2A00000259
(1739018328.075) RX 1DC#B40F8FFD0520C64C
(1739018328.076) RX 11A#01400055400002D8
(1739018328.080) RX 1C2#59
(1739018328.083) RX 1D4#F707000087460070
(1739018328.083) RX 1F2#10640000001E020E
(1739018328.083) RX 284#0000000000001EA4
(1739018328.084) RX 1DA#C0641800000101AD
(1739018328.085) RX 1DB#FD40BF2A0000038D
(1739018328.085) RX 1DC#B40F8FFD08C0CB1B
(1739018328.086) RX 11A#014000AA800003CE
(1739018328.090) RX 1C2#5A
(1739018328.090) RX 380#02041021000000B0
(1739018328.091) RX 5BF#0000000028000009
(1739018328.093) RX 1D4#F7070000C74600B7
(1739018328.093) RX 1F2#10640000001E030F
(1739018328.094) RX 1DA#C0641800000102A7
(1739018328.094) RX 1DB#FD20BF2A00000074
(1739018328.095) RX 1DC#B40F8FFD0CCCD8E4
(1739018328.095) RX 11A#014000AAC0000003
(1739018328.100) RX 1C2#5B
(1739018328.103) RX 1D4#F70700000746007B
(1739018328.104) RX 1F2#10640000001E000C
(1739018328.104) RX 284#0000000000001FA5
(1739018328.104) RX 1DA#C064180000010322
(1739018328.105) RX 1DB#FD00BEEA00000170
(1739018328.105) RX 1DC#B40F8FFD0130C9CE
(1739018328.106) RX 11A#0140005500000115
(1739018328.110) RX 1C2#5C
(1739018328.114) RX 1D4#F7070000474600BC
(1739018328.114) RX 1F2#10640000001E010D
(1739018328.114) RX 1DA#C064180000010028
(1739018328.114) RX 1DB#FCE0BEEA0000024F
(1739018328.115) RX 1DC#B40F8FFD0520C64C
(1739018328.116) RX 11A#01400055400002D8
(1739018328.120) RX 1C2#5D
(1739018328.124) RX 1D4#F707000087460070
(1739018328.124) RX 1DA#C0641800000101AD
(1739018328.124) RX 1F2#10640000001E020E
(1739018328.125) RX 284#00000000000020A6
(1739018328.125) RX 1DB#FCC0BEEA0000039B
(1739018328.125) RX 50C#000000035DF4
(1739018328.125) RX 1DC#B40F8FFD08C0CB1B
(1739018328.126) RX 11A#014000AA800003CE
(1739018328.127) RX 54A#100070062600002C
(1739018328.128) RX 54B#007898120C000000
(1739018328.129) RX 54C#6F66400000405800
(1739018328.130) RX 54F#25010000078D8A5A
(1739018328.130) RX 1C2#5E
(1739018328.134) RX 1DA#C0641800000102A7
(1739018328.134) RX 1D4#F7070000C74600B7
(1739018328.134) RX 1F2#10640000001E030F
(1739018328.135) RX 1DB#FCC0BEEA00000091
(1739018328.135) RX 1DC#B40F8FFD0CCCD8E4
(1739018328.135) RX 11A#014000AAC0000003
(1739018328.140) RX 1C2#5F
(1739018328.144) RX 1DA#C064180000010322
(1739018328.144) RX 1D4#F70700000746007B
(1739018328.145) RX 1DB#FCC0BEEA00000114
(1739018328.145) RX 1F2#10640000001E000C
(1739018328.145) RX 1DC#B40F8FFD0130C9CE
(1739018328.145) RX 284#00000000000021A7
(1739018328.146) RX 50A#8572A00C8020
(1739018328.146) RX 11A#0140005500000115
(1739018328.150) RX 1C2#50
(1739018328.154) RX 1DA#C064180000010028
(1739018328.154) RX 55A#002F2E005F315B68
(1739018328.155) RX 1D4#F7070000474600BC
(1739018328.155) RX 1DB#FCC0BEEA0000021E
(1739018328.155) RX 1F2#10640000001E010D
(1739018328.155) RX 1DC#B40F8FFD0520C64C
(1739018328.156) RX 11A#01400055400002D8
(1739018328.160) RX 1C2#51
(1739018328.164) RX 1DA#C0641800000101AD
(1739018328.165) RX 1D4#F707000087460070
(1739018328.165) RX 1DB#FCC0BEEA0000039B
(1739018328.165) RX 1F2#10640000001E020E
(1739018328.166) RX 1DC#B40F8FFD08C0CB1B
(1739018328.166) RX 284#00000000000022A8
(1739018328.166) RX 50B#000006C00060
(1739018328.166) RX 11A#014000AA800003CE
(1739018328.166) RX 55B#C8405500E54013EF
(1739018328.167) RX 5BC#59032026B20620A0
(1739018328.170) RX 1C2#52
(1739018328.174) RX 1DA#C0641800000102A7
(1739018328.175) RX 1DB#FCC0BEEA00000091
(1739018328.175) RX 1D4#F7070000C74600B7
(1739018328.175) RX 1DC#B40F8FFD0CCCD8E4
(1739018328.176) RX 11A#014000AAC0000003
(1739018328.176) RX 1F2#10640000001E030F
(1739018328.176) RX 5C0#C04C4C0004541100
(1739018328.176) RX 5EB#E00FFFFFFFFFFFFF
(1739018328.180) RX 1C2#53
(1739018328.184) RX 1DA#C064180000010322
(1739018328.185) RX 1DB#FCC0BEEA00000114
(1739018328.185) RX 1DC#B40F8FFD0130C9CE
(1739018328.185) RX 1D4#F70700000746007B
(1739018328.186) RX 1F2#10640000001E000C
(1739018328.186) RX 284#00000000000023A9
(1739018328.186) RX 11A#0140005500000115
(1739018328.190) RX 1C2#54
(1739018328.191) RX 380#020410210000008D
(1739018328.191) RX 5BF#000000002800001A
(1739018328.194) RX 1DA#C064180000010028
(1739018328.195) RX 1DB#FCC0BEEA0000021E
(1739018328.195) RX 1DC#B40F8FFD0520C64C
(1739018328.196) RX 1D4#F7070000474600BC
(1739018328.196) RX 1F2#10640000001E010D
(1739018328.196) RX 11A#01400055400002D8
(1739018328.200) RX 1C2#55
(1739018328.204) RX 1DA#C0641800000101AD
(1739018328.205) RX 1DB#FCC0BEEA0000039B
(1739018328.205) RX 1DC#B40F8FFD08C0CB1B
(1739018328.206) RX 1D4#F707000087460070
(1739018328.206) RX 1F2#10640000001E020E
(1739018328.206) RX 11A#014000AA800003CE
(1739018328.207) RX 284#00000000000024AA
(1739018328.210) RX 1C2#56
(1739018328.214) RX 1DA#C0641800000102A7
(1739018328.215) RX 1DB#FCE0BEEA000000C0
(1739018328.215) RX 1DC#B40F8FFD0CCCD8E4
(1739018328.215) RX 11A#014000AAC0000003
(1739018328.216) RX 1D4#F7070000C74600B7
(1739018328.216) RX 1F2#10640000001E030F
(1739018328.220) RX 1C2#57
(1739018328.224) RX 1DA#C064180000010322
(1739018328.225) RX 1DB#FD00BEEA00000170
(1739018328.225) RX 1DC#B40F8FFD0130C9CE
(1739018328.226) RX 11A#0140005500000115
(1739018328.226) RX 1D4#F70700000746007B
(1739018328.227) RX 1F2#10640000001E000C
(1739018328.227) RX 284#00000000000025AB
(1739018328.227) RX 50C#00000000B2A6
(1739018328.227) RX 54A#9E0070062600002C
(1739018328.228) RX 54B#007898120C000000
(1739018328.229) RX 54C#6F66400000405800
(1739018328.230) RX 54F#2501000007CD8A5A
(1739018328.230) RX 1C2#58
(1739018328.234) RX 1DA#C064180000010028
(1739018328.235) RX 1DB#FD20BEEA0000022B
(1739018328.235) RX 1DC#B40F8FFD0520C64C
(1739018328.236) RX 11A#01400055400002D8
(1739018328.237) RX 1D4#F7070000474600BC
(1739018328.237) RX 1F2#10640000001E010D
(1739018328.240) RX 1C2#59
(1739018328.244) RX 1DA#C0641800000101AD
(1739018328.245) RX 1DB#FD40BEEA0000035D
(1739018328.245) RX 1DC#B40F8FFD08C0CB1B
(1739018328.246) RX 11A#014000AA800003CE
(1739018328.247) RX 1D4#F707000087460070
(1739018328.247) RX 1F2#10640000001E020E
(1739018328.247) RX 284#00000000000026AC
(1739018328.247) RX 50A#8512A00C8020
(1739018328.250) RX 1C2#5A
(1739018328.254) RX 1DA#C0641800000102A7
(1739018328.254) RX 55A#002F2E005F315B68
(1739018328.255) RX 1DB#FD40BEEA00000057
(1739018328.255) RX 1DC#B40F8FFD0CCCD8E4
(1739018328.255) RX 11A#014000AAC0000003
(1739018328.257) RX 1D4#F7070000C74600B7
(1739018328.257) RX 1F2#10640000001E030F
(1739018328.260) RX 1C2#5B
(1739018328.264) RX 1DA#C064180000010322
(1739018328.265) RX 1DB#FD60BEEA00000183
(1739018328.265) RX 1DC#B40F8FFD0130C9CE
(1739018328.266) RX 55B#C840AA00E500103F
(1739018328.266) RX 5BC#59032026B20620A0
(1739018328.266) RX 11A#0140005500000115
(1739018328.267) RX 1D4#F70700000746007B
(1739018328.267) RX 1F2#10640000001E000C
(1739018328.268) RX 284#00000000000027AD
(1739018328.268) RX 50B#000006C00060
(1739018328.270) RX 1C2#5C
(1739018328.274) RX 1DA#C064180000010028
(1739018328.275) RX 1DB#FD80BEEA000002BB
(1739018328.275) RX 1DC#B40F8FFD0520C64C
(1739018328.276) RX 11A#01400055400002D8
(1739018328.278) RX 1D4#F7070000474600BC
(1739018328.278) RX 1F2#10640000001E010D
(1739018328.280) RX 1C2#5D
(1739018328.284) RX 1DA#C0641800000101AD
(1739018328.285) RX 1DB#FDA0BF2A000003BF
(1739018328.285) RX 1DC#B40F8FFD08C0CB1B
(1739018328.286) RX 11A#014000AA800003CE
(1739018328.288) RX 1D4#F707000087460070
(1739018328.288) RX 1F2#10640000001E020E
(1739018328.288) RX 284#00000000000028AE
(1739018328.290) RX 1C2#5E
(1739018328.291) RX 380#020410210000009E
(1739018328.291) RX 5BF#000000002800002B
(1739018328.294) RX 1DA#C0641800000102A7
(1739018328.295) RX 1DB#FDC0BF2A00000046
(1739018328.295) RX 1DC#B40F8FFD0CCCD8E4
(1739018328.296) RX 11A#014000AAC0000003
(1739018328.298) RX 1D4#F7070000C74600B7
(1739018328.298) RX 1F2#10640000001E030F
(1739018328.298) RX 284#00000000000029AF
(1739018328.300) RX 1C2#5F
(1739018328.304) RX 1DA#C064180000010322
(1739018328.305) RX 1DB#FDE0BF2A00000192
(1739018328.305) RX 1DC#B40F8FFD0130C9CE
(1739018328.306) RX 11A#0140005500000115
(1739018328.308) RX 1D4#F70700000746007B
(1739018328.308) RX 1F2#10640000001E000C
(1739018328.310) RX 1C2#50
(1739018328.314) RX 1DA#C064180000010028
(1739018328.315) RX 1DB#FDE0BF2A00000298
(1739018328.315) RX 1DC#B40F8FFD0520C64C
(1739018328.316) RX 11A#01400055400002D8
(1739018328.319) RX 1D4#F7070000474600BC
(1739018328.319) RX 1F2#10640000001E010D
(1739018328.319) RX 284#0000000000002AB0
(1739018328.320) RX 1C2#51
(1739018328.324) RX 1DA#C0641800000101AD
(1739018328.325) RX 1DB#FDE0BF2A0000031D
(1739018328.325) RX 1DC#B40F8FFD08C0CB1B
(1739018328.326) RX 11A#014000AA800003CE
(1739018328.327) RX 54A#100070062600002C
(1739018328.328) RX 54B#007898120C000000
(1739018328.329) RX 1D4#F707000087460070
(1739018328.329) RX 1F2#10640000001E020E
(1739018328.329) RX 50C#000000015D5F
(1739018328.329) RX 54C#6F66400000405800
(1739018328.330) RX 54F#25010000070D8A5A
(1739018328.331) RX 1C2#52
(1739018328.334) RX 1DA#C0641800000102A7
(1739018328.335) RX 1DB#FDE0BF2A00000017
(1739018328.335) RX 11A#014000AAC0000003
(1739018328.336) RX 1DC#B40F8FFD0CCCD8E4
(1739018328.339) RX 1D4#F7070000C74600B7
(1739018328.339) RX 1F2#10640000001E030F
(1739018328.339) RX 284#0000000000002BB1
(1739018328.340) RX 1C2#53
(1739018328.344) RX 1DA#C064180000010322
(1739018328.345) RX 1DB#FDE0BF2A00000192
(1739018328.346) RX 1DC#B40F8FFD0130C9CE
(1739018328.346) RX 11A#0140005500000115
(1739018328.349) RX 1D4#F70700000746007B
(1739018328.349) RX 1F2#10640000001E000C
(1739018328.350) RX 50A#8532A00C8020
(1739018328.350) RX 1C2#54
(1739018328.354) RX 1DA#C064180000010028
(1739018328.354) RX 55A#002F2E005F315B68
(1739018328.355) RX 1DB#FDE0BF2A00000298
(1739018328.356) RX 1DC#B40F8FFD0520C64C
(1739018328.356) RX 11A#01400055400002D8
(1739018328.359) RX 1D4#F7070000474600BC
(1739018328.360) RX 1F2#10640000001E010D
(1739018328.360) RX 284#0000000000002CB2
(1739018328.360) RX 1C2#55
(1739018328.364) RX 1DA#C0641800000101AD
(1739018328.365) RX 1DB#FDE0BF2A0000031D
(1739018328.366) RX 1DC#B40F8FFD08C0CB1B
(1739018328.366) RX 55B#C8405500E50011FD
(1739018328.366) RX 11A#014000AA800003CE
(1739018328.366) RX 5BC#59032026B20620A0
(1739018328.370) RX 1D4#F707000087460070
(1739018328.370) RX 1F2#10640000001E020E
(1739018328.370) RX 50B#000006C00060
(1739018328.370) RX 1C2#56
(1739018328.374) RX 1DA#C0641800000102A7
(1739018328.375) RX 1DB#FDE0BF2A00000017
(1739018328.375) RX 11A#014000AAC0000003
(1739018328.376) RX 1DC#B40F8FFD0CCCD8E4
(1739018328.380) RX 1D4#F7070000C74600B7
(1739018328.380) RX 1F2#10640000001E030F
(1739018328.380) RX 284#0000000000002DB3
(1739018328.381) RX 1C2#57
(1739018328.384) RX 1DA#C064180000010322
(1739018328.385) RX 1DB#FDE0BF2A00000192
(1739018328.386) RX 1DC#B40F8FFD0130C9CE
(1739018328.386) RX 11A#0140005500000115
(1739018328.390) RX 1D4#F70700000746007B
(1739018328.390) RX 1F2#10640000001E000C
(1739018328.391) RX 1C2#58
(1739018328.391) RX 380#02041021000000AF
(1739018328.391) RX 5BF#000000002800003C
(1739018328.394) RX 1DA#C064180000010028
(1739018328.395) RX 1DB#FDE0BF2A00000298
(1739018328.396) RX 1DC#B40F8FFD0520C64C
(1739018328.396) RX 11A#01400055400002D8
(1739018328.400) RX 1D4#F7070000474600BC
(1739018328.401) RX 1C2#59
(1739018328.401) RX 1F2#10640000001E010D
(1739018328.401) RX 284#0000000000002EB4
(1739018328.404) RX 1DA#C0641800000101AD
(1739018328.405) RX 1DB#FDE0BF2A0000031D
(1739018328.406) RX 1DC#B40F8FFD08C0CB1B
(1739018328.406) RX 11A#014000AA800003CE
(1739018328.410) RX 1C2#5A
(1739018328.411) RX 1D4#F707000087460070
(1739018328.411) RX 1F2#10640000001E020E
(1739018328.414) RX 1DA#C0641800000102A7
(1739018328.415) RX 1DB#FDE0BF2A00000017
(1739018328.416) RX 11A#014000AAC0000003
(1739018328.416) RX 1DC#B40F8FFD0CCCD8E4
(1739018328.420) RX 1C2#5B
(1739018328.421) RX 1D4#F7070000C74600B7
(1739018328.421) RX 1F2#10640000001E030F
(1739018328.421) RX 284#0000000000002FB5
(1739018328.424) RX 1DA#C064180000010322
(1739018328.425) RX 1DB#FDE0BF2A00000192
(1739018328.426) RX 1DC#B40F8FFD0130C9CE
(1739018328.426) RX 11A#0140005500000115
(1739018328.427) RX 54A#9E0070062600002C
(1739018328.428) RX 54B#007898120C000000
(1739018328.429) RX 54C#6F66400000405800
(1739018328.430) RX 54F#25010000074D8A5A
(1739018328.431) RX 1C2#5C
(1739018328.431) RX 1D4#F70700000746007B
(1739018328.431) RX 1F2#10640000001E000C
(1739018328.432) RX 50C#00000002B20D
(1739018328.434) RX 1DA#C064180000010028
(1739018328.435) RX 1DB#FDE0BF2A00000298
(1739018328.436) RX 1DC#B40F8FFD0520C64C
(1739018328.436) RX 11A#01400055400002D8
(1739018328.440) RX 1C2#5D
(1739018328.441) RX 1D4#F7070000474600BC
(1739018328.442) RX 1F2#10640000001E010D
(1739018328.442) RX 284#00000000000030B6
(1739018328.442) RX 5A9#643BB01304300000
(1739018328.444) RX 1DA#C0641800000101AD
(1739018328.445) RX 1DB#FDE0BF2A0000031D
(1739018328.446) RX 1DC#B40F8FFD08C0CB1B
(1739018328.446) RX 11A#014000AA800003CE
(1739018328.451) RX 1C2#5E
(1739018328.452) RX 1D4#F707000087460070
(1739018328.452) RX 1F2#10640000001E020E
(1739018328.452) RX 50A#8552A00C8020
(1739018328.454) RX 1DA#C0641800000102A7
(1739018328.454) RX 55A#002F2E005F315B68
(1739018328.455) RX 11A#014000AAC0000003
(1739018328.456) RX 1DB#FDE0BF2A00000017
(1739018328.456) RX 1DC#B40F8FFD0CCCD8E4
(1739018328.461) RX 1C2#5F
(1739018328.462) RX 1D4#F7070000C74600B7
(1739018328.462) RX 1F2#10640000001E030F
(1739018328.462) RX 284#00000000000031B7
(1739018328.464) RX 1DA#C064180000010322
(1739018328.466) RX 1DB#FDE0BF2A00000192
(1739018328.466) RX 1DC#B40F8FFD0130C9CE
(1739018328.466) RX 11A#0140005500000115
(1739018328.466) RX 55B#C840AA00E50012B0
(1739018328.467) RX 5BC#59032026B20620A0
(1739018328.471) RX 1C2#50
(1739018328.472) RX 1D4#F70700000746007B
(1739018328.472) RX 1F2#10640000001E000C
(1739018328.473) RX 50B#000006C00060
(1739018328.474) RX 1DA#C064180000010028
(1739018328.475) RX 1DB#FDE0BF2A00000298
(1739018328.476) RX 1DC#B40F8FFD0520C64C
(1739018328.476) RX 11A#01400055400002D8
(1739018328.481) RX 1C2#51
(1739018328.482) RX 1D4#F7070000474600BC
(1739018328.483) RX 1F2#10640000001E010D
(1739018328.483) RX 284#00000000000032B8
(1739018328.484) RX 1DA#C0641800000101AD
(1739018328.486) RX 1DB#FDE0BF2A0000031D
(1739018328.486) RX 1DC#B40F8FFD08C0CB1B
(1739018328.486) RX 11A#014000AA800003CE
(1739018328.491) RX 1C2#52
(1739018328.491) RX 380#02041021000000B0
(1739018328.491) RX 5BF#0000000028000009
(1739018328.493) RX 1D4#F707000087460070
(1739018328.493) RX 1F2#10640000001E020E
(1739018328.494) RX 1DA#C0641800000102A7
(1739018328.495) RX 11A#014000AAC0000003
(1739018328.496) RX 1DB#FDE0BF2A00000017
(1739018328.496) RX 1DC#B40F8FFD0CCCD8E4
(1739018328.501) RX 1C2#53
(1739018328.503) RX 1D4#F7070000C74600B7
(1739018328.503) RX 1F2#10640000001E030F
(1739018328.503) RX 284#00000000000033B9
(1739018328.504) RX 1DA#C064180000010322
(1739018328.506) RX 1DB#FDE0BF2A00000192
(1739018328.506) RX 1DC#B40F8FFD0130C9CE
(1739018328.506) RX 11A#0140005500000115
(1739018328.511) RX 1C2#54
(1739018328.513) RX 1D4#F70700000746007B
(1739018328.513) RX 1F2#10640000001E000C
(1739018328.514) RX 5B9#67FF67FF28
(1739018328.514) RX 1DA#C064180000010028
(1739018328.516) RX 1DB#FDE0BF2A00000298
(1739018328.516) RX 11A#01400055400002D8
(1739018328.516) RX 1DC#B40F8FFD0520C64C
(1739018328.521) RX 1C2#55
(1739018328.523) RX 1D4#F7070000474600BC
(1739018328.524) RX 1F2#10640000001E010D
(1739018328.524) RX 284#00000000000034BA
(1739018328.524) RX 1DA#C0641800000101AD
(1739018328.526) RX 1DB#FDE0BF2A0000031D
(1739018328.526) RX 1DC#B40F8FFD08C0CB1B
(1739018328.526) RX 11A#014000AA800003CE
(1739018328.527) RX 54A#100070062600002C
(1739018328.528) RX 54B#007898120C000000
(1739018328.529) RX 54C#6F66400000405800
(1739018328.511) RX 1C2#54
(1739018328.513) RX 1D4#F70700000746007B
(1739018328.513) RX 1F2#10640000001E000C
(1739018328.514) RX 5B9#67FF67FF28
(1739018328.514) RX 1DA#C064180000010028
(1739018328.516) RX 1DB#FDE0BF2A00000298
(1739018328.516) RX 11A#01400055400002D8
(1739018328.516) RX 1DC#B40F8FFD0520C64C
(1739018328.541) RX 1C2#57
(1739018328.544) RX 1D4#F7070000C74600B7
(1739018328.544) RX 1DA#C064180000010322
(1739018328.544) RX 1F2#10640000001E030F
(1739018328.545) RX 284#00000000000035BB
(1739018328.546) RX 1DB#FDE0BF2A00000192
(1739018328.546) RX 1DC#B40F8FFD0130C9CE
(1739018328.546) RX 11A#0140005500000115
(1739018328.551) RX 1C2#58
(1739018328.554) RX 1DA#C064180000010028
(1739018328.554) RX 1D4#F70700000746007B
(1739018328.554) RX 1F2#10640000001E000C
(1739018328.555) RX 50A#8572A00C8020
(1739018328.555) RX 55A#00302E005F315B68
(1739018328.556) RX 1DB#FDE0BF2A00000298
(1739018328.556) RX 11A#01400055400002D8
(1739018328.556) RX 1DC#B40F8FFD0520C64C
(1739018328.561) RX 1C2#59
(1739018328.564) RX 1DA#C0641800000101AD
(1739018328.564) RX 1D4#F7070000474600BC
(1739018328.565) RX 1F2#10640000001E010D
(1739018328.565) RX 284#00000000000036BC
(1739018328.566) RX 1DB#FDE0BF2A0000031D
(1739018328.566) RX 11A#014000AA800003CE
(1739018328.567) RX 1DC#B40F8FFD08C0CB1B
(1739018328.567) RX 55B#C8405500E5001372
(1739018328.567) RX 5BC#59032026B20620A0
(1739018328.571) RX 1C2#5A
(1739018328.574) RX 1DA#C0641800000102A7
(1739018328.575) RX 1D4#F707000087460070
(1739018328.575) RX 1F2#10640000001E020E
(1739018328.575) RX 50B#000006C00060
(1739018328.575) RX 11A#014000AAC0000003
(1739018328.576) RX 1DB#FDE0BF2A00000017
(1739018328.576) RX 1DC#B40F8FFD0CCCD8E4
(1739018328.581) RX 1C2#5B
(1739018328.584) RX 1DA#C064180000010322
(1739018328.585) RX 1D4#F7070000C74600B7
(1739018328.585) RX 1F2#10640000001E030F
(1739018328.585) RX 284#00000000000037BD
(1739018328.586) RX 1DB#FDE0BF2A00000192
(1739018328.586) RX 11A#0140005500000115
(1739018328.586) RX 1DC#B40F8FFD0130C9CE
(1739018328.591) RX 380#020410210000008D
(1739018328.591) RX 1C2#5C
(1739018328.591) RX 5BF#000000002800001A
(1739018328.594) RX 1DA#C064180000010028
(1739018328.595) RX 1D4#F70700000746007B
(1739018328.595) RX 1F2#10640000001E000C
(1739018328.596) RX 1DB#FDE0BF2A00000298
(1739018328.596) RX 11A#01400055400002D8
(1739018328.596) RX 1DC#B40F8FFD0520C64C
(1739018328.601) RX 1C2#5D
(1739018328.604) RX 1DA#C0641800000101AD
(1739018328.605) RX 1D4#F7070000474600BC
(1739018328.606) RX 1F2#10640000001E010D
(1739018328.606) RX 284#00000000000038BE
(1739018328.606) RX 1DB#FDE0BF2A0000031D
(1739018328.606) RX 11A#014000AA800003CE
(1739018328.606) RX 1DC#B40F8FFD08C0CB1B
(1739018328.611) RX 1C2#5E
(1739018328.614) RX 1DA#C0641800000102A7
(1739018328.615) RX 11A#014000AAC0000003
(1739018328.616) RX 1D4#F707000087460070
(1739018328.616) RX 1F2#10640000001E020E
(1739018328.616) RX 1DB#FDE0BF2A00000017
(1739018328.616) RX 1DC#B40F8FFD0CCCD8E4
(1739018328.621) RX 1C2#5F
(1739018328.624) RX 1DA#C064180000010322
(1739018328.626) RX 1D4#F7070000C74600B7
(1739018328.626) RX 1DB#FDE0BF2A00000192
(1739018328.626) RX 11A#0140005500000115
(1739018328.627) RX 1DC#B40F8FFD0130C9CE
(1739018328.627) RX 1F2#10640000001E030F
(1739018328.627) RX 284#00000000000039BF
(1739018328.627) RX 54A#9E0070062600002C
(1739018328.628) RX 54B#007898120C000000
(1739018328.629) RX 54C#6F66400000405800
(1739018328.630) RX 54F#2501000007CD8A5A
(1739018328.631) RX 1C2#50
(1739018328.634) RX 1DA#C064180000010028
(1739018328.636) RX 11A#01400055400002D8
(1739018328.636) RX 1DB#FDE0BF2A00000298
(1739018328.636) RX 1D4#F70700000746007B
(1739018328.637) RX 1DC#B40F8FFD0520C64C
(1739018328.637) RX 1F2#10640000001E000C
(1739018328.637) RX 50C#00000000B2A6
(1739018328.641) RX 1C2#51
(1739018328.644) RX 1DA#C0641800000101AD
(1739018328.646) RX 1DB#FDE0BF2A0000031D
(1739018328.646) RX 11A#014000AA800003CE
(1739018328.646) RX 1D4#F7070000474600BC
(1739018328.647) RX 1DC#B40F8FFD08C0CB1B
(1739018328.647) RX 1F2#10640000001E010D
(1739018328.647) RX 284#0000000000003AC0
(1739018328.651) RX 1C2#52
(1739018328.654) RX 1DA#C0641800000102A7
(1739018328.654) RX 55A#002F2E005F315B68
(1739018328.655) RX 11A#014000AAC0000003
(1739018328.656) RX 1DB#FDE0BF2A00000017
(1739018328.656) RX 1DC#B40F8FFD0CCCD8E4
(1739018328.657) RX 1D4#F707000087460070
(1739018328.657) RX 1F2#10640000001E020E
(1739018328.657) RX 50A#8512A00C8020
(1739018328.661) RX 1C2#53
(1739018328.664) RX 1DA#C064180000010322
(1739018328.666) RX 11A#0140005500000115
(1739018328.666) RX 1DB#FDE0BF2A00000192
(1739018328.667) RX 1DC#B40F8FFD0130C9CE
(1739018328.667) RX 1D4#F7070000C74600B7
(1739018328.667) RX 1F2#10640000001E030F
(1739018328.667) RX 284#0000000000003BC1
(1739018328.668) RX 55B#C840AA00E500103F
(1739018328.668) RX 5BC#59032C26B3064080
(1739018328.671) RX 1C2#54
(1739018328.674) RX 1DA#C064180000010028
(1739018328.676) RX 11A#01400055400002D8
(1739018328.676) RX 1DB#FDE0BF2A00000298
(1739018328.676) RX 1DC#B40F8FFD0520C64C
(1739018328.677) RX 1D4#F70700000746007B
(1739018328.677) RX 1F2#10640000001E000C
(1739018328.677) RX 50B#000006C00060
(1739018328.678) RX 5C0#804C4C0004A01100
(1739018328.678) RX 5EB#E00FFFFFFFFFFFFF
(1739018328.681) RX 1C2#55
(1739018328.684) RX 1DA#C0641800000101AD
(1739018328.686) RX 11A#014000AA800003CE
(1739018328.686) RX 1DB#FDE0BF2A0000031D
(1739018328.687) RX 1DC#B40F8FFD08C0CB1B
(1739018328.687) RX 1D4#F7070000474600BC
(1739018328.687) RX 1F2#10640000001E010D
(1739018328.688) RX 284#0000000000003CC2
(1739018328.691) RX 380#020410210000009E
(1739018328.691) RX 1C2#56
(1739018328.691) RX 5BF#000000002800002B
(1739018328.694) RX 1DA#C0641800000102A7
(1739018328.695) RX 11A#014000AAC0000003
(1739018328.696) RX 1DB#FDE0BF2A00000017
(1739018328.697) RX 1DC#B40F8FFD0CCCD8E4
(1739018328.698) RX 1D4#F707000087460070
(1739018328.698) RX 1F2#10640000001E020E
(1739018328.701) RX 1C2#57
(1739018328.704) RX 1DA#C064180000010322
(1739018328.706) RX 11A#0140005500000115
(1739018328.706) RX 1DB#FDE0BF2A00000192
(1739018328.707) RX 1DC#B40F8FFD0130C9CE
(1739018328.708) RX 1D4#F7070000C74600B7
(1739018328.708) RX 1F2#10640000001E030F
(1739018328.708) RX 284#0000000000003DC3
(1739018328.711) RX 1C2#58
(1739018328.714) RX 1DA#C064180000010028
(1739018328.716) RX 11A#01400055400002D8
(1739018328.716) RX 1DB#FDE0BF2A00000298
(1739018328.716) RX 1DC#B40F8FFD0520C64C
(1739018328.718) RX 1D4#F70700000746007B
(1739018328.718) RX 1F2#10640000001E000C
(1739018328.718) RX 284#0000000000003EC4
(1739018328.721) RX 1C2#59
(1739018328.724) RX 1DA#C0641800000101AD
(1739018328.726) RX 11A#014000AA800003CE
(1739018328.726) RX 1DB#FDE0BF2A0000031D
(1739018328.727) RX 1DC#B40F8FFD08C0CB1B
(1739018328.727) RX 54A#100070062600002C
(1739018328.728) RX 54B#007898120C000000
(1739018328.728) RX 1D4#F7070000474600BC
(1739018328.729) RX 1F2#10640000001E010D
(1739018328.729) RX 54C#6F66400000405800
(1739018328.730) RX 54F#25010000070D8A5A
(1739018328.731) RX 1C2#5A
(1739018328.734) RX 1DA#C0641800000102A7
(1739018328.735) RX 11A#014000AAC0000003
(1739018328.736) RX 1DB#FDE0BF2A00000017
(1739018328.737) RX 1DC#B40F8FFD0CCCD8E4
(1739018328.739) RX 1D4#F707000087460070
(1739018328.739) RX 1F2#10640000001E020E
(1739018328.739) RX 284#0000000000003FC5
(1739018328.739) RX 50C#000000015D5F
(1739018328.741) RX 1C2#5B
(1739018328.744) RX 1DA#C064180000010322
(1739018328.746) RX 11A#0140005500000115
(1739018328.746) RX 1DB#FDE0BF2A00000192
(1739018328.747) RX 1DC#B40F8FFD0130C9CE
(1739018328.749) RX 1D4#F7070000C74600B7
(1739018328.749) RX 1F2#10640000001E030F
(1739018328.751) RX 1C2#5C
(1739018328.754) RX 1DA#C064180000010028
(1739018328.754) RX 55A#002F2E005F315B68
(1739018328.756) RX 11A#01400055400002D8
(1739018328.756) RX 1DB#FDE0BF2A00000298
(1739018328.757) RX 1DC#B40F8FFD0520C64C
(1739018328.759) RX 1D4#F70700000746007B
(1739018328.759) RX 1F2#10640000001E000C
(1739018328.759) RX 284#00000000000040C6
(1739018328.760) RX 50A#8532A00C8020
(1739018328.761) RX 1C2#5D
(1739018328.764) RX 1DA#C0641800000101AD
(1739018328.766) RX 11A#014000AA800003CE
(1739018328.766) RX 1DB#FDE0BF2A0000031D
(1739018328.767) RX 1DC#B40F8FFD08C0CB1B
(1739018328.767) RX 55B#C8405500E50011FD
(1739018328.767) RX 5BC#59032C26B3064080
(1739018328.769) RX 1D4#F7070000474600BC
(1739018328.769) RX 1F2#10640000001E010D
(1739018328.771) RX 1C2#5E
(1739018328.774) RX 1DA#C0641800000102A7
(1739018328.775) RX 11A#014000AAC0000003
(1739018328.776) RX 1DB#FDE0BF2A00000017
(1739018328.777) RX 1DC#B40F8FFD0CCCD8E4
(1739018328.779) RX 1D4#F707000087460070
(1739018328.780) RX 1F2#10640000001E020E
(1739018328.780) RX 284#00000000000041C7
(1739018328.780) RX 50B#000006C00060
(1739018328.781) RX 1C2#5F
(1739018328.784) RX 1DA#C064180000010322
(1739018328.786) RX 11A#0140005500000115
(1739018328.786) RX 1DB#FDE0BF2A00000192
(1739018328.787) RX 1DC#B40F8FFD0130C9CE
(1739018328.790) RX 1D4#F7070000C74600B7
(1739018328.790) RX 1F2#10640000001E030F
(1739018328.791) RX 380#02041021000000AF
(1739018328.791) RX 5BF#000000002800003C
(1739018328.792) RX 1C2#50
(1739018328.794) RX 1DA#C064180000010028
(1739018328.796) RX 11A#01400055400002D8
(1739018328.796) RX 1DB#FDE0BF2A00000298
(1739018328.797) RX 1DC#B40F8FFD0520C64C
(1739018328.800) RX 1D4#F70700000746007B
(1739018328.800) RX 1F2#10640000001E000C
(1739018328.800) RX 284#00000000000042C8
(1739018328.801) RX 1C2#51
(1739018328.804) RX 1DA#C0641800000101AD
(1739018328.806) RX 11A#014000AA800003CE
(1739018328.806) RX 1DB#FDE0BF2A0000031D
(1739018328.807) RX 1DC#B40F8FFD08C0CB1B
(1739018328.810) RX 1D4#F7070000474600BC
(1739018328.810) RX 1F2#10640000001E010D
(1739018328.811) RX 1C2#52
(1739018328.814) RX 1DA#C0641800000102A7
(1739018328.815) RX 11A#014000AAC0000003
(1739018328.816) RX 1DB#FDE0BF2A00000017
(1739018328.817) RX 1DC#B40F8FFD0CCCD8E4
(1739018328.820) RX 1D4#F707000087460070
(1739018328.821) RX 1F2#10640000001E020E
(1739018328.821) RX 284#00000000000043C9
(1739018328.822) RX 1C2#53
(1739018328.824) RX 1DA#C064180000010322
(1739018328.826) RX 11A#0140005500000115
(1739018328.826) RX 1DB#FDE0BF2A00000192
(1739018328.827) RX 1DC#B40F8FFD0130C9CE
(1739018328.827) RX 54A#9E0070062600002C
(1739018328.828) RX 54B#007898120C000000
(1739018328.829) RX 54C#6F66400000405800
(1739018328.830) RX 54F#25010000074D8A5A
(1739018328.831) RX 1D4#F7070000C74600B7
(1739018328.831) RX 1F2#10640000001E030F
(1739018328.832) RX 1C2#54
(1739018328.834) RX 1DA#C064180000010028
(1739018328.836) RX 11A#01400055400002D8
(1739018328.837) RX 1DB#FDE0BF2A00000298
(1739018328.837) RX 1DC#B40F8FFD0520C64C
(1739018328.841) RX 1D4#F70700000746007B
(1739018328.841) RX 1F2#10640000001E000C
(1739018328.841) RX 284#00000000000044CA
(1739018328.842) RX 1C2#55
(1739018328.842) RX 50C#00000002B20D
(1739018328.844) RX 1DA#C0641800000101AD
(1739018328.846) RX 11A#014000AA800003CE
(1739018328.847) RX 1DB#FDE0BF2A0000031D
(1739018328.847) RX 1DC#B40F8FFD08C0CB1B
(1739018328.851) RX 1D4#F7070000474600BC
(1739018328.851) RX 1F2#10640000001E010D
(1739018328.852) RX 1C2#56
(1739018328.854) RX 1DA#C0641800000102A7
(1739018328.854) RX 55A#002F2E005F315B68
(1739018328.855) RX 11A#014000AAC0000003
(1739018328.856) RX 1DB#FDC0BF2A00000046
(1739018328.857) RX 1DC#B40F8FFD0CCCD8E4
(1739018328.861) RX 1D4#F707000087460070
(1739018328.862) RX 1C2#57
(1739018328.862) RX 1F2#10640000001E020E
(1739018328.862) RX 284#00000000000045CB
(1739018328.862) RX 50A#8552A00C8020
(1739018328.864) RX 1DA#C064180000010322
(1739018328.866) RX 11A#0140005500000115
(1739018328.867) RX 1DB#FDA0BF2A00000130
(1739018328.867) RX 1DC#B40F8FFD0130C9CE
(1739018328.867) RX 55B#C840AA00E50012B0
(1739018328.868) RX 5BC#59032C26B3064080
(1739018328.871) RX 1C2#58
(1739018328.872) RX 1D4#F7070000C74600B7
(1739018328.872) RX 1F2#10640000001E030F
(1739018328.874) RX 1DA#C064180000010028
(1739018328.876) RX 11A#01400055400002D8
(1739018328.877) RX 1DB#FDA0BF2A0000023A
(1739018328.877) RX 1DC#B40F8FFD0520C64C
(1739018328.881) RX 1C2#59
(1739018328.882) RX 1D4#F70700000746007B
(1739018328.882) RX 1F2#10640000001E000C
(1739018328.882) RX 284#00000000000046CC
(1739018328.883) RX 50B#000006C00060
(1739018328.884) RX 1DA#C0641800000101AD
(1739018328.886) RX 11A#014000AA800003CE
(1739018328.887) RX 1DB#FD80BF2A000003EE
(1739018328.887) RX 1DC#B40F8FFD08C0CB1B
(1739018328.891) RX 380#02041021000000B0
(1739018328.891) RX 5BF#0000000028000009
(1739018328.892) RX 1D4#F7070000474600BC
(1739018328.892) RX 1C2#5A
(1739018328.892) RX 1F2#10640000001E010D
(1739018328.894) RX 1DA#C0641800000102A7
(1739018328.895) RX 11A#014000AAC0000003
(1739018328.897) RX 1DB#FD60BF2A000000D6
(1739018328.897) RX 1DC#B40F8FFD0CCCD8E4
(1739018328.902) RX 1C2#5B
(1739018328.902) RX 1D4#F707000087460070
(1739018328.903) RX 1F2#10640000001E020E
(1739018328.903) RX 284#00000000000047CD
(1739018328.904) RX 1DA#C064180000010322
(1739018328.906) RX 11A#0140005500000115
(1739018328.907) RX 1DB#FD40BEEA000001D2
(1739018328.907) RX 1DC#B40F8FFD0130C9CE
(1739018328.912) RX 1C2#5C
(1739018328.913) RX 1D4#F7070000C74600B7
(1739018328.913) RX 1F2#10640000001E030F
(1739018328.914) RX 1DA#C064180000010028
(1739018328.916) RX 11A#01400055400002D8
(1739018328.917) RX 1DB#FD20BEEA0000022B
(1739018328.917) RX 1DC#B40F8FFD0520C64C
(1739018328.922) RX 1C2#5D
(1739018328.923) RX 1D4#F70700000746007B
(1739018328.923) RX 1F2#10640000001E000C
(1739018328.923) RX 284#00000000000048CE
(1739018328.924) RX 1DA#C0641800000101AD
(1739018328.926) RX 11A#014000AA800003CE
(1739018328.927) RX 1DB#FD00BEEA000003FF
(1739018328.927) RX 1DC#B40F8FFD08C0CB1B
(1739018328.927) RX 54A#100070062600002C
(1739018328.928) RX 54B#007898120C000000
(1739018328.929) RX 54C#6F66400000405800
(1739018328.930) RX 54F#25010000078D8A5A
(1739018328.932) RX 1C2#5E
(1739018328.933) RX 1D4#F7070000474600BC
(1739018328.933) RX 1F2#10640000001E010D
(1739018328.934) RX 1DA#C0641800000102A7
(1739018328.935) RX 11A#014000AAC0000003
(1739018328.937) RX 1DB#FCE0BEEA000000C0
(1739018328.937) RX 1DC#B40F8FFD0CCCD8E4
(1739018328.942) RX 1C2#5F
(1739018328.943) RX 1D4#F707000087460070
(1739018328.944) RX 1F2#10640000001E020E
(1739018328.944) RX 284#00000000000049CF
(1739018328.944) RX 1DA#C064180000010322
(1739018328.944) RX 50C#000000035DF4
(1739018328.946) RX 11A#0140005500000115
(1739018328.947) RX 1DB#FCC0BEEA00000114
(1739018328.947) RX 1DC#B40F8FFD0130C9CE
(1739018328.952) RX 1C2#50
(1739018328.954) RX 1D4#F7070000C74600B7
(1739018328.954) RX 1F2#10640000001E030F
(1739018328.954) RX 1DA#C064180000010028
(1739018328.954) RX 55A#002F2E005F315B68
(1739018328.955) RX 5A9#643BB01304300000
(1739018328.956) RX 11A#01400055400002D8
(1739018328.957) RX 1DB#FCC0BEEA0000021E
(1739018328.957) RX 1DC#B40F8FFD0520C64C
(1739018328.962) RX 1C2#51
(1739018328.964) RX 1D4#F70700000746007B
(1739018328.964) RX 1DA#C0641800000101AD
(1739018328.964) RX 1F2#10640000001E000C
(1739018328.965) RX 284#0000000000004AD0
(1739018328.965) RX 50A#8572A00C8020
(1739018328.966) RX 11A#014000AA800003CE
(1739018328.967) RX 1DB#FCC0BEEA0000039B
(1739018328.967) RX 1DC#B40F8FFD08C0CB1B
(1739018328.968) RX 55B#C8405500E4401314
(1739018328.968) RX 5BC#59032C26B3064080
(1739018328.972) RX 1C2#52
(1739018328.974) RX 1DA#C0641800000102A7
(1739018328.974) RX 1D4#F7070000474600BC
(1739018328.974) RX 1F2#10640000001E010D
(1739018328.975) RX 11A#014000AAC0000003
(1739018328.977) RX 1DB#FCC0BEEA00000091
(1739018328.977) RX 1DC#B40F8FFD0CCCD8E4
(1739018328.982) RX 1C2#53
(1739018328.984) RX 1DA#C064180000010322
(1739018328.984) RX 1D4#F707000087460070
(1739018328.985) RX 1F2#10640000001E020E
(1739018328.985) RX 284#0000000000004BD1
(1739018328.985) RX 50B#000006C00060
(1739018328.986) RX 11A#0140005500000115
(1739018328.987) RX 1DB#FCC0BEEA00000114
(1739018328.987) RX 1DC#B40F8FFD0130C9CE
(1739018328.991) RX 380#020410210000008D
(1739018328.992) RX 5BF#000000002800001A
(1739018328.992) RX 1C2#54
(1739018328.994) RX 1DA#C064180000010028
(1739018328.995) RX 1D4#F7070000C74600B7
(1739018328.995) RX 1F2#10640000001E030F
(1739018328.996) RX 11A#01400055400002D8
(1739018328.997) RX 1DB#FCC0BEEA0000021E
(1739018328.997) RX 1DC#B40F8FFD0520C64C
(1739018329.002) RX 1C2#55
(1739018329.004) RX 1DA#C0641800000101AD
(1739018329.005) RX 1D4#F70700000746007B
(1739018329.005) RX 1F2#10640000001E000C
(1739018329.005) RX 284#0000000000004CD2
(1739018329.006) RX 11A#014000AA800003CE
(1739018329.007) RX 1DB#FCC0BEEA0000039B
(1739018329.007) RX 1DC#B40F8FFD08C0CB1B
(1739018329.012) RX 1C2#56
(1739018329.014) RX 1DA#C0641800000102A7
(1739018329.015) RX 1D4#F7070000474600BC
(1739018329.015) RX 1F2#10640000001E010D
(1739018329.015) RX 11A#014000AAC0000003
(1739018329.017) RX 1DB#FCC0BEEA00000091
(1739018329.017) RX 1DC#B40F8FFD0CCCD8E4
(1739018329.022) RX 1C2#57
(1739018329.024) RX 1DA#C064180000010322
(1739018329.025) RX 1D4#F707000087460070
(1739018329.026) RX 1F2#10640000001E020E
(1739018329.026) RX 284#0000000000004DD3
(1739018329.026) RX 5B9#67FF67FF28
(1739018329.026) RX 11A#0140005500000115
(1739018329.027) RX 1DB#FCE0BEEA00000145
(1739018329.027) RX 54A#9E0070062600002C
(1739018329.028) RX 1DC#B40F8FFD0130C9CE
(1739018329.028) RX 54B#007898120C000000
(1739018329.029) RX 54C#6F66400000405800
(1739018329.030) RX 54F#2501000007CD8A5A
(1739018329.032) RX 1C2#58
(1739018329.034) RX 1DA#C064180000010028
(1739018329.036) RX 1D4#F7070000C74600B7
(1739018329.036) RX 11A#01400055400002D8
(1739018329.036) RX 1F2#10640000001E030F
(1739018329.037) RX 1DB#FD00BEEA0000027A
(1739018329.037) RX 1DC#B40F8FFD0520C64C
(1739018329.042) RX 1C2#59
(1739018329.044) RX 1DA#C0641800000101AD
(1739018329.046) RX 1D4#F70700000746007B
(1739018329.046) RX 1F2#10640000001E000C
(1739018329.046) RX 11A#014000AA800003CE
(1739018329.047) RX 284#0000000000004ED4
(1739018329.047) RX 50C#00000000B2A6
(1739018329.047) RX 1DB#FD20BEEA000003AE
(1739018329.047) RX 1DC#B40F8FFD08C0CB1B
(1739018329.052) RX 1C2#5A
(1739018329.054) RX 1DA#C0641800000102A7
(1739018329.054) RX 55A#002F2E005F315B68
(1739018329.055) RX 11A#014000AAC0000003
(1739018329.056) RX 1D4#F7070000474600BC
(1739018329.056) RX 1F2#10640000001E010D
(1739018329.057) RX 1DB#FD40BEEA00000057
(1739018329.057) RX 1DC#B40F8FFD0CCCD8E4
(1739018329.062) RX 1C2#5B
(1739018329.064) RX 1DA#C064180000010322
(1739018329.066) RX 11A#0140005500000115
(1739018329.066) RX 1D4#F707000087460070
(1739018329.067) RX 1F2#10640000001E020E
(1739018329.067) RX 284#0000000000004FD5
(1739018329.067) RX 50A#8512A00C8020
(1739018329.067) RX 1DB#FD40BEEA000001D2
(1739018329.068) RX 1DC#B40F8FFD0130C9CE
(1739018329.068) RX 55B#C840AA00E4401059
(1739018329.068) RX 5BC#59032C26B3064080
(1739018329.072) RX 1C2#5C
(1739018329.074) RX 1DA#C064180000010028
(1739018329.076) RX 11A#01400055400002D8
(1739018329.077) RX 1D4#F7070000C74600B7
(1739018329.077) RX 1F2#10640000001E030F
(1739018329.077) RX 1DB#FD60BEEA00000289
(1739018329.078) RX 1DC#B40F8FFD0520C64C
(1739018329.082) RX 1C2#5D
(1739018329.084) RX 1DA#C0641800000101AD
(1739018329.086) RX 11A#014000AA800003CE
(1739018329.087) RX 1D4#F70700000746007B
(1739018329.087) RX 1F2#10640000001E000C
(1739018329.087) RX 1DB#FD80BEEA0000033E
(1739018329.087) RX 284#00000000000050D6
(1739018329.088) RX 1DC#B40F8FFD08C0CB1B
(1739018329.088) RX 50B#000006C00060
(1739018329.091) RX 380#020410210000009E
(1739018329.092) RX 5BF#000000002800002B
(1739018329.092) RX 1C2#5E
(1739018329.094) RX 1DA#C0641800000102A7
(1739018329.095) RX 11A#014000AAC0000003
(1739018329.097) RX 1D4#F7070000474600BC
(1739018329.097) RX 1DB#FDA0BEEA00000065
(1739018329.097) RX 1F2#10640000001E010D
(1739018329.098) RX 1DC#B40F8FFD0CCCD8E4
(1739018329.102) RX 1C2#5F
(1739018329.104) RX 1DA#C064180000010322
(1739018329.106) RX 11A#0140005500000115
(1739018329.107) RX 1D4#F707000087460070
(1739018329.107) RX 1DB#FDC0BF2A000001C3
(1739018329.108) RX 1F2#10640000001E020E
(1739018329.108) RX 1DC#B40F8FFD0130C9CE
(1739018329.108) RX 284#00000000000051D7
(1739018329.112) RX 1C2#50
(1739018329.114) RX 1DA#C064180000010028
(1739018329.116) RX 11A#01400055400002D8
(1739018329.117) RX 1DB#FDE0BF2A00000298
(1739018329.117) RX 1D4#F7070000C74600B7
(1739018329.118) RX 1DC#B40F8FFD0520C64C
(1739018329.118) RX 1F2#10640000001E030F
(1739018329.122) RX 1C2#51
(1739018329.124) RX 1DA#C0641800000101AD
(1739018329.126) RX 11A#014000AA800003CE
(1739018329.127) RX 1DB#FDE0BF2A0000031D
(1739018329.128) RX 54A#100070062600002C
(1739018329.128) RX 1D4#F70700000746007B
(1739018329.128) RX 1DC#B40F8FFD08C0CB1B
(1739018329.128) RX 1F2#10640000001E000C
(1739018329.129) RX 284#00000000000052D8
(1739018329.129) RX 54B#007898120C000000
(1739018329.129) RX 54C#6F66400000405800
(1739018329.130) RX 54F#25010000070D8A5A
(1739018329.132) RX 1C2#52
(1739018329.134) RX 1DA#C0641800000102A7
(1739018329.135) RX 11A#014000AAC0000003
(1739018329.137) RX 1DB#FDE0BF2A00000017
(1739018329.138) RX 1DC#B40F8FFD0CCCD8E4
(1739018329.138) RX 1D4#F7070000474600BC
(1739018329.138) RX 1F2#10640000001E010D
(1739018329.139) RX 284#00000000000053D9
(1739018329.142) RX 1C2#53
(1739018329.144) RX 1DA#C064180000010322
(1739018329.146) RX 11A#0140005500000115
(1739018329.147) RX 1DB#FDE0BF2A00000192
(1739018329.148) RX 1DC#B40F8FFD0130C9CE
(1739018329.148) RX 1D4#F707000087460070
(1739018329.148) RX 1F2#10640000001E020E
(1739018329.149) RX 50C#000000015D5F
(1739018329.152) RX 1C2#54
(1739018329.154) RX 1DA#C064180000010028
(1739018329.154) RX 55A#00302E005F315B68
(1739018329.156) RX 11A#01400055400002D8
(1739018329.157) RX 1DB#FDE0BF2A00000298
(1739018329.158) RX 1DC#B40F8FFD0520C64C
(1739018329.158) RX 1D4#F7070000C74600B7
(1739018329.159) RX 1F2#10640000001E030F
(1739018329.159) RX 284#00000000000054DA
(1739018329.162) RX 1C2#55
(1739018329.164) RX 1DA#C0641800000101AD
(1739018329.166) RX 11A#014000AA800003CE
(1739018329.168) RX 1DB#FDE0BF2A0000031D
(1739018329.168) RX 1DC#B40F8FFD08C0CB1B
(1739018329.168) RX 55B#C8405500E440119B
(1739018329.168) RX 5BC#59032026B2040080
(1739018329.169) RX 1D4#F70700000746007B
(1739018329.169) RX 1F2#10640000001E000C
(1739018329.169) RX 50A#8532A00C8020
(1739018329.172) RX 1C2#56
(1739018329.174) RX 1DA#C0641800000102A7
(1739018329.175) RX 11A#014000AAC0000003
(1739018329.178) RX 1DB#FDE0BF2A00000017
(1739018329.178) RX 1DC#B40F8FFD0CCCD8E4
(1739018329.178) RX 5C0#404C4C0004E41100
(1739018329.179) RX 5EB#E00FFFFFFFFFFFFF
(1739018329.179) RX 1D4#F7070000474600BC
(1739018329.179) RX 1F2#10640000001E010D
(1739018329.179) RX 284#00000000000055DB
(1739018329.182) RX 1C2#57
(1739018329.184) RX 1DA#C064180000010322
(1739018329.186) RX 11A#0140005500000115
(1739018329.187) RX 1DB#FDE0BF2A00000192
(1739018329.188) RX 1DC#B40F8FFD0130C9CE
(1739018329.189) RX 1D4#F707000087460070
(1739018329.189) RX 1F2#10640000001E020E
(1739018329.190) RX 50B#000006C00060
(1739018329.192) RX 380#02041021000000AF
(1739018329.192) RX 5BF#000000002800003C
(1739018329.192) RX 1C2#58
(1739018329.194) RX 1DA#C064180000010028
(1739018329.196) RX 11A#01400055400002D8
(1739018329.197) RX 1DB#FDE0BF2A00000298
(1739018329.198) RX 1DC#B40F8FFD0520C64C
(1739018329.199) RX 1D4#F7070000C74600B7
(1739018329.200) RX 1F2#10640000001E030F
(1739018329.200) RX 284#00000000000056DC
(1739018329.202) RX 1C2#59
(1739018329.204) RX 1DA#C0641800000101AD
(1739018329.206) RX 11A#014000AA800003CE
(1739018329.208) RX 1DB#FDE0BF2A0000031D
(1739018329.208) RX 1DC#B40F8FFD08C0CB1B
(1739018329.210) RX 1D4#F70700000746007B
(1739018329.210) RX 1F2#10640000001E000C
(1739018329.212) RX 1C2#5A
(1739018329.214) RX 1DA#C0641800000102A7
(1739018329.215) RX 11A#014000AAC0000003
(1739018329.218) RX 1DB#FDE0BF2A00000017
(1739018329.218) RX 1DC#B40F8FFD0CCCD8E4
(1739018329.220) RX 1D4#F7070000474600BC
(1739018329.220) RX 1F2#10640000001E010D
(1739018329.220) RX 284#00000000000057DD
(1739018329.222) RX 1C2#5B
(1739018329.224) RX 1DA#C064180000010322
(1739018329.226) RX 11A#0140005500000115
(1739018329.228) RX 54A#9E0070062600002C
(1739018329.228) RX 1DB#FDE0BF2A00000192
(1739018329.228) RX 1DC#B40F8FFD0130C9CE
(1739018329.229) RX 54B#007898120C000000
(1739018329.230) RX 54C#6F66400000405800
(1739018329.230) RX 1D4#F707000087460070
(1739018329.230) RX 1F2#10640000001E020E
(1739018329.231) RX 54F#25010000074D8A5A
(1739018329.232) RX 1C2#5C
(1739018329.234) RX 1DA#C064180000010028
(1739018329.236) RX 11A#01400055400002D8
(1739018329.238) RX 1DB#FDE0BF2A00000298
(1739018329.238) RX 1DC#B40F8FFD0520C64C
(1739018329.240) RX 1D4#F7070000C74600B7
(1739018329.241) RX 1F2#10640000001E030F
(1739018329.241) RX 284#00000000000058DE
(1739018329.242) RX 1C2#5D
(1739018329.244) RX 1DA#C0641800000101AD
(1739018329.246) RX 11A#014000AA800003CE
(1739018329.248) RX 1DB#FDE0BF2A0000031D
(1739018329.248) RX 1DC#B40F8FFD08C0CB1B
(1739018329.251) RX 1D4#F70700000746007B
(1739018329.251) RX 1F2#10640000001E000C
(1739018329.251) RX 50C#00000002B20D
(1739018329.252) RX 1C2#5E
(1739018329.254) RX 1DA#C0641800000102A7
(1739018329.254) RX 55A#002F2E005F315B68
(1739018329.255) RX 11A#014000AAC0000003
(1739018329.258) RX 1DB#FDE0BF2A00000017
(1739018329.258) RX 1DC#B40F8FFD0CCCD8E4
(1739018329.261) RX 1D4#F7070000474600BC
(1739018329.261) RX 1F2#10640000001E010D
(1739018329.261) RX 284#00000000000059DF
(1739018329.262) RX 1C2#5F
(1739018329.264) RX 1DA#C064180000010322
(1739018329.266) RX 11A#0140005500000115
(1739018329.268) RX 1DB#FDE0BF2A00000192
(1739018329.268) RX 1DC#B40F8FFD0130C9CE
(1739018329.268) RX 55B#C840AA00E400124B
(1739018329.269) RX 5BC#59032026B2040080
(1739018329.271) RX 1D4#F707000087460070
(1739018329.271) RX 1F2#10640000001E020E
(1739018329.272) RX 50A#8552A00C8020
(1739018329.272) RX 1C2#50
(1739018329.274) RX 1DA#C064180000010028
(1739018329.276) RX 11A#01400055400002D8
(1739018329.278) RX 1DB#FDE0BF2A00000298
(1739018329.278) RX 1DC#B40F8FFD0520C64C
(1739018329.281) RX 1D4#F7070000C74600B7
(1739018329.282) RX 1F2#10640000001E030F
(1739018329.282) RX 284#0000000000005AE0
(1739018329.283) RX 1C2#51
(1739018329.284) RX 1DA#C0641800000101AD
(1739018329.286) RX 11A#014000AA800003CE
(1739018329.288) RX 1DB#FDE0BF2A0000031D
(1739018329.288) RX 1DC#B40F8FFD08C0CB1B
(1739018329.292) RX 1D4#F70700000746007B
(1739018329.292) RX 1F2#10640000001E000C
(1739018329.292) RX 380#02041021000000B0
(1739018329.292) RX 50B#000006C00060
(1739018329.293) RX 5BF#0000000028000009
(1739018329.293) RX 1C2#52
(1739018329.294) RX 1DA#C0641800000102A7
(1739018329.295) RX 11A#014000AAC0000003
(1739018329.298) RX 1DB#FDE0BF2A00000017
(1739018329.298) RX 1DC#B40F8FFD0CCCD8E4
(1739018329.302) RX 1D4#F7070000474600BC
(1739018329.302) RX 1F2#10640000001E010D
(1739018329.302) RX 284#0000000000005BE1
(1739018329.303) RX 1C2#53
(1739018329.304) RX 1DA#C064180000010322
(1739018329.306) RX 11A#0140005500000115
(1739018329.308) RX 1DB#FDE0BF2A00000192
(1739018329.308) RX 1DC#B40F8FFD0130C9CE
(1739018329.312) RX 1D4#F707000087460070
(1739018329.312) RX 1F2#10640000001E020E
(1739018329.313) RX 1C2#54
(1739018329.314) RX 1DA#C064180000010028
(1739018329.316) RX 11A#01400055400002D8
(1739018329.318) RX 1DB#FDE0BF2A00000298
(1739018329.318) RX 1DC#B40F8FFD0520C64C
(1739018329.322) RX 1D4#F7070000C74600B7
(1739018329.323) RX 1F2#10640000001E030F
(1739018329.323) RX 1C2#55
(1739018329.323) RX 284#0000000000005CE2
(1739018329.324) RX 1DA#C0641800000101AD
(1739018329.326) RX 11A#014000AA800003CE
(1739018329.328) RX 54A#100070062600002C
(1739018329.328) RX 1DB#FDE0BF2A0000031D
(1739018329.328) RX 1DC#B40F8FFD08C0CB1B
(1739018329.329) RX 54B#007898120C000000
(1739018329.330) RX 54C#6F66400000405800
(1739018329.331) RX 54F#25010000078D8A5A
(1739018329.333) RX 1D4#F70700000746007B
(1739018329.333) RX 1C2#56
(1739018329.333) RX 1F2#10640000001E000C
(1739018329.334) RX 1DA#C0641800000102A7
(1739018329.335) RX 11A#014000AAC0000003
(1739018329.338) RX 1DB#FDE0BF2A00000017
(1739018329.338) RX 1DC#B40F8FFD0CCCD8E4
(1739018329.343) RX 1C2#57
(1739018329.343) RX 1D4#F7070000474600BC
(1739018329.343) RX 1F2#10640000001E010D
(1739018329.343) RX 284#0000000000005DE3
(1739018329.344) RX 1DA#C064180000010322
(1739018329.346) RX 11A#0140005500000115
(1739018329.348) RX 1DB#FDE0BF2A00000192
(1739018329.348) RX 1DC#B40F8FFD0130C9CE
(1739018329.353) RX 1C2#58
(1739018329.353) RX 1D4#F707000087460070
(1739018329.353) RX 1F2#10640000001E020E
(1739018329.354) RX 50C#000000035DF4
(1739018329.354) RX 1DA#C064180000010028
(1739018329.354) RX 55A#002F2E005F315B68
(1739018329.356) RX 11A#01400055400002D8
(1739018329.358) RX 1DB#FDE0BF2A00000298
(1739018329.358) RX 1DC#B40F8FFD0520C64C
(1739018329.363) RX 1C2#59
(1739018329.363) RX 1D4#F7070000C74600B7
(1739018329.364) RX 1F2#10640000001E030F
(1739018329.364) RX 1DA#C0641800000101AD
(1739018329.364) RX 284#0000000000005EE4
(1739018329.366) RX 11A#014000AA800003CE
(1739018329.368) RX 1DB#FDE0BF2A0000031D
(1739018329.368) RX 1DC#B40F8FFD08C0CB1B
(1739018329.369) RX 55B#C8405500E4001389
(1739018329.369) RX 5BC#59032026B2040080
(1739018329.373) RX 1C2#5A
(1739018329.374) RX 1D4#F70700000746007B
(1739018329.374) RX 1DA#C0641800000102A7
(1739018329.374) RX 1F2#10640000001E000C
(1739018329.374) RX 50A#8572A00C8020
(1739018329.375) RX 11A#014000AAC0000003
(1739018329.378) RX 1DB#FDE0BF2A00000017
(1739018329.378) RX 1DC#B40F8FFD0CCCD8E4
(1739018329.383) RX 1C2#5B
(1739018329.384) RX 1DA#C064180000010322
(1739018329.384) RX 1D4#F7070000474600BC
(1739018329.384) RX 1F2#10640000001E010D
(1739018329.384) RX 284#0000000000005FE5
(1739018329.386) RX 11A#0140005500000115
(1739018329.388) RX 1DB#FDE0BF2A00000192
(1739018329.388) RX 1DC#B40F8FFD0130C9CE
(1739018329.392) RX 380#020410210000008D
(1739018329.392) RX 5BF#000000002800001A
(1739018329.393) RX 1C2#5C
(1739018329.394) RX 1DA#C064180000010028
(1739018329.394) RX 1D4#F707000087460070
(1739018329.394) RX 1F2#10640000001E020E
(1739018329.395) RX 50B#000006C00060
(1739018329.396) RX 11A#01400055400002D8
(1739018329.398) RX 1DB#FDE0BF2A00000298
(1739018329.398) RX 1DC#B40F8FFD0520C64C
(1739018329.403) RX 1C2#5D
(1739018329.404) RX 1DA#C0641800000101AD
(1739018329.404) RX 1D4#F7070000C74600B7
(1739018329.405) RX 1F2#10640000001E030F
(1739018329.405) RX 284#00000000000060E6
(1739018329.406) RX 11A#014000AA800003CE
(1739018329.408) RX 1DB#FDE0BF2A0000031D
(1739018329.408) RX 1DC#B40F8FFD08C0CB1B
(1739018329.413) RX 1C2#5E
(1739018329.414) RX 1DA#C0641800000102A7
(1739018329.415) RX 1D4#F70700000746007B
(1739018329.415) RX 1F2#10640000001E000C
(1739018329.415) RX 11A#014000AAC0000003
(1739018329.418) RX 1DB#FDE0BF2A00000017
(1739018329.418) RX 1DC#B40F8FFD0CCCD8E4
(1739018329.423) RX 1C2#5F
(1739018329.424) RX 1DA#C064180000010322
(1739018329.425) RX 1D4#F7070000474600BC
(1739018329.425) RX 1F2#10640000001E010D
(1739018329.425) RX 284#00000000000061E7
(1739018329.426) RX 11A#0140005500000115
(1739018329.428) RX 54A#9E0070062600002C
(1739018329.428) RX 1DB#FDE0BF2A00000192
(1739018329.428) RX 1DC#B40F8FFD0130C9CE
(1739018329.429) RX 54B#007898120C000000
(1739018329.430) RX 54C#6F66400000405800
(1739018329.431) RX 54F#2501000007CD8A5A
(1739018329.433) RX 1C2#50
(1739018329.434) RX 1DA#C064180000010028
(1739018329.435) RX 1D4#F707000087460070
(1739018329.435) RX 1F2#10640000001E020E
(1739018329.436) RX 11A#01400055400002D8
(1739018329.438) RX 1DB#FDE0BF2A00000298
(1739018329.438) RX 1DC#B40F8FFD0520C64C
(1739018329.443) RX 1C2#51
(1739018329.444) RX 1DA#C0641800000101AD
(1739018329.445) RX 1D4#F7070000C74600B7
(1739018329.446) RX 1F2#10640000001E030F
(1739018329.446) RX 284#00000000000062E8
(1739018329.446) RX 11A#014000AA800003CE
(1739018329.448) RX 1DB#FDE0BF2A0000031D
(1739018329.448) RX 1DC#B40F8FFD08C0CB1B
(1739018329.453) RX 1C2#52
(1739018329.454) RX 1DA#C0641800000102A7
(1739018329.454) RX 55A#002F2E005F315B68
(1739018329.455) RX 11A#014000AAC0000003
(1739018329.456) RX 1D4#F70700000746007B
(1739018329.456) RX 1F2#10640000001E000C
(1739018329.456) RX 50C#00000000B2A6
(1739018329.458) RX 1DB#FDE0BF2A00000017
(1739018329.459) RX 1DC#B40F8FFD0CCCD8E4
(1739018329.463) RX 1C2#53
(1739018329.464) RX 1DA#C064180000010322
(1739018329.466) RX 1D4#F7070000474600BC
(1739018329.466) RX 1F2#10640000001E010D
(1739018329.466) RX 11A#0140005500000115
(1739018329.466) RX 284#00000000000063E9
(1739018329.467) RX 5A9#643BB01304300000
(1739018329.468) RX 1DB#FDE0BF2A00000192
(1739018329.469) RX 1DC#B40F8FFD0130C9CE
(1739018329.469) RX 55B#C840AA00E40010C4
(1739018329.469) RX 5BC#59032026B2040080
(1739018329.473) RX 1C2#54
(1739018329.474) RX 1DA#C064180000010028
(1739018329.476) RX 11A#01400055400002D8
(1739018329.476) RX 1D4#F707000087460070
(1739018329.476) RX 1F2#10640000001E020E
(1739018329.476) RX 50A#8512A00C8020
(1739018329.478) RX 1DB#FDE0BF2A00000298
(1739018329.479) RX 1DC#B40F8FFD0520C64C
(1739018329.483) RX 1C2#55
(1739018329.484) RX 1DA#C0641800000101AD
(1739018329.486) RX 11A#014000AA800003CE
(1739018329.486) RX 1D4#F7070000C74600B7
(1739018329.487) RX 1F2#10640000001E030F
(1739018329.487) RX 284#00000000000064EA
(1739018329.488) RX 1DB#FDE0BF2A0000031D
(1739018329.489) RX 1DC#B40F8FFD08C0CB1B
(1739018329.492) RX 380#020410210000009E
(1739018329.492) RX 5BF#000000002800002B
(1739018329.493) RX 1C2#56
(1739018329.494) RX 1DA#C0641800000102A7
(1739018329.495) RX 11A#014000AAC0000003
(1739018329.496) RX 1D4#F70700000746007B
(1739018329.497) RX 1F2#10640000001E000C
(1739018329.497) RX 50B#000006C00060
(1739018329.498) RX 1DB#FDE0BF2A00000017
(1739018329.499) RX 1DC#B40F8FFD0CCCD8E4
(1739018329.503) RX 1C2#57
(1739018329.504) RX 1DA#C064180000010322
(1739018329.506) RX 11A#0140005500000115
(1739018329.507) RX 1D4#F7070000474600BC
(1739018329.507) RX 1F2#10640000001E010D
(1739018329.507) RX 284#00000000000065EB
(1739018329.508) RX 1DB#FDE0BF2A00000192
(1739018329.509) RX 1DC#B40F8FFD0130C9CE
(1739018329.513) RX 1C2#58
(1739018329.514) RX 1DA#C064180000010028
(1739018329.516) RX 11A#01400055400002D8
(1739018329.517) RX 1D4#F707000087460070
(1739018329.517) RX 1F2#10640000001E020E
(1739018329.518) RX 1DB#FDE0BF2A00000298
(1739018329.519) RX 1DC#B40F8FFD0520C64C
(1739018329.523) RX 1C2#59
(1739018329.524) RX 1DA#C0641800000101AD
(1739018329.526) RX 11A#014000AA800003CE
(1739018329.527) RX 1D4#F7070000C74600B7
(1739018329.527) RX 1F2#10640000001E030F
(1739018329.528) RX 284#00000000000066EC
(1739018329.528) RX 54A#100070062600002C
(1739018329.528) RX 1DB#FDE0BF2A0000031D
(1739018329.529) RX 1DC#B40F8FFD08C0CB1B
(1739018329.529) RX 54B#007898120C000000
(1739018329.530) RX 54C#6F66400000405800
(1739018329.531) RX 54F#25010000070D8A5A
(1739018329.533) RX 1C2#5A
(1739018329.534) RX 1DA#C0641800000102A7
(1739018329.535) RX 11A#014000AAC0000003
(1739018329.538) RX 1D4#F70700000746007B
(1739018329.538) RX 1F2#10640000001E000C
(1739018329.538) RX 5B9#67FF67FF28
(1739018329.538) RX 1DB#FDE0BF2A00000017
(1739018329.539) RX 1DC#B40F8FFD0CCCD8E4
(1739018329.543) RX 1C2#5B
(1739018329.544) RX 1DA#C064180000010322
(1739018329.546) RX 11A#0140005500000115
(1739018329.548) RX 1D4#F7070000474600BC
(1739018329.548) RX 1F2#10640000001E010D
(1739018329.548) RX 284#00000000000067ED
(1739018329.549) RX 1DB#FDE0BF2A00000192
(1739018329.549) RX 1DC#B40F8FFD0130C9CE
(1739018329.553) RX 1C2#5C
(1739018329.554) RX 1DA#C064180000010028
(1739018329.554) RX 55A#002F2E005F315B68
(1739018329.556) RX 11A#01400055400002D8
(1739018329.558) RX 1D4#F707000087460070
(1739018329.558) RX 1F2#10640000001E020E
(1739018329.558) RX 1DB#FDE0BF2A00000298
(1739018329.559) RX 284#00000000000068EE
(1739018329.559) RX 1DC#B40F8FFD0520C64C
(1739018329.559) RX 50C#000000015D5F
(1739018329.563) RX 1C2#5D
(1739018329.564) RX 1DA#C0641800000101AD
(1739018329.566) RX 11A#014000AA800003CE
(1739018329.568) RX 1D4#F7070000C74600B7
(1739018329.568) RX 1F2#10640000001E030F
(1739018329.569) RX 1DB#FDE0BF2A0000031D
(1739018329.569) RX 1DC#B40F8FFD08C0CB1B
(1739018329.570) RX 55B#C8405500E4001106
(1739018329.570) RX 5BC#59032026B2040080
(1739018329.573) RX 1C2#5E
(1739018329.574) RX 1DA#C0641800000102A7
(1739018329.575) RX 11A#014000AAC0000003
(1739018329.578) RX 1D4#F70700000746007B
(1739018329.579) RX 1DB#FDE0BF2A00000017
(1739018329.579) RX 1F2#10640000001E000C
(1739018329.579) RX 1DC#B40F8FFD0CCCD8E4
(1739018329.579) RX 284#00000000000069EF
(1739018329.580) RX 50A#8532A00C8020
(1739018329.583) RX 1C2#5F
(1739018329.584) RX 1DA#C064180000010322
(1739018329.586) RX 11A#0140005500000115
(1739018329.589) RX 1DB#FDE0BF2A00000192
(1739018329.589) RX 1D4#F7070000474600BC
(1739018329.589) RX 1DC#B40F8FFD0130C9CE
(1739018329.589) RX 1F2#10640000001E010D
(1739018329.592) RX 380#02041021000000AF
(1739018329.592) RX 5BF#000000002800003C
(1739018329.593) RX 1C2#50
(1739018329.594) RX 1DA#C064180000010028
(1739018329.596) RX 11A#01400055400002D8
(1739018329.599) RX 1DB#FDE0BF2A00000298
(1739018329.599) RX 1DC#B40F8FFD0520C64C
(1739018329.599) RX 1D4#F707000087460070
(1739018329.599) RX 1F2#10640000001E020E
(1739018329.600) RX 284#0000000000006AF0
(1739018329.600) RX 50B#000006C00060
(1739018329.603) RX 1C2#51
(1739018329.604) RX 1DA#C0641800000101AD
(1739018329.606) RX 11A#014000AA800003CE
(1739018329.609) RX 1DB#FDE0BF2A0000031D
(1739018329.609) RX 1DC#B40F8FFD08C0CB1B
(1739018329.609) RX 1D4#F7070000C74600B7
(1739018329.609) RX 1F2#10640000001E030F
(1739018329.613) RX 1C2#52
(1739018329.614) RX 1DA#C0641800000102A7
(1739018329.615) RX 11A#014000AAC0000003
(1739018329.619) RX 1DB#FDE0BF2A00000017
(1739018329.619) RX 1DC#B40F8FFD0CCCD8E4
(1739018329.619) RX 1D4#F70700000746007B
(1739018329.620) RX 1F2#10640000001E000C
(1739018329.620) RX 284#0000000000006BF1
(1739018329.623) RX 1C2#53
(1739018329.624) RX 1DA#C064180000010322
(1739018329.626) RX 11A#0140005500000115
(1739018329.628) RX 54A#9E0070062600002C
(1739018329.629) RX 1DB#FDE0BF2A00000192
(1739018329.629) RX 54B#007898120C000000
(1739018329.629) RX 1DC#B40F8FFD0130C9CE
(1739018329.630) RX 1D4#F7070000474600BC
(1739018329.630) RX 1F2#10640000001E010D
(1739018329.630) RX 54C#6F66400000405800
(1739018329.631) RX 54F#25010000074D8A5A
(1739018329.633) RX 1C2#54
(1739018329.634) RX 1DA#C064180000010028
(1739018329.636) RX 11A#01400055400002D8
(1739018329.639) RX 1DB#FDE0BF2A00000298
(1739018329.639) RX 1DC#B40F8FFD0520C64C
(1739018329.640) RX 1D4#F707000087460070
(1739018329.640) RX 1F2#10640000001E020E
(1739018329.640) RX 284#0000000000006CF2
(1739018329.643) RX 1C2#55
(1739018329.644) RX 1DA#C0641800000101AD
(1739018329.646) RX 11A#014000AA800003CE
(1739018329.649) RX 1DB#FDE0BF2A0000031D
(1739018329.649) RX 1DC#B40F8FFD08C0CB1B
(1739018329.650) RX 1D4#F7070000C74600B7
(1739018329.650) RX 1F2#10640000001E030F
(1739018329.653) RX 1C2#56
(1739018329.654) RX 1DA#C0641800000102A7
(1739018329.654) RX 55A#002F2E005F315B68
(1739018329.655) RX 11A#014000AAC0000003
(1739018329.659) RX 1DB#FDE0BF2A00000017
(1739018329.659) RX 1DC#B40F8FFD0CCCD8E4
(1739018329.660) RX 1D4#F70700000746007B
(1739018329.661) RX 1F2#10640000001E000C
(1739018329.661) RX 284#0000000000006DF3
(1739018329.661) RX 50C#00000002B20D
(1739018329.663) RX 1C2#57
(1739018329.664) RX 1DA#C064180000010322
(1739018329.666) RX 11A#0140005500000115
(1739018329.669) RX 1DB#FDE0BF2A00000192
(1739018329.669) RX 1DC#B40F8FFD0130C9CE
(1739018329.670) RX 55B#C840AA00E400124B
(1739018329.670) RX 5BC#59032C26B3052092
(1739018329.671) RX 1D4#F7070000474600BC
(1739018329.671) RX 1F2#10640000001E010D
(1739018329.673) RX 1C2#58
(1739018329.674) RX 1DA#C064180000010028
(1739018329.676) RX 11A#01400055400002D8
(1739018329.679) RX 1DB#FDC0BF2A000002C9
(1739018329.679) RX 1DC#B40F8FFD0520C64C
(1739018329.680) RX 5C0#C04C4C0004541100
(1739018329.680) RX 5EB#E00FFFFFFFFFFFFF
(1739018329.681) RX 1D4#F707000087460070
(1739018329.681) RX 1F2#10640000001E020E
(1739018329.681) RX 284#0000000000006EF4
(1739018329.682) RX 50A#8552A00C8020
(1739018329.683) RX 1C2#59
(1739018329.684) RX 1DA#C0641800000101AD
(1739018329.686) RX 11A#014000AA800003CE
(1739018329.689) RX 1DB#FDA0BF2A000003BF
(1739018329.689) RX 1DC#B40F8FFD08C0CB1B
(1739018329.691) RX 1D4#F7070000C74600B7
(1739018329.691) RX 1F2#10640000001E030F
(1739018329.692) RX 380#02041021000000B0
(1739018329.692) RX 5BF#0000000028000009
(1739018329.693) RX 1C2#5A
(1739018329.694) RX 1DA#C0641800000102A7
(1739018329.695) RX 11A#014000AAC0000003
(1739018329.699) RX 1DB#FD80BF2A000000E4
(1739018329.699) RX 1DC#B40F8FFD0CCCD8E4
(1739018329.701) RX 1D4#F70700000746007B
(1739018329.702) RX 1F2#10640000001E000C
(1739018329.702) RX 284#0000000000006FF5
(1739018329.702) RX 50B#000006C00060
(1739018329.703) RX 1C2#5B
(1739018329.704) RX 1DA#C064180000010322
(1739018329.706) RX 11A#0140005500000115
(1739018329.709) RX 1DB#FD60BF2A00000153
(1739018329.709) RX 1DC#B40F8FFD0130C9CE
(1739018329.712) RX 1D4#F7070000474600BC
(1739018329.712) RX 1F2#10640000001E010D
(1739018329.713) RX 1C2#5C
(1739018329.714) RX 1DA#C064180000010028
(1739018329.716) RX 11A#01400055400002D8
(1739018329.719) RX 1DB#FD40BF2A00000208
(1739018329.719) RX 1DC#B40F8FFD0520C64C
(1739018329.722) RX 1D4#F707000087460070
(1739018329.722) RX 1F2#10640000001E020E
(1739018329.722) RX 284#00000000000070F6
(1739018329.723) RX 1C2#5D
(1739018329.724) RX 1DA#C0641800000101AD
(1739018329.726) RX 11A#014000AA800003CE
(1739018329.728) RX 54A#100070062600002C
(1739018329.729) RX 1DB#FD40BEEA0000035D
(1739018329.729) RX 54B#007898120C000000
(1739018329.729) RX 1DC#B40F8FFD08C0CB1B
(1739018329.730) RX 54C#6F66400000405800
(1739018329.731) RX 54F#25010000078D8A5A
(1739018329.732) RX 1D4#F7070000C74600B7
(1739018329.732) RX 1F2#10640000001E030F
(1739018329.733) RX 1C2#5E
(1739018329.734) RX 1DA#C0641800000102A7
(1739018329.735) RX 11A#014000AAC0000003
(1739018329.739) RX 1DB#FD20BEEA000000A4
(1739018329.739) RX 1DC#B40F8FFD0CCCD8E4
(1739018329.742) RX 1D4#F70700000746007B
(1739018329.743) RX 1F2#10640000001E000C
(1739018329.743) RX 284#00000000000071F7
(1739018329.744) RX 1C2#5F
(1739018329.744) RX 1DA#C064180000010322
(1739018329.746) RX 11A#0140005500000115
(1739018329.749) RX 1DB#FD00BEEA00000170
(1739018329.749) RX 1DC#B40F8FFD0130C9CE
(1739018329.753) RX 1D4#F7070000474600BC
(1739018329.753) RX 1F2#10640000001E010D
(1739018329.754) RX 1C2#50
(1739018329.754) RX 1DA#C064180000010028
(1739018329.754) RX 55A#002F2E005F315B68
(1739018329.756) RX 11A#01400055400002D8
(1739018329.759) RX 1DB#FCE0BEEA0000024F
(1739018329.759) RX 1DC#B40F8FFD0520C64C
(1739018329.763) RX 1D4#F707000087460070
(1739018329.763) RX 1F2#10640000001E020E
(1739018329.763) RX 284#00000000000072F8
(1739018329.764) RX 50C#000000035DF4
(1739018329.764) RX 1DA#C0641800000101AD
(1739018329.764) RX 1C2#51
(1739018329.766) RX 11A#014000AA800003CE
(1739018329.769) RX 1DB#FCC0BEEA0000039B
(1739018329.770) RX 1DC#B40F8FFD08C0CB1B
(1739018329.770) RX 55B#C8405500E4401314
(1739018329.770) RX 5BC#59032C26B3052092
(1739018329.773) RX 1D4#F7070000C74600B7
(1739018329.773) RX 1F2#10640000001E030F
(1739018329.774) RX 1DA#C0641800000102A7
(1739018329.774) RX 1C2#52
(1739018329.775) RX 11A#014000AAC0000003
(1739018329.779) RX 1DB#FCC0BEEA00000091
(1739018329.779) RX 1DC#B40F8FFD0CCCD8E4
(1739018329.783) RX 1D4#F70700000746007B
(1739018329.784) RX 1F2#10640000001E000C
(1739018329.784) RX 1C2#53
(1739018329.784) RX 1DA#C064180000010322
(1739018329.784) RX 284#00000000000073F9
(1739018329.784) RX 50A#8572A00C8020
(1739018329.786) RX 11A#0140005500000115
(1739018329.789) RX 1DB#FCC0BEEA00000114
(1739018329.789) RX 1DC#B40F8FFD0130C9CE
(1739018329.792) RX 380#020410210000008D
(1739018329.792) RX 5BF#000000002800001A
(1739018329.794) RX 1D4#F7070000474600BC
(1739018329.794) RX 1DA#C064180000010028
(1739018329.794) RX 1C2#54
(1739018329.794) RX 1F2#10640000001E010D
(1739018329.796) RX 11A#01400055400002D8
(1739018329.799) RX 1DB#FCC0BEEA0000021E
(1739018329.799) RX 1DC#B40F8FFD0520C64C
(1739018329.804) RX 1DA#C0641800000101AD
(1739018329.804) RX 1C2#55
(1739018329.804) RX 1D4#F707000087460070
(1739018329.804) RX 1F2#10640000001E020E
(1739018329.805) RX 284#00000000000074FA
(1739018329.805) RX 50B#000006C00060
(1739018329.806) RX 11A#014000AA800003CE
(1739018329.809) RX 1DB#FCC0BEEA0000039B
(1739018329.810) RX 1DC#B40F8FFD08C0CB1B
(1739018329.814) RX 1DA#C0641800000102A7
(1739018329.814) RX 1C2#56
(1739018329.814) RX 1D4#F7070000C74600B7
(1739018329.814) RX 1F2#10640000001E030F
(1739018329.815) RX 11A#014000AAC0000003
(1739018329.819) RX 1DB#FCC0BEEA00000091
(1739018329.819) RX 1DC#B40F8FFD0CCCD8E4
(1739018329.824) RX 1DA#C064180000010322
(1739018329.824) RX 1C2#57
(1739018329.824) RX 1D4#F70700000746007B
(1739018329.825) RX 1F2#10640000001E000C
(1739018329.825) RX 284#00000000000075FB
(1739018329.826) RX 11A#0140005500000115
(1739018329.828) RX 54A#9E0070062600002C
(1739018329.829) RX 54B#007898120C000000
(1739018329.829) RX 1DB#FCC0BEEA00000114
(1739018329.830) RX 1DC#B40F8FFD0130C9CE
(1739018329.830) RX 54C#6F66400000405800
(1739018329.831) RX 54F#2501000007CD8A5A
(1739018329.814) RX 1DA#C0641800000102A7
(1739018329.814) RX 1C2#56
(1739018329.814) RX 1D4#F7070000C74600B7
(1739018329.814) RX 1F2#10640000001E030F
(1739018329.815) RX 11A#014000AAC0000003
(1739018329.819) RX 1DB#FCC0BEEA00000091
(1739018329.819) RX 1DC#B40F8FFD0CCCD8E4
(1739018329.844) RX 1DA#C0641800000101AD
(1739018329.844) RX 1C2#59
(1739018329.845) RX 1D4#F707000087460070
(1739018329.845) RX 1F2#10640000001E020E
(1739018329.845) RX 284#00000000000076FC
(1739018329.846) RX 11A#014000AA800003CE
(1739018329.849) RX 1DB#FCC0BEEA0000039B
(1739018329.850) RX 1DC#B40F8FFD08C0CB1B
(1739018329.854) RX 1DA#C0641800000102A7
(1739018329.854) RX 1C2#5A
(1739018329.854) RX 55A#002F2E005F315B68
(1739018329.855) RX 1D4#F7070000C74600B7
(1739018329.855) RX 1F2#10640000001E030F
(1739018329.855) RX 11A#014000AAC0000003
(1739018329.859) RX 1DB#FCC0BEEA00000091
(1739018329.860) RX 1DC#B40F8FFD0CCCD8E4
(1739018329.864) RX 1DA#C064180000010322
(1739018329.864) RX 1C2#5B
(1739018329.865) RX 1D4#F70700000746007B
(1739018329.866) RX 1F2#10640000001E000C
(1739018329.866) RX 284#00000000000077FD
(1739018329.866) RX 50C#00000000B2A6
(1739018329.866) RX 11A#0140005500000115
(1739018329.870) RX 1DB#FCE0BEEA00000145
(1739018329.870) RX 1DC#B40F8FFD0130C9CE
(1739018329.870) RX 55B#C840AA00E4401059
(1739018329.870) RX 5BC#59032C26B3052092
(1739018329.874) RX 1DA#C064180000010028
(1739018329.874) RX 1C2#5C
(1739018329.876) RX 1D4#F7070000474600BC
(1739018329.876) RX 11A#01400055400002D8
(1739018329.876) RX 1F2#10640000001E010D
(1739018329.879) RX 1DB#FD00BEEA0000027A
(1739018329.880) RX 1DC#B40F8FFD0520C64C
(1739018329.884) RX 1DA#C0641800000101AD
(1739018329.884) RX 1C2#5D
(1739018329.886) RX 1D4#F707000087460070
(1739018329.886) RX 1F2#10640000001E020E
(1739018329.886) RX 11A#014000AA800003CE
(1739018329.886) RX 284#00000000000078FE
(1739018329.887) RX 50A#8512A00C8020
(1739018329.889) RX 1DB#FD20BEEA000003AE
(1739018329.890) RX 1DC#B40F8FFD08C0CB1B
(1739018329.892) RX 380#020410210000009E
(1739018329.892) RX 5BF#000000002800002B
(1739018329.894) RX 1DA#C0641800000102A7
(1739018329.894) RX 1C2#5E
(1739018329.895) RX 11A#014000AAC0000003
(1739018329.896) RX 1D4#F7070000C74600B7
(1739018329.896) RX 1F2#10640000001E030F
(1739018329.899) RX 1DB#FD40BEEA00000057
(1739018329.900) RX 1DC#B40F8FFD0CCCD8E4
(1739018329.904) RX 1DA#C064180000010322
(1739018329.904) RX 1C2#5F
(1739018329.906) RX 11A#0140005500000115
(1739018329.906) RX 1D4#F70700000746007B
(1739018329.906) RX 1F2#10640000001E000C
(1739018329.907) RX 284#00000000000079FF
(1739018329.907) RX 50B#000006C00060
(1739018329.909) RX 1DB#FD60BEEA00000183
(1739018329.910) RX 1DC#B40F8FFD0130C9CE
(1739018329.914) RX 1DA#C064180000010028
(1739018329.914) RX 1C2#50
(1739018329.916) RX 11A#01400055400002D8
(1739018329.916) RX 1D4#F7070000474600BC
(1739018329.917) RX 1F2#10640000001E010D
(1739018329.919) RX 1DB#FD80BEEA000002BB
(1739018329.920) RX 1DC#B40F8FFD0520C64C
(1739018329.924) RX 1DA#C0641800000101AD
(1739018329.924) RX 1C2#51
(1739018329.926) RX 11A#014000AA800003CE
(1739018329.927) RX 1D4#F707000087460070
(1739018329.927) RX 1F2#10640000001E020E
(1739018329.927) RX 284#0000000000007A00
(1739018329.928) RX 54A#100070062600002C
(1739018329.929) RX 54B#007898120C000000
(1739018329.930) RX 1DB#FDA0BEEA0000036F
(1739018329.930) RX 1DC#B40F8FFD08C0CB1B
(1739018329.930) RX 54C#6F66400000405800
(1739018329.931) RX 54F#25010000070D8A5A
(1739018329.934) RX 1DA#C0641800000102A7
(1739018329.934) RX 1C2#52
(1739018329.935) RX 11A#014000AAC0000003
(1739018329.937) RX 1D4#F7070000C74600B7
(1739018329.937) RX 1F2#10640000001E030F
(1739018329.940) RX 1DB#FDC0BEEA00000096
(1739018329.940) RX 1DC#B40F8FFD0CCCD8E4
(1739018329.944) RX 1DA#C064180000010322
(1739018329.944) RX 1C2#53
(1739018329.946) RX 11A#0140005500000115
(1739018329.947) RX 1D4#F70700000746007B
(1739018329.947) RX 1F2#10640000001E000C
(1739018329.948) RX 284#0000000000007B01
(1739018329.950) RX 1DB#FDC0BF2A000001C3
(1739018329.950) RX 1DC#B40F8FFD0130C9CE
(1739018329.954) RX 1DA#C064180000010028
(1739018329.954) RX 55A#002F2E005F315B68
(1739018329.954) RX 1C2#54
(1739018329.956) RX 11A#01400055400002D8
(1739018329.957) RX 1D4#F7070000474600BC
(1739018329.958) RX 1F2#10640000001E010D
(1739018329.960) RX 1DB#FDE0BF2A00000298
(1739018329.960) RX 1DC#B40F8FFD0520C64C
(1739018329.964) RX 1DA#C0641800000101AD
(1739018329.964) RX 1C2#55
(1739018329.966) RX 11A#014000AA800003CE
(1739018329.968) RX 1D4#F707000087460070
(1739018329.968) RX 1F2#10640000001E020E
(1739018329.968) RX 284#0000000000007C02
(1739018329.968) RX 50C#000000015D5F
(1739018329.970) RX 1DB#FDE0BF2A0000031D
(1739018329.970) RX 1DC#B40F8FFD08C0CB1B
(1739018329.971) RX 55B#C8405500E4C01124
(1739018329.971) RX 5BC#59032C26B3052092
(1739018329.974) RX 1DA#C0641800000102A7
(1739018329.974) RX 1C2#56
(1739018329.975) RX 11A#014000AAC0000003
(1739018329.978) RX 1D4#F7070000C74600B7
(1739018329.978) RX 1F2#10640000001E030F
(1739018329.978) RX 284#0000000000007D03
(1739018329.979) RX 5A9#643BB01304300000
(1739018329.980) RX 1DB#FDE0BF2A00000017
(1739018329.980) RX 1DC#B40F8FFD0CCCD8E4
(1739018329.984) RX 1DA#C064180000010322
(1739018329.984) RX 1C2#57
(1739018329.986) RX 11A#0140005500000115
(1739018329.988) RX 1D4#F70700000746007B
(1739018329.988) RX 1F2#10640000001E000C
(1739018329.989) RX 50A#8532A00C8020
(1739018329.990) RX 1DB#FDE0BF2A00000192
(1739018329.990) RX 1DC#B40F8FFD0130C9CE
(1739018329.992) RX 380#02041021000000AF
(1739018329.993) RX 5BF#000000002800003C
(1739018329.994) RX 1DA#C064180000010028
(1739018329.994) RX 1C2#58
(1739018329.996) RX 11A#01400055400002D8
(1739018329.998) RX 1D4#F7070000474600BC
(1739018329.999) RX 1F2#10640000001E010D
(1739018329.999) RX 284#0000000000007E04
(1739018330.000) RX 1DB#FDE0BF2A00000298
(1739018330.000) RX 1DC#B40F8FFD0520C64C
(1739018330.004) RX 1DA#C0641800000101AD
(1739018330.004) RX 1C2#59
(1739018330.006) RX 11A#014000AA800003CE
(1739018330.009) RX 1D4#F707000087460070
(1739018330.009) RX 1F2#10640000001E020E
(1739018330.009) RX 50B#000006C00060
(1739018330.010) RX 1DB#FDE0BF2A0000031D
(1739018330.010) RX 1DC#B40F8FFD08C0CB1B
(1739018330.014) RX 1DA#C0641800000102A7
(1739018330.014) RX 1C2#5A
(1739018330.015) RX 11A#014000AAC0000003
(1739018330.019) RX 1D4#F7070000C74600B7
(1739018330.019) RX 1F2#10640000001E030F
(1739018330.019) RX 284#0000000000007F05
(1739018330.020) RX 1DB#FDE0BF2A00000017
(1739018330.020) RX 1DC#B40F8FFD0CCCD8E4
(1739018330.024) RX 1DA#C064180000010322
(1739018330.024) RX 1C2#5B
(1739018330.026) RX 11A#0140005500000115
(1739018330.028) RX 54A#9E0070062600002C
(1739018330.029) RX 1D4#F70700000746007B
(1739018330.029) RX 1F2#10640000001E000C
(1739018330.030) RX 54B#007898120C000000
(1739018330.030) RX 1DB#FDE0BF2A00000192
(1739018330.030) RX 54C#6F66400000405800
(1739018330.030) RX 1DC#B40F8FFD0130C9CE
(1739018330.031) RX 54F#25010000074D8A5A
(1739018330.034) RX 1DA#C064180000010028
(1739018330.034) RX 1C2#5C
(1739018330.036) RX 11A#01400055400002D8
(1739018330.039) RX 1D4#F7070000474600BC
(1739018330.040) RX 1F2#10640000001E010D
(1739018330.040) RX 1DB#FDE0BF2A00000298
(1739018330.040) RX 284#0000000000008006
(1739018330.040) RX 1DC#B40F8FFD0520C64C
(1739018330.044) RX 1DA#C0641800000101AD
(1739018330.044) RX 1C2#5D
(1739018330.046) RX 11A#014000AA800003CE
(1739018330.050) RX 1D4#F707000087460070
(1739018330.050) RX 1F2#10640000001E020E
(1739018330.050) RX 1DB#FDE0BF2A0000031D
(1739018330.050) RX 5B9#67FF67FF28
(1739018330.051) RX 1DC#B40F8FFD08C0CB1B
(1739018330.054) RX 1DA#C0641800000102A7
(1739018330.054) RX 55A#002F2E005F315B68
(1739018330.054) RX 1C2#5E
(1739018330.055) RX 11A#014000AAC0000003
(1739018330.060) RX 1DB#FDE0BF2A00000017
(1739018330.060) RX 1D4#F7070000C74600B7
(1739018330.060) RX 1DC#B40F8FFD0CCCD8E4
(1739018330.061) RX 1F2#10640000001E030F
(1739018330.061) RX 284#0000000000008107
(1739018330.064) RX 1DA#C064180000010322
(1739018330.064) RX 1C2#5F
(1739018330.066) RX 11A#0140005500000115
(1739018330.070) RX 1DB#FDE0BF2A00000192
(1739018330.070) RX 1D4#F70700000746007B
(1739018330.071) RX 1DC#B40F8FFD0130C9CE
(1739018330.071) RX 1F2#10640000001E000C
(1739018330.071) RX 50C#00000002B20D
(1739018330.071) RX 55B#C8405500E4C0122E
(1739018330.072) RX 5BC#59032C26B3052092
(1739018330.074) RX 1DA#C064180000010028
(1739018330.074) RX 1C2#50
(1739018330.076) RX 11A#01400055400002D8
(1739018330.080) RX 1DB#FDE0BF2A00000298
(1739018330.080) RX 1DC#B40F8FFD0520C64C
(1739018330.080) RX 1D4#F7070000474600BC
(1739018330.081) RX 1F2#10640000001E010D
(1739018330.081) RX 284#0000000000008208
(1739018330.084) RX 1DA#C0641800000101AD
(1739018330.084) RX 1C2#51
(1739018330.086) RX 11A#014000AA800003CE
(1739018330.090) RX 1DB#FDE0BF2A0000031D
(1739018330.090) RX 1DC#B40F8FFD08C0CB1B
(1739018330.091) RX 1D4#F707000087460070
(1739018330.091) RX 1F2#10640000001E020E
(1739018330.091) RX 50A#8552A00C8020
(1739018330.092) RX 380#02041021000000B0
(1739018330.093) RX 5BF#0000000028000009
(1739018330.094) RX 1DA#C0641800000102A7
(1739018330.094) RX 1C2#52
(1739018330.095) RX 11A#014000AAC0000003
(1739018330.100) RX 1DB#FDE0BF2A00000017
(1739018330.100) RX 1DC#B40F8FFD0CCCD8E4
(1739018330.101) RX 1D4#F7070000C74600B7
(1739018330.101) RX 1F2#10640000001E030F
(1739018330.101) RX 284#0000000000008309
(1739018330.104) RX 1DA#C064180000010322
(1739018330.104) RX 1C2#53
(1739018330.106) RX 11A#0140005500000115
(1739018330.110) RX 1DB#FDE0BF2A00000192
(1739018330.110) RX 1DC#B40F8FFD0130C9CE
(1739018330.111) RX 1D4#F70700000746007B
(1739018330.111) RX 1F2#10640000001E000C
(1739018330.112) RX 50B#000006C00060
(1739018330.114) RX 1DA#C064180000010028
(1739018330.114) RX 1C2#54
(1739018330.116) RX 11A#01400055400002D8
(1739018330.120) RX 1DB#FDE0BF2A00000298
(1739018330.120) RX 1DC#B40F8FFD0520C64C
(1739018330.121) RX 1D4#F7070000474600BC
(1739018330.122) RX 1F2#10640000001E010D
(1739018330.122) RX 284#000000000000840A
(1739018330.124) RX 1DA#C0641800000101AD
(1739018330.124) RX 1C2#55
(1739018330.126) RX 11A#014000AA800003CE
(1739018330.128) RX 54A#100070062600002C
(1739018330.129) RX 54B#007898120C000000
(1739018330.130) RX 1DB#FDE0BF2A0000031D
(1739018330.130) RX 54C#6F66400000405800
(1739018330.131) RX 1DC#B40F8FFD08C0CB1B
(1739018330.131) RX 54F#25010000078D8A5A
(1739018330.132) RX 1D4#F707000087460070
(1739018330.132) RX 1F2#10640000001E020E
(1739018330.134) RX 1DA#C0641800000102A7
(1739018330.134) RX 1C2#56
(1739018330.135) RX 11A#014000AAC0000003
(1739018330.140) RX 1DB#FDE0BF2A00000017
(1739018330.140) RX 1DC#B40F8FFD0CCCD8E4
(1739018330.142) RX 1D4#F7070000C74600B7
(1739018330.142) RX 1F2#10640000001E030F
(1739018330.142) RX 284#000000000000850B
(1739018330.144) RX 1DA#C064180000010322
(1739018330.144) RX 1C2#57
(1739018330.146) RX 11A#0140005500000115
(1739018330.150) RX 1DB#FDE0BF2A00000192
(1739018330.150) RX 1DC#B40F8FFD0130C9CE
(1739018330.152) RX 1D4#F70700000746007B
 1739018330.131) RX 54F#25010000078D8A5A
(1739018330.132) RX 1D4#F707000087460070
(1739018330.132) RX 1F2#10640000001E020E
(1739018330.134) RX 1DA#C0641800000102A7
(1739018330.134) RX 1C2#56
(1739018330.135) RX 11A#014000AAC0000003
(1739018330.140) RX 1DB#FDE0BF2A00000017
(1739018330.140) RX 1DC#B40F8FFD0CCCD8E4
(1739018330.142) RX 1D4#F7070000C74600B7
(1739018330.162) RX 1D4#F7070000474600BC
(1739018330.163) RX 1F2#10640000001E010D
(1739018330.163) RX 284#000000000000860C
(1739018330.164) RX 1DA#C0641800000101AD
(1739018330.164) RX 1C2#59
(1739018330.166) RX 11A#014000AA800003CE
(1739018330.170) RX 1DB#FDE0BF2A0000031D
(1739018330.171) RX 1DC#B40F8FFD08C0CB1B
(1739018330.171) RX 55B#C840AA00E4C013EC
(1739018330.171) RX 5BC#59032026B2054074
(1739018330.173) RX 1D4#F707000087460070
(1739018330.173) RX 1F2#10640000001E020E
(1739018330.173) RX 50C#00000003B29A
(1739018330.174) RX 1DA#C0641800000102A7
(1739018330.175) RX 1C2#5A
(1739018330.175) RX 11A#014000AAC0000003
(1739018330.180) RX 1DB#FDE0BF2A00000017
(1739018330.181) RX 1DC#B40F8FFD0CCCD8E4
(1739018330.181) RX 5C0#804C4C0004A01100
(1739018330.181) RX 5EB#E00FFFFFFFFFFFFF
(1739018330.183) RX 1D4#F7070000C74600B7
(1739018330.183) RX 1F2#10640000001E030F
(1739018330.183) RX 284#000000000000870D
(1739018330.184) RX 1DA#C064180000010322
(1739018330.185) RX 1C2#5B
(1739018330.186) RX 11A#0140005500000115
(1739018330.190) RX 1DB#FDE0BF2A00000192
(1739018330.191) RX 1DC#B40F8FFD0130C9CE
(1739018330.192) RX 380#020410210000008D
(1739018330.193) RX 5BF#000000002800001A
(1739018330.193) RX 1D4#F70700000746007B
(1739018330.193) RX 1F2#10640000001E000C
(1739018330.193) RX 50A#8572A00C8020
(1739018330.194) RX 1DA#C064180000010028
(1739018330.195) RX 1C2#5C
(1739018330.196) RX 11A#01400055400002D8
(1739018330.200) RX 1DB#FDE0BF2A00000298
(1739018330.200) RX 1DC#B40F8FFD0520C64C
(1739018330.203) RX 1D4#F7070000474600BC
(1739018330.204) RX 1F2#10640000001E010D
(1739018330.204) RX 1DA#C0641800000101AD
(1739018330.204) RX 284#000000000000880E
(1739018330.205) RX 1C2#5D
(1739018330.206) RX 11A#014000AA800003CE
(1739018330.210) RX 1DB#FDE0BF2A0000031D
(1739018330.211) RX 1DC#B40F8FFD08C0CB1B
(1739018330.214) RX 1D4#F707000087460070
(1739018330.214) RX 1DA#C0641800000102A7
(1739018330.214) RX 1F2#10640000001E020E
(1739018330.214) RX 50B#000006C00060
(1739018330.215) RX 1C2#5E
(1739018330.215) RX 11A#014000AAC0000003
(1739018330.220) RX 1DB#FDE0BF2A00000017
(1739018330.221) RX 1DC#B40F8FFD0CCCD8E4
(1739018330.224) RX 1DA#C064180000010322
(1739018330.224) RX 1D4#F7070000C74600B7
(1739018330.224) RX 1F2#10640000001E030F
(1739018330.224) RX 284#000000000000890F
(1739018330.225) RX 1C2#5F
(1739018330.226) RX 11A#0140005500000115
(1739018330.228) RX 54A#9E0070062600002C
(1739018330.229) RX 54B#007898120C000000
(1739018330.230) RX 54C#6F66400000405800
(1739018330.231) RX 1DB#FDE0BF2A00000192
(1739018330.231) RX 1DC#B40F8FFD0130C9CE
(1739018330.231) RX 54F#2501000007CD8A5A
(1739018330.234) RX 1DA#C064180000010028
(1739018330.234) RX 1D4#F70700000746007B
(1739018330.234) RX 1F2#10640000001E000C
(1739018330.235) RX 1C2#50
(1739018330.236) RX 11A#01400055400002D8
(1739018330.240) RX 1DB#FDE0BF2A00000298
(1739018330.241) RX 1DC#B40F8FFD0520C64C
(1739018330.244) RX 1DA#C0641800000101AD
(1739018330.244) RX 1D4#F7070000474600BC
(1739018330.244) RX 1F2#10640000001E010D
(1739018330.245) RX 284#0000000000008A10
(1739018330.245) RX 1C2#51
(1739018330.246) RX 11A#014000AA800003CE
(1739018330.250) RX 1DB#FDE0BF2A0000031D
(1739018330.251) RX 1DC#B40F8FFD08C0CB1B
(1739018330.254) RX 1DA#C0641800000102A7
(1739018330.254) RX 55A#002F2E005F315B68
(1739018330.254) RX 1D4#F707000087460070
(1739018330.255) RX 1F2#10640000001E020E
(1739018330.255) RX 1C2#52
(1739018330.255) RX 11A#014000AAC0000003
(1739018330.260) RX 1DB#FDE0BF2A00000017
(1739018330.261) RX 1DC#B40F8FFD0CCCD8E4
(1739018330.264) RX 1DA#C064180000010322
(1739018330.265) RX 1D4#F7070000C74600B7
(1739018330.265) RX 1C2#53
(1739018330.265) RX 1F2#10640000001E030F
(1739018330.265) RX 284#0000000000008B11
(1739018330.266) RX 11A#0140005500000115
(1739018330.271) RX 1DB#FDE0BF2A00000192
(1739018330.271) RX 1DC#B40F8FFD0130C9CE
(1739018330.271) RX 55B#C840AA00E480107B
(1739018330.271) RX 5BC#59032026B2054074
(1739018330.274) RX 1DA#C064180000010028
(1739018330.275) RX 1C2#54
(1739018330.275) RX 1D4#F70700000746007B
(1739018330.275) RX 1F2#10640000001E000C
(1739018330.275) RX 50C#000000005DC8
(1739018330.276) RX 11A#01400055400002D8
(1739018330.280) RX 1DB#FDE0BF2A00000298
(1739018330.281) RX 1DC#B40F8FFD0520C64C
(1739018330.284) RX 1DA#C0641800000101AD
(1739018330.285) RX 1C2#55
(1739018330.285) RX 1D4#F7070000474600BC
(1739018330.285) RX 1F2#10640000001E010D
(1739018330.286) RX 284#0000000000008C12
(1739018330.286) RX 11A#014000AA800003CE
(1739018330.290) RX 1DB#FDE0BF2A0000031D
(1739018330.291) RX 1DC#B40F8FFD08C0CB1B
(1739018330.293) RX 380#020410210000009E
(1739018330.293) RX 5BF#000000002800002B
(1739018330.294) RX 1DA#C0641800000102A7
(1739018330.295) RX 1C2#56
(1739018330.295) RX 11A#014000AAC0000003
(1739018330.295) RX 1D4#F707000087460070
(1739018330.296) RX 1F2#10640000001E020E
(1739018330.296) RX 50A#8512A00C8020
(1739018330.301) RX 1DB#FDE0BF2A00000017
(1739018330.301) RX 1DC#B40F8FFD0CCCD8E4
(1739018330.304) RX 1DA#C064180000010322
(1739018330.305) RX 1C2#57
(1739018330.306) RX 1D4#F7070000C74600B7
(1739018330.306) RX 1F2#10640000001E030F
(1739018330.306) RX 11A#0140005500000115
(1739018330.306) RX 284#0000000000008D13
(1739018330.311) RX 1DB#FDE0BF2A00000192
(1739018330.311) RX 1DC#B40F8FFD0130C9CE
(1739018330.314) RX 1DA#C064180000010028
(1739018330.315) RX 1C2#58
(1739018330.316) RX 11A#01400055400002D8
(1739018330.316) RX 1D4#F70700000746007B
(1739018330.316) RX 1F2#10640000001E000C
(1739018330.316) RX 50B#000006C00060
(1739018330.321) RX 1DB#FDE0BF2A00000298
(1739018330.321) RX 1DC#B40F8FFD0520C64C
(1739018330.324) RX 1DA#C0641800000101AD
(1739018330.325) RX 1C2#59
(1739018330.326) RX 11A#014000AA800003CE
(1739018330.326) RX 1D4#F7070000474600BC
(1739018330.326) RX 1F2#10640000001E010D
(1739018330.327) RX 284#0000000000008E14
(1739018330.328) RX 54A#100070062600002C
(1739018330.329) RX 54B#007898120C000000
(1739018330.330) RX 54C#6F66400000405800
(1739018330.331) RX 1DB#FDE0BF2A0000031D
(1739018330.331) RX 1DC#B40F8FFD08C0CB1B
(1739018330.331) RX 54F#25010000070D8A5B
(1739018330.334) RX 1DA#C0641800000102A7
(1739018330.335) RX 1C2#5A
(1739018330.335) RX 11A#014000AAC0000003
(1739018330.336) RX 1D4#F707000087460070
(1739018330.337) RX 1F2#10640000001E020E
(1739018330.341) RX 1DB#FDE0BF2A00000017
(1739018330.341) RX 1DC#B40F8FFD0CCCD8E4
(1739018330.344) RX 1DA#C064180000010322
(1739018330.345) RX 1C2#5B
(1739018330.346) RX 11A#0140005500000115
(1739018330.347) RX 1D4#F7070000C74600B7
(1739018330.347) RX 1F2#10640000001E030F
(1739018330.347) RX 284#0000000000008F15
(1739018330.351) RX 1DB#FDE0BF2A00000192
(1739018330.351) RX 1DC#B40F8FFD0130C9CE
(1739018330.354) RX 1DA#C064180000010028
(1739018330.354) RX 55A#002F2E005F315B68
(1739018330.355) RX 1C2#5C
(1739018330.356) RX 11A#01400055400002D8
(1739018330.357) RX 1D4#F70700000746007B
(1739018330.357) RX 1F2#10640000001E000C
(1739018330.361) RX 1DB#FDE0BF2A00000298
(1739018330.361) RX 1DC#B40F8FFD0520C64C
(1739018330.364) RX 1DA#C0641800000101AD
(1739018330.365) RX 1C2#5D
(1739018330.366) RX 11A#014000AA800003CE
(1739018330.367) RX 1D4#F7070000474600BC
(1739018330.367) RX 1F2#10640000001E010D
(1739018330.368) RX 284#0000000000009016
(1739018330.371) RX 1DB#FDE0BF2A0000031D
(1739018330.371) RX 1DC#B40F8FFD08C0CB1B
(1739018330.371) RX 55B#C8405500E48011B9
(1739018330.372) RX 5BC#59032026B2054074
(1739018330.374) RX 1DA#C0641800000102A7
(1739018330.375) RX 1C2#5E
(1739018330.375) RX 11A#014000AAC0000003
(1739018330.377) RX 1D4#F707000087460070
(1739018330.378) RX 1F2#10640000001E020E
(1739018330.378) RX 50C#000000015D5F
(1739018330.381) RX 1DB#FDE0BF2A00000017
(1739018330.381) RX 1DC#B40F8FFD0CCCD8E4
(1739018330.384) RX 1DA#C064180000010322
(1739018330.385) RX 1C2#5F
(1739018330.386) RX 11A#0140005500000115
(1739018330.388) RX 1D4#F7070000C74600B7
(1739018330.388) RX 1F2#10640000001E030F
(1739018330.388) RX 284#0000000000009117
(1739018330.391) RX 1DB#FDE0BF2A00000192
(1739018330.391) RX 1DC#B40F8FFD0130C9CE
(1739018330.393) RX 380#02041021000000AF
(1739018330.393) RX 5BF#000000002800003C
(1739018330.394) RX 1DA#C064180000010028
(1739018330.395) RX 1C2#50
(1739018330.396) RX 11A#01400055400002D8
(1739018330.398) RX 1D4#F70700000746007B
(1739018330.398) RX 1F2#10640000001E000C
(1739018330.398) RX 284#0000000000009218
(1739018330.399) RX 50A#8532A00C8020
(1739018330.401) RX 1DB#FDE0BF2A00000298
(1739018330.401) RX 1DC#B40F8FFD0520C64C
(1739018330.404) RX 1DA#C0641800000101AD
(1739018330.405) RX 1C2#51
(1739018330.406) RX 11A#014000AA800003CE
(1739018330.408) RX 1D4#F7070000474600BC
(1739018330.408) RX 1F2#10640000001E010D
(1739018330.411) RX 1DB#FDE0BF2A0000031D
(1739018330.411) RX 1DC#B40F8FFD08C0CB1B
(1739018330.414) RX 1DA#C0641800000102A7
(1739018330.415) RX 1C2#52
(1739018330.415) RX 11A#014000AAC0000003
(1739018330.418) RX 1D4#F707000087460070
(1739018330.419) RX 1F2#10640000001E020E
(1739018330.419) RX 284#0000000000009319
(1739018330.419) RX 50B#000006C00060
(1739018330.421) RX 1DB#FDE0BF2A00000017
(1739018330.421) RX 1DC#B40F8FFD0CCCD8E4
(1739018330.424) RX 1DA#C064180000010322
(1739018330.425) RX 1C2#53
(1739018330.426) RX 11A#0140005500000115
(1739018330.428) RX 54A#9E0070062600002C
(1739018330.429) RX 1D4#F7070000C74600B7
(1739018330.429) RX 1F2#10640000001E030F
(1739018330.429) RX 54B#007898120C000000
(1739018330.430) RX 54C#6F66400000405800
(1739018330.431) RX 1DB#FDE0BF2A00000192
(1739018330.431) RX 1DC#B40F8FFD0130C9CE
(1739018330.432) RX 54F#25010000074D8A5B
(1739018330.434) RX 1DA#C064180000010028
(1739018330.435) RX 1C2#54
(1739018330.436) RX 11A#01400055400002D8
(1739018330.439) RX 1D4#F70700000746007B
(1739018330.439) RX 1F2#10640000001E000C
(1739018330.439) RX 284#000000000000941A
(1739018330.441) RX 1DB#FDE0BF2A00000298
(1739018330.441) RX 1DC#B40F8FFD0520C64C
(1739018330.444) RX 1DA#C0641800000101AD
(1739018330.445) RX 1C2#55
(1739018330.446) RX 11A#014000AA800003CE
(1739018330.449) RX 1D4#F7070000474600BC
(1739018330.449) RX 1F2#10640000001E010D
(1739018330.451) RX 1DB#FDE0BF2A0000031D
(1739018330.451) RX 1DC#B40F8FFD08C0CB1B
(1739018330.454) RX 1DA#C0641800000102A7
(1739018330.454) RX 55A#002F2E005F315B68
(1739018330.455) RX 11A#014000AAC0000003
(1739018330.455) RX 1C2#56
(1739018330.459) RX 1D4#F707000087460070
(1739018330.460) RX 1F2#10640000001E020E
(1739018330.460) RX 284#000000000000951B
(1739018330.461) RX 1DB#FDE0BF2A00000017
(1739018330.461) RX 1DC#B40F8FFD0CCCD8E4
(1739018330.464) RX 1DA#C064180000010322
(1739018330.465) RX 1C2#57
(1739018330.466) RX 11A#0140005500000115
(1739018330.470) RX 1D4#F7070000C74600B7
(1739018330.470) RX 1F2#10640000001E030F
(1739018330.471) RX 1DB#FDE0BF2A00000192
(1739018330.471) RX 1DC#B40F8FFD0130C9CE
(1739018330.472) RX 55B#C8405500E48012B3
(1739018330.472) RX 5BC#59032026B2054074
(1739018330.474) RX 1DA#C064180000010028
(1739018330.475) RX 1C2#58
(1739018330.476) RX 11A#01400055400002D8
(1739018330.480) RX 1D4#F70700000746007B
(1739018330.480) RX 1F2#10640000001E000C
(1739018330.480) RX 284#000000000000961C
(1739018330.481) RX 50C#00000002B20D
(1739018330.481) RX 1DB#FDE0BF2A00000298
(1739018330.481) RX 1DC#B40F8FFD0520C64C
(1739018330.484) RX 1DA#C0641800000101AD
(1739018330.485) RX 1C2#59
(1739018330.486) RX 11A#014000AA800003CE
(1739018330.490) RX 1D4#F7070000474600BC
(1739018330.490) RX 1F2#10640000001E010D
(1739018330.491) RX 5A9#643BB01304300000
(1739018330.491) RX 1DB#FDE0BF2A0000031D
(1739018330.492) RX 1DC#B40F8FFD08C0CB1B
(1739018330.493) RX 380#02041021000000B0
(1739018330.493) RX 5BF#0000000028000009
(1739018330.494) RX 1DA#C0641800000102A7
(1739018330.495) RX 11A#014000AAC0000003
(1739018330.495) RX 1C2#5A
(1739018330.500) RX 1D4#F707000087460070
(1739018330.501) RX 1F2#10640000001E020E
(1739018330.501) RX 284#000000000000971D
(1739018330.501) RX 50A#8552A00C8020
(1739018330.501) RX 1DB#FDC0BF2A00000046
(1739018330.502) RX 1DC#B40F8FFD0CCCD8E4
(1739018330.504) RX 1DA#C064180000010322
(1739018330.505) RX 1C2#5B
(1739018330.506) RX 11A#0140005500000115
(1739018330.511) RX 1D4#F7070000C74600B7
(1739018330.511) RX 1F2#10640000001E030F
(1739018330.511) RX 1DB#FDA0BF2A00000130
(1739018330.512) RX 1DC#B40F8FFD0130C9CE
(1739018330.514) RX 1DA#C064180000010028
(1739018330.515) RX 1C2#5C
(1739018330.516) RX 11A#01400055400002D8
(1739018330.521) RX 1D4#F70700000746007B
(1739018330.521) RX 1F2#10640000001E000C
(1739018330.521) RX 1DB#FD80BF2A0000026B
(1739018330.522) RX 284#000000000000981E
(1739018330.522) RX 1DC#B40F8FFD0520C64C
(1739018330.522) RX 50B#000006C00060
(1739018330.524) RX 1DA#C0641800000101AD
(1739018330.525) RX 1C2#5D
(1739018330.526) RX 11A#014000AA800003CE
(1739018330.529) RX 54A#100070062600002C
(1739018330.530) RX 54B#007898120C000000
(1739018330.531) RX 54C#6F66400000405800
(1739018330.531) RX 1D4#F7070000474600BC
(1739018330.531) RX 1F2#10640000001E010D
(1739018330.532) RX 1DB#FD60BF2A000003DC
(1739018330.532) RX 54F#25010000078D8A5B
(1739018330.532) RX 1DC#B40F8FFD08C0CB1B
(1739018330.514) RX 1DA#C064180000010028
(1739018330.515) RX 1C2#5C
(1739018330.516) RX 11A#01400055400002D8
(1739018330.521) RX 1D4#F70700000746007B
(1739018330.521) RX 1F2#10640000001E000C
(1739018330.521) RX 1DB#FD80BF2A0000026B
(1739018330.522) RX 284#000000000000981E
(1739018330.522) RX 1DC#B40F8FFD0520C64C
(1739018330.522) RX 50B#000006C00060
(1739018330.542) RX 284#000000000000991F
(1739018330.544) RX 1DA#C064180000010322
(1739018330.545) RX 1C2#5F
(1739018330.546) RX 11A#0140005500000115
(1739018330.551) RX 1DB#FD20BEEA00000121
(1739018330.552) RX 1DC#B40F8FFD0130C9CE
(1739018330.552) RX 1D4#F7070000C74600B7
(1739018330.552) RX 1F2#10640000001E030F
(1739018330.554) RX 1DA#C064180000010028
(1739018330.554) RX 55A#002F2E005F315B68
(1739018330.555) RX 1C2#50
(1739018330.556) RX 11A#01400055400002D8
(1739018330.561) RX 1DB#FD00BEEA0000027A
(1739018330.562) RX 1DC#B40F8FFD0520C64C
(1739018330.562) RX 1D4#F70700000746007B
(1739018330.562) RX 1F2#10640000001E000C
(1739018330.562) RX 284#0000000000009A20
(1739018330.563) RX 5B9#67FF67FF28
(1739018330.564) RX 1DA#C0641800000101AD
(1739018330.565) RX 1C2#51
(1739018330.566) RX 11A#014000AA800003CE
(1739018330.571) RX 1DB#FCE0BEEA000003CA
(1739018330.572) RX 1DC#B40F8FFD08C0CB1B
(1739018330.572) RX 55B#C840AA00E4801371
 03DC
(1739018330.532) RX 54F#25010000078D8A5B
(1739018330.532) RX 1DC#B40F8FFD08C0CB1B
(1739018330.554) RX 1DA#C064180000010028
(1739018330.554) RX 55A#002F2E005F315B68
(1739018330.555) RX 1C2#50
(1739018330.556) RX 11A#01400055400002D8
(1739018330.561) RX 1DB#FD00BEEA0000027A
(1739018330.562) RX 1DC#B40F8FFD0520C64C
(1739018330.562) RX 1D4#F70700000746007B
(1739018330.582) RX 1D4#F707000087460070
(1739018330.583) RX 1F2#10640000001E020E
(1739018330.583) RX 284#0000000000009B21
(1739018330.583) RX 50C#00000003B29A
(1739018330.584) RX 1DA#C064180000010322
(1739018330.585) RX 1C2#53
(1739018330.586) RX 11A#0140005500000115
(1739018330.591) RX 1DB#FCC0BEEA00000114
(1739018330.592) RX 1DC#B40F8FFD0130C9CE
(1739018330.593) RX 1D4#F7070000C74600B7
(1739018330.593) RX 1F2#10640000001E030F
(1739018330.593) RX 380#020410210000008D
(1739018330.593) RX 5BF#000000002800001A
(1739018330.594) RX 1DA#C064180000010028
(1739018330.595) RX 1C2#54
(1739018330.596) RX 11A#01400055400002D8
(1739018330.601) RX 1DB#FCC0BEEA0000021E
(1739018330.602) RX 1DC#B40F8FFD0520C64C
(1739018330.603) RX 1D4#F70700000746007B
(1739018330.603) RX 1F2#10640000001E000C
(1739018330.603) RX 284#0000000000009C22
(1739018330.603) RX 50A#8572A00C8020
(1739018330.604) RX 1DA#C0641800000101AD
(1739018330.606) RX 1C2#55
(1739018330.606) RX 11A#014000AA800003CE
(1739018330.611) RX 1DB#FCC0BEEA0000039B
(1739018330.612) RX 1DC#B40F8FFD08C0CB1B
(1739018330.613) RX 1D4#F7070000474600BC
(1739018330.613) RX 1F2#10640000001E010D
(1739018330.614) RX 1DA#C0641800000102A7
(1739018330.615) RX 11A#014000AAC0000003
(1739018330.616) RX 1C2#56
(1739018330.621) RX 1DB#FCC0BEEA00000091
(1739018330.622) RX 1DC#B40F8FFD0CCCD8E4
(1739018330.623) RX 1D4#F707000087460070
(1739018330.624) RX 1F2#10640000001E020E
(1739018330.624) RX 1DA#C064180000010322
(1739018330.624) RX 284#0000000000009D23
(1739018330.624) RX 50B#000006C00060
(1739018330.626) RX 1C2#57
(1739018330.626) RX 11A#0140005500000115
(1739018330.629) RX 54A#9E0070062600002C
(1739018330.630) RX 54B#007898120C000000
