(1739018389.984) RX 11A#0140005500000115
(1739018389.985) RX 1DA#C064180000010028
(1739018389.985) RX 1C2#59
(1739018389.985) RX 1D4#F7070000474600BC
(1739018389.985) RX 1F2#10640000001E010D
(1739018389.985) RX 284#00000000000035BB
(1739018389.986) RX 1DB#FE60BF2A000000DF
(1739018389.986) RX 1DC#B40F8FFD0CCCD8E4
(1739018389.991) RX 11A#01400055400002D8
(1739018389.993) RX 1DA#C0641800000101AD
(1739018389.993) RX 1C2#5A
(1739018389.995) RX 1D4#F707000087460070
(1739018389.995) RX 1F2#10640000001E020E
(1739018389.995) RX 50C#00000003B29A
(1739018389.996) RX 1DB#FE60BF2A0000015A
(1739018389.997) RX 1DC#B40F8FFD0130C9CE
(1739018390.001) RX 11A#014000AA800003CE
(1739018390.003) RX 1DA#C0641800000102A7
(1739018390.003) RX 1C2#5B
(1739018390.005) RX 1D4#F7070000C74600B7
(1739018390.005) RX 1F2#10640000001E030F
(1739018390.005) RX 284#00000000000036BC
(1739018390.006) RX 1DB#FE60BF2A00000250
(1739018390.007) RX 1DC#B40F8FFD0520C64C
(1739018390.010) RX 11A#014000AAC0000003
(1739018390.013) RX 1DA#C064180000010322
(1739018390.013) RX 1C2#5C
(1739018390.015) RX 1D4#F70700000746007B
(1739018390.015) RX 1F2#10640000001E000C
(1739018390.015) RX 50A#8572A00D8020
(1739018390.016) RX 1DB#FE60BF2A000003D5
(1739018390.017) RX 1DC#B40F8FFD08C0CB1B
(1739018390.021) RX 11A#0140005500000115
(1739018390.023) RX 1DA#C064180000010028
(1739018390.023) RX 1C2#5D
(1739018390.025) RX 1D4#F7070000474600BC
(1739018390.025) RX 1F2#10640000001E010D
(1739018390.026) RX 284#00000000000037BD
(1739018390.026) RX 1DB#FE60BF2A000000DF
(1739018390.027) RX 1DC#B40F8FFD0CCCD8E4
(1739018390.031) RX 11A#01400055400002D8
(1739018390.033) RX 1DA#C0641800000101AD
(1739018390.033) RX 1C2#5E
(1739018390.035) RX 1D4#F707000087460070
(1739018390.036) RX 1F2#10640000001E020E
(1739018390.036) RX 50B#000006C00060
(1739018390.037) RX 1DB#FE60BF2A0000015A
(1739018390.037) RX 1DC#B40F8FFD0130C9CE
(1739018390.037) RX 55B#C800AA00E48010D9
(1739018390.038) RX 5BC#59032C26B3052092
(1739018390.041) RX 11A#014000AA800003CE
(1739018390.043) RX 1DA#C0641800000102A7
(1739018390.043) RX 55A#002F2E005F315B68
(1739018390.044) RX 1C2#5F
(1739018390.046) RX 1D4#F7070000C74600B7
(1739018390.046) RX 1F2#10640000001E030F
(1739018390.046) RX 284#00000000000038BE
(1739018390.047) RX 1DB#FE60BF2A00000250
(1739018390.047) RX 1DC#B40F8FFD0520C64C
(1739018390.050) RX 11A#014000AAC0000003
(1739018390.052) RX 380#02041021000000AF
(1739018390.052) RX 5BF#000000002800003C
(1739018390.053) RX 1DA#C064180000010322
(1739018390.053) RX 1C2#50
(1739018390.054) RX 54A#9E0070062600002C
(1739018390.055) RX 54B#007898121C000000
(1739018390.056) RX 1D4#F70700000746007B
(1739018390.056) RX 1F2#10640000001E000C
(1739018390.057) RX 1DB#FE60BF2A000003D5
(1739018390.057) RX 54C#7166400000605800
(1739018390.057) RX 1DC#B40F8FFD08C0CB1B
(1739018390.057) RX 54F#27010000074A8A60
(1739018390.061) RX 11A#0140005500000115
(1739018390.063) RX 1DA#C064180000010028
(1739018390.063) RX 1C2#51
(1739018390.066) RX 1D4#F7070000474600BC
(1739018390.067) RX 1DB#FE60BF2A000000DF
(1739018390.067) RX 1F2#10640000001E010D
(1739018390.067) RX 1DC#B40F8FFD0CCCD8E4
(1739018390.067) RX 284#00000000000039BF
(1739018390.071) RX 11A#01400055400002D8
(1739018390.073) RX 1DA#C0641800000101AD
(1739018390.073) RX 1C2#52
(1739018390.076) RX 1D4#F707000087460070
(1739018390.077) RX 1DB#FE60BF2A0000015A
(1739018390.077) RX 1F2#10640000001E020E
(1739018390.077) RX 1DC#B40F8FFD0130C9CE
(1739018390.077) RX 284#0000000000003AC0
(1739018390.081) RX 11A#014000AA800003CE
(1739018390.083) RX 1DA#C0641800000102A7
(1739018390.083) RX 1C2#53
(1739018390.094) RX 1DB#FE60BF2A00000250
(1739018390.095) RX 1D4#F7070000C74600B7
(1739018390.095) RX 1DC#B40F8FFD0520C64C
(1739018390.095) RX 1F2#10640000001E030F
(1739018390.095) RX 11A#014000AAC0000003
(1739018390.096) RX 1DA#C064180000010322
(1739018390.096) RX 1C2#54
(1739018390.097) RX 1DB#FE60BF2A000003D5
(1739018390.097) RX 1DC#B40F8FFD08C0CB1B
(1739018390.097) RX 1D4#F70700000746007B
(1739018390.097) RX 1F2#10640000001E000C
(1739018390.098) RX 284#0000000000003BC1
(1739018390.098) RX 50C#000000005DC8
(1739018390.101) RX 11A#0140005500000115
(1739018390.103) RX 1DA#C064180000010028
(1739018390.104) RX 1C2#55
(1739018390.107) RX 1DB#FE60BF2A000000DF
(1739018390.107) RX 1DC#B40F8FFD0CCCD8E4
(1739018390.107) RX 1D4#F7070000474600BC
(1739018390.107) RX 1F2#10640000001E010D
(1739018390.111) RX 11A#01400055400002D8
(1739018390.113) RX 1DA#C0641800000101AD
(1739018390.114) RX 1C2#56
(1739018390.117) RX 1DB#FE60BF2A0000015A
(1739018390.117) RX 1DC#B40F8FFD0130C9CE
(1739018390.117) RX 1D4#F707000087460070
(1739018390.118) RX 1F2#10640000001E020E
(1739018390.118) RX 284#0000000000003CC2
(1739018390.118) RX 50A#8512A00D8020
(1739018390.121) RX 11A#014000AA800003CE
(1739018390.123) RX 1DA#C0641800000102A7
(1739018390.124) RX 1C2#57
(1739018390.127) RX 1DB#FE60BF2A00000250
(1739018390.127) RX 1DC#B40F8FFD0520C64C
(1739018390.128) RX 1D4#F7070000C74600B7
(1739018390.128) RX 1F2#10640000001E030F
(1739018390.130) RX 11A#014000AAC0000003
(1739018390.133) RX 1DA#C064180000010322
(1739018390.134) RX 1C2#58
(1739018390.137) RX 1DB#FE60BF2A000003D5
(1739018390.137) RX 1DC#B40F8FFD08C0CB1B
(1739018390.137) RX 55B#C8005500E480111B
(1739018390.138) RX 5BC#59032C26B3052092
(1739018390.138) RX 1D4#F70700000746007B
(1739018390.138) RX 1F2#10640000001E000C
(1739018390.138) RX 284#0000000000003DC3
(1739018390.139) RX 50B#000006C00060
(1739018390.141) RX 11A#0140005500000115
(1739018390.143) RX 1DA#C064180000010028
(1739018390.143) RX 55A#002F2F005F315B68
(1739018390.144) RX 1C2#59
(1739018390.147) RX 1DB#FE60BF2A000000DF
(1739018390.147) RX 1DC#B40F8FFD0CCCD8E4
(1739018390.148) RX 1D4#F7070000474600BC
(1739018390.148) RX 1F2#10640000001E010D
(1739018390.151) RX 11A#01400055400002D8
(1739018390.152) RX 380#02041021000000B0
(1739018390.152) RX 5BF#0000000028000009
(1739018390.153) RX 1DA#C0641800000101AD
(1739018390.154) RX 1C2#5A
(1739018390.154) RX 54A#100070062600002C
(1739018390.155) RX 54B#007898121C000000
(1739018390.156) RX 54C#7166400000605800
(1739018390.157) RX 1DB#FE60BF2A0000015A
(1739018390.157) RX 1DC#B40F8FFD0130C9CE
(1739018390.157) RX 54F#27010000078A8A60
(1739018390.159) RX 1D4#F707000087460070
(1739018390.159) RX 1F2#10640000001E020E
(1739018390.159) RX 284#0000000000003EC4
(1739018390.161) RX 11A#014000AA800003CE
(1739018390.163) RX 1DA#C0641800000102A7
(1739018390.164) RX 1C2#5B
(1739018390.167) RX 1DB#FE60BF2A00000250
(1739018390.167) RX 1DC#B40F8FFD0520C64C
(1739018390.169) RX 1D4#F7070000C74600B7
(1739018390.169) RX 1F2#10640000001E030F
(1739018390.170) RX 11A#014000AAC0000003
(1739018390.173) RX 1DA#C064180000010322
(1739018390.174) RX 1C2#5C
(1739018390.177) RX 1DB#FE60BF2A000003D5
(1739018390.177) RX 1DC#B40F8FFD08C0CB1B
(1739018390.179) RX 1D4#F70700000746007B
(1739018390.179) RX 1F2#10640000001E000C
(1739018390.179) RX 284#0000000000003FC5
(1739018390.181) RX 11A#0140005500000115
(1739018390.183) RX 1DA#C064180000010028
(1739018390.184) RX 1C2#5D
(1739018390.187) RX 1DB#FE60BF2A000000DF
(1739018390.187) RX 1DC#B40F8FFD0CCCD8E4
(1739018390.189) RX 1D4#F7070000474600BC
(1739018390.189) RX 1F2#10640000001E010D
(1739018390.191) RX 11A#01400055400002D8
(1739018390.193) RX 1DA#C0641800000101AD
(1739018390.194) RX 1C2#5E
(1739018390.197) RX 1DB#FE60BF2A0000015A
(1739018390.197) RX 1DC#B40F8FFD0130C9CE
(1739018390.199) RX 1D4#F707000087460070
(1739018390.200) RX 1F2#10640000001E020E
(1739018390.200) RX 284#00000000000040C6
(1739018390.200) RX 50C#00000001B231
(1739018390.201) RX 11A#014000AA800003CE
(1739018390.203) RX 1DA#C0641800000102A7
(1739018390.204) RX 1C2#5F
(1739018390.207) RX 1DB#FE60BF2A00000250
(1739018390.207) RX 1DC#B40F8FFD0520C64C
(1739018390.210) RX 1D4#F7070000C74600B7
(1739018390.210) RX 1F2#10640000001E030F
(1739018390.210) RX 11A#014000AAC0000003
(1739018390.213) RX 1DA#C064180000010322
(1739018390.214) RX 1C2#50
(1739018390.217) RX 1DB#FE60BF2A000003D5
(1739018390.217) RX 1DC#B40F8FFD08C0CB1B
(1739018390.220) RX 1D4#F70700000746007B
(1739018390.220) RX 1F2#10640000001E000C
(1739018390.220) RX 284#00000000000041C7
(1739018390.221) RX 50A#8532A00D8020
(1739018390.221) RX 11A#0140005500000115
(1739018390.223) RX 1DA#C064180000010028
(1739018390.224) RX 1C2#51
(1739018390.227) RX 1DB#FE60BF2A000000DF
(1739018390.227) RX 1DC#B40F8FFD0CCCD8E4
(1739018390.230) RX 1D4#F7070000474600BC
(1739018390.230) RX 1F2#10640000001E010D
(1739018390.231) RX 11A#01400055400002D8
(1739018390.233) RX 1DA#C0641800000101AD
(1739018390.234) RX 1C2#52
(1739018390.237) RX 1DB#FE60BF2A0000015A
(1739018390.237) RX 1DC#B40F8FFD0130C9CE
(1739018390.238) RX 55B#C800AA00E4801256
(1739018390.238) RX 5BC#59032C26B3052092
(1739018390.240) RX 1D4#F707000087460070
(1739018390.241) RX 1F2#10640000001E020E
(1739018390.241) RX 284#00000000000042C8
(1739018390.241) RX 50B#000006C00060
(1739018390.241) RX 11A#014000AA800003CE
(1739018390.243) RX 1DA#C0641800000102A7
(1739018390.243) RX 55A#002F2F005F315B68
(1739018390.244) RX 1C2#53
(1739018390.247) RX 1DB#FE60BF2A00000250
(1739018390.247) RX 1DC#B40F8FFD0520C64C
(1739018390.250) RX 11A#014000AAC0000003
(1739018390.251) RX 1D4#F7070000C74600B7
(1739018390.251) RX 1F2#10640000001E030F
(1739018390.252) RX 380#020410210000008D
(1739018390.252) RX 5BF#000000002800001A
(1739018390.253) RX 1DA#C064180000010322
(1739018390.254) RX 1C2#54
(1739018390.255) RX 54A#9E0070062600002C
(1739018390.256) RX 54B#007898121C000000
(1739018390.257) RX 54C#7166400000605800
(1739018390.257) RX 1DB#FE60BF2A000003D5
(1739018390.257) RX 1DC#B40F8FFD08C0CB1B
(1739018390.258) RX 54F#2701000007CB8A60
(1739018390.261) RX 1D4#F70700000746007B
(1739018390.261) RX 11A#0140005500000115
(1739018390.261) RX 1F2#10640000001E000C
(1739018390.262) RX 284#00000000000043C9
(1739018390.263) RX 1DA#C064180000010028
(1739018390.264) RX 1C2#55
(1739018390.267) RX 1DB#FE60BF2A000000DF
(1739018390.267) RX 1DC#B40F8FFD0CCCD8E4
(1739018390.271) RX 11A#01400055400002D8
(1739018390.271) RX 1D4#F7070000474600BC
(1739018390.271) RX 1F2#10640000001E010D
(1739018390.273) RX 1DA#C0641800000101AD
(1739018390.274) RX 1C2#56
(1739018390.277) RX 1DB#FE40BF2A0000010B
(1739018390.277) RX 1DC#B40F8FFD0130C9CE
(1739018390.281) RX 11A#014000AA800003CE
(1739018390.281) RX 1D4#F707000087460070
(1739018390.282) RX 1F2#10640000001E020E
(1739018390.282) RX 284#00000000000044CA
(1739018390.283) RX 1DA#C0641800000102A7
(1739018390.284) RX 1C2#57
(1739018390.287) RX 1DB#FE20BF2A000002F2
(1739018390.287) RX 1DC#B40F8FFD0520C64C
(1739018390.290) RX 11A#014000AAC0000003
(1739018390.292) RX 1D4#F7070000C74600B7
(1739018390.292) RX 1F2#10640000001E030F
(1739018390.293) RX 1DA#C064180000010322
(1739018390.294) RX 1C2#58
(1739018390.297) RX 1DB#FE20BF2A00000377
(1739018390.297) RX 1DC#B40F8FFD08C0CB1B
(1739018390.301) RX 11A#0140005500000115
(1739018390.302) RX 1D4#F70700000746007B
(1739018390.302) RX 1F2#10640000001E000C
(1739018390.302) RX 284#00000000000045CB
(1739018390.303) RX 50C#000000025D63
(1739018390.303) RX 1DA#C064180000010028
(1739018390.304) RX 1C2#59
(1739018390.307) RX 1DB#FE00BF2A0000002C
(1739018390.307) RX 1DC#B40F8FFD0CCCD8E4
(1739018390.311) RX 11A#01400055400002D8
(1739018390.312) RX 1D4#F7070000474600BC
(1739018390.312) RX 1F2#10640000001E010D
(1739018390.313) RX 1DA#C0641800000101AD
(1739018390.314) RX 1C2#5A
(1739018390.317) RX 1DB#FDE0BF2A00000192
(1739018390.318) RX 1DC#B40F8FFD0130C9CE
(1739018390.321) RX 11A#014000AA800003CE
(1739018390.322) RX 1D4#F707000087460070
(1739018390.323) RX 1F2#10640000001E020E
(1739018390.323) RX 1DA#C0641800000102A7
(1739018390.323) RX 284#00000000000046CC
(1739018390.323) RX 50A#8552A00D8020
(1739018390.324) RX 1C2#5B
(1739018390.327) RX 1DB#FDC0BF2A000002C9
(1739018390.327) RX 1DC#B40F8FFD0520C64C
(1739018390.330) RX 11A#014000AAC0000003
(1739018390.333) RX 1D4#F7070000C74600B7
(1739018390.333) RX 1DA#C064180000010322
(1739018390.333) RX 1F2#10640000001E030F
(1739018390.334) RX 1C2#5C
(1739018390.337) RX 1DB#FDA0BEEA0000036F
(1739018390.338) RX 1DC#B40F8FFD08C0CB1B
(1739018390.338) RX 55B#C8005500E4801394
(1739018390.338) RX 5BC#59032026B2054074
(1739018390.341) RX 11A#0140005500000115
(1739018390.343) RX 1DA#C064180000010028
(1739018390.343) RX 55A#002F2F005F315B68
(1739018390.343) RX 1D4#F70700000746007B
(1739018390.343) RX 1F2#10640000001E000C
(1739018390.344) RX 284#00000000000047CD
(1739018390.344) RX 50B#000006C00060
(1739018390.344) RX 1C2#5D
(1739018390.347) RX 1DB#FD80BEEA00000034
(1739018390.348) RX 1DC#B40F8FFD0CCCD8E4
(1739018390.348) RX 5C0#804C4C0004A01100
(1739018390.348) RX 5EB#E00FFFFFFFFFFFFF
(1739018390.351) RX 11A#01400055400002D8
(1739018390.352) RX 380#020410210000009E
(1739018390.352) RX 5BF#000000002800002B
(1739018390.353) RX 1DA#C0641800000101AD
(1739018390.353) RX 1D4#F7070000474600BC
(1739018390.353) RX 1F2#10640000001E010D
(1739018390.354) RX 1C2#5E
(1739018390.355) RX 54A#100070062600002C
(1739018390.356) RX 54B#007898121C000000
(1739018390.357) RX 54C#7166400000605800
(1739018390.357) RX 1DB#FD60BEEA00000183
(1739018390.358) RX 54F#27010000070B8A60
(1739018390.358) RX 1DC#B40F8FFD0130C9CE
(1739018390.361) RX 11A#014000AA800003CE
(1739018390.363) RX 1DA#C0641800000102A7
(1739018390.363) RX 1D4#F707000087460070
(1739018390.364) RX 1F2#10640000001E020E
(1739018390.364) RX 284#00000000000048CE
(1739018390.364) RX 1C2#5F
(1739018390.367) RX 1DB#FD40BEEA000002D8
(1739018390.368) RX 1DC#B40F8FFD0520C64C
(1739018390.370) RX 11A#014000AAC0000003
(1739018390.373) RX 1DA#C064180000010322
(1739018390.374) RX 1D4#F7070000C74600B7
(1739018390.374) RX 1F2#10640000001E030F
(1739018390.374) RX 1C2#50
(1739018390.377) RX 1DB#FD40BEEA0000035D
(1739018390.378) RX 1DC#B40F8FFD08C0CB1B
(1739018390.381) RX 11A#0140005500000115
(1739018390.383) RX 1DA#C064180000010028
(1739018390.384) RX 1D4#F70700000746007B
(1739018390.384) RX 1F2#10640000001E000C
(1739018390.384) RX 284#00000000000049CF
(1739018390.384) RX 1C2#51
(1739018390.387) RX 1DB#FD40BEEA00000057
(1739018390.388) RX 1DC#B40F8FFD0CCCD8E4
(1739018390.391) RX 11A#01400055400002D8
(1739018390.393) RX 1DA#C0641800000101AD
(1739018390.394) RX 1D4#F7070000474600BC
(1739018390.394) RX 1F2#10640000001E010D
(1739018390.394) RX 1C2#52
(1739018390.397) RX 1DB#FD40BEEA000001D2
(1739018390.398) RX 1DC#B40F8FFD0130C9CE
(1739018390.401) RX 11A#014000AA800003CE
(1739018390.403) RX 1DA#C0641800000102A7
(1739018390.404) RX 1D4#F707000087460070
(1739018390.404) RX 1C2#53
(1739018390.405) RX 1F2#10640000001E020E
(1739018390.405) RX 284#0000000000004AD0
(1739018390.405) RX 50C#00000003B29A
(1739018390.407) RX 1DB#FD40BEEA000002D8
(1739018390.408) RX 1DC#B40F8FFD0520C64C
(1739018390.410) RX 11A#014000AAC0000003
(1739018390.413) RX 1DA#C064180000010322
(1739018390.414) RX 1C2#54
(1739018390.415) RX 1D4#F7070000C74600B7
(1739018390.415) RX 1F2#10640000001E030F
(1739018390.415) RX 5A9#643BB01304300000
(1739018390.417) RX 1DB#FD60BEEA0000030C
(1739018390.418) RX 1DC#B40F8FFD08C0CB1B
(1739018390.421) RX 11A#0140005500000115
(1739018390.423) RX 1DA#C064180000010028
(1739018390.424) RX 1C2#55
(1739018390.425) RX 1D4#F70700000746007B
(1739018390.425) RX 1F2#10640000001E000C
(1739018390.425) RX 284#0000000000004BD1
(1739018390.425) RX 50A#8572A00D8020
(1739018390.427) RX 1DB#FD60BEEA00000006
(1739018390.428) RX 1DC#B40F8FFD0CCCD8E4
(1739018390.431) RX 11A#01400055400002D8
(1739018390.433) RX 1DA#C0641800000101AD
(1739018390.434) RX 1C2#56
(1739018390.435) RX 1D4#F7070000474600BC
(1739018390.435) RX 1F2#10640000001E010D
(1739018390.438) RX 1DB#FD60BEEA00000183
(1739018390.438) RX 1DC#B40F8FFD0130C9CE
(1739018390.438) RX 55B#C800AA00E5401000
(1739018390.439) RX 5BC#59032026B2054074
(1739018390.441) RX 11A#014000AA800003CE
(1739018390.443) RX 1DA#C0641800000102A7
(1739018390.443) RX 55A#002F2F005F315B68
(1739018390.444) RX 1C2#57
(1739018390.445) RX 1D4#F707000087460070
(1739018390.446) RX 1F2#10640000001E020E
(1739018390.446) RX 284#0000000000004CD2
(1739018390.446) RX 50B#000006C00060
(1739018390.447) RX 1DB#FD60BEEA00000289
(1739018390.448) RX 1DC#B40F8FFD0520C64C
(1739018390.450) RX 11A#014000AAC0000003
(1739018390.452) RX 380#02041021000000AF
(1739018390.452) RX 5BF#000000002800003C
(1739018390.453) RX 1DA#C064180000010322
(1739018390.454) RX 1C2#58
(1739018390.455) RX 54A#9E0070062600002C
(1739018390.455) RX 1D4#F7070000C74600B7
(1739018390.456) RX 1F2#10640000001E030F
(1739018390.456) RX 54B#007898121C000000
(1739018390.457) RX 54C#7166400000605800
(1739018390.458) RX 1DB#FD60BEEA0000030C
(1739018390.458) RX 54F#27010000074B8A60
(1739018390.458) RX 1DC#B40F8FFD08C0CB1B
(1739018390.461) RX 11A#0140005500000115
(1739018390.463) RX 1DA#C064180000010028
(1739018390.464) RX 1C2#59
(1739018390.466) RX 1D4#F70700000746007B
(1739018390.466) RX 1F2#10640000001E000C
(1739018390.466) RX 284#0000000000004DD3
(1739018390.468) RX 1DB#FD60BEEA00000006
(1739018390.468) RX 1DC#B40F8FFD0CCCD8E4
(1739018390.471) RX 11A#01400055400002D8
(1739018390.473) RX 1DA#C0641800000101AD
(1739018390.474) RX 1C2#5A
(1739018390.476) RX 1D4#F7070000474600BC
(1739018390.476) RX 1F2#10640000001E010D
(1739018390.478) RX 1DB#FD60BEEA00000183
(1739018390.478) RX 1DC#B40F8FFD0130C9CE
(1739018390.481) RX 11A#014000AA800003CE
(1739018390.483) RX 1DA#C0641800000102A7
(1739018390.484) RX 1C2#5B
(1739018390.486) RX 1D4#F707000087460070
(1739018390.486) RX 1F2#10640000001E020E
(1739018390.487) RX 284#0000000000004ED4
(1739018390.487) RX 5B9#67FF67FF28
(1739018390.488) RX 1DB#FD60BEEA00000289
(1739018390.488) RX 1DC#B40F8FFD0520C64C
(1739018390.490) RX 11A#014000AAC0000003
(1739018390.493) RX 1DA#C064180000010322
(1739018390.494) RX 1C2#5C
(1739018390.496) RX 1D4#F7070000C74600B7
(1739018390.497) RX 1F2#10640000001E030F
(1739018390.497) RX 284#0000000000004FD5
(1739018390.498) RX 1DB#FD60BEEA0000030C
(1739018390.498) RX 1DC#B40F8FFD08C0CB1B
(1739018390.501) RX 11A#0140005500000115
(1739018390.503) RX 1DA#C064180000010028
(1739018390.504) RX 1C2#5D
(1739018390.507) RX 1D4#F70700000746007B
(1739018390.507) RX 1F2#10640000001E000C
(1739018390.507) RX 50C#000000005DC8
(1739018390.508) RX 1DB#FD80BEEA00000034
(1739018390.508) RX 1DC#B40F8FFD0CCCD8E4
(1739018390.511) RX 11A#01400055400002D8
(1739018390.513) RX 1DA#C0641800000101AD
(1739018390.514) RX 1C2#5E
(1739018390.517) RX 1D4#F7070000474600BC
(1739018390.517) RX 1F2#10640000001E010D
(1739018390.517) RX 284#00000000000050D6
(1739018390.518) RX 1DB#FDA0BEEA000001E0
(1739018390.518) RX 1DC#B40F8FFD0130C9CE
(1739018390.521) RX 11A#014000AA800003CE
(1739018390.523) RX 1DA#C0641800000102A7
(1739018390.524) RX 1C2#5F
(1739018390.527) RX 1D4#F707000087460070
(1739018390.527) RX 1F2#10640000001E020E
(1739018390.528) RX 50A#8512A00D8020
(1739018390.528) RX 1DB#FDC0BEEA00000219
(1739018390.528) RX 1DC#B40F8FFD0520C64C
(1739018390.530) RX 11A#014000AAC0000003
(1739018390.533) RX 1DA#C064180000010322
(1739018390.535) RX 1C2#50
(1739018390.537) RX 1D4#F7070000C74600B7
(1739018390.538) RX 1F2#10640000001E030F
(1739018390.538) RX 284#00000000000051D7
(1739018390.538) RX 1DB#FDE0BEEA000003CD
(1739018390.538) RX 1DC#B40F8FFD08C0CB1B
(1739018390.539) RX 55B#C8005500E54011C2
(1739018390.539) RX 5BC#59032026B2054074
(1739018390.541) RX 11A#0140005500000115
(1739018390.543) RX 1DA#C064180000010028
(1739018390.543) RX 55A#00302E005F315B68
(1739018390.545) RX 1C2#51
(1739018390.548) RX 1D4#F70700000746007B
(1739018390.548) RX 1DB#FDE0BEEA000000C7
(1739018390.548) RX 1F2#10640000001E000C
(1739018390.548) RX 1DC#B40F8FFD0CCCD8E4
(1739018390.549) RX 50B#000006C00060
(1739018390.551) RX 11A#01400055400002D8
(1739018390.552) RX 380#02041021000000B0
(1739018390.552) RX 5BF#0000000028000009
(1739018390.553) RX 1DA#C0641800000101AD
(1739018390.555) RX 1C2#52
(1739018390.555) RX 54A#100070062600002C
(1739018390.556) RX 54B#007898121C000000
(1739018390.557) RX 54C#7166400000605800
(1739018390.558) RX 54F#27010000078B8A60
(1739018390.558) RX 1DB#FE00BF2A000001A9
(1739018390.558) RX 1D4#F7070000474600BC
(1739018390.558) RX 1DC#B40F8FFD0130C9CE
(1739018390.559) RX 1F2#10640000001E010D
(1739018390.559) RX 284#00000000000052D8
(1739018390.561) RX 11A#014000AA800003CE
(1739018390.563) RX 1DA#C0641800000102A7
(1739018390.565) RX 1C2#53
(1739018390.568) RX 1DB#FE20BF2A000002F2
(1739018390.568) RX 1DC#B40F8FFD0520C64C
(1739018390.568) RX 1D4#F707000087460070
(1739018390.569) RX 1F2#10640000001E020E
(1739018390.570) RX 11A#014000AAC0000003
(1739018390.573) RX 1DA#C064180000010322
(1739018390.575) RX 1C2#54
(1739018390.578) RX 1DB#FE40BF2A00000384
(1739018390.578) RX 1DC#B40F8FFD08C0CB1B
(1739018390.579) RX 1D4#F7070000C74600B7
(1739018390.579) RX 1F2#10640000001E030F
(1739018390.579) RX 284#00000000000053D9
(1739018390.581) RX 11A#0140005500000115
(1739018390.583) RX 1DA#C064180000010028
(1739018390.585) RX 1C2#55
(1739018390.588) RX 1DB#FE60BF2A000000DF
(1739018390.588) RX 1DC#B40F8FFD0CCCD8E4
(1739018390.589) RX 1D4#F70700000746007B
(1739018390.589) RX 1F2#10640000001E000C
(1739018390.591) RX 11A#01400055400002D8
(1739018390.593) RX 1DA#C0641800000101AD
(1739018390.595) RX 1C2#56
(1739018390.598) RX 1DB#FE60BF2A0000015A
(1739018390.598) RX 1DC#B40F8FFD0130C9CE
(1739018390.599) RX 1D4#F7070000474600BC
(1739018390.599) RX 1F2#10640000001E010D
(1739018390.599) RX 284#00000000000054DA
(1739018390.601) RX 11A#014000AA800003CE
(1739018390.603) RX 1DA#C0641800000102A7
(1739018390.605) RX 1C2#57
(1739018390.608) RX 1DB#FE60BF2A00000250
(1739018390.608) RX 1DC#B40F8FFD0520C64C
(1739018390.609) RX 1D4#F707000087460070
(1739018390.609) RX 1F2#10640000001E020E
(1739018390.610) RX 50C#00000001B231
(1739018390.610) RX 11A#014000AAC0000003
(1739018390.613) RX 1DA#C064180000010322
(1739018390.615) RX 1C2#58
(1739018390.618) RX 1DB#FE60BF2A000003D5
(1739018390.618) RX 1DC#B40F8FFD08C0CB1B
(1739018390.619) RX 1D4#F7070000C74600B7
(1739018390.620) RX 1F2#10640000001E030F
(1739018390.620) RX 284#00000000000055DB
(1739018390.621) RX 11A#0140005500000115
(1739018390.623) RX 1DA#C064180000010028
(1739018390.625) RX 1C2#59
(1739018390.628) RX 1DB#FE60BF2A000000DF
(1739018390.628) RX 1DC#B40F8FFD0CCCD8E4
(1739018390.630) RX 1D4#F70700000746007B
(1739018390.630) RX 1F2#10640000001E000C
(1739018390.630) RX 50A#8532A00D8020
(1739018390.631) RX 11A#01400055400002D8
(1739018390.633) RX 1DA#C0641800000101AD
(1739018390.635) RX 1C2#5A
(1739018390.638) RX 1DB#FE60BF2A0000015A
(1739018390.639) RX 1DC#B40F8FFD0130C9CE
(1739018390.639) RX 55B#C800AA00E5C01230
(1739018390.639) RX 5BC#59032026B2054074
(1739018390.640) RX 1D4#F7070000474600BC
(1739018390.640) RX 1F2#10640000001E010D
(1739018390.640) RX 284#00000000000056DC
(1739018390.641) RX 11A#014000AA800003CE
(1739018390.643) RX 1DA#C0641800000102A7
(1739018390.643) RX 55A#00302F005F315B68
(1739018390.645) RX 1C2#5B
(1739018390.648) RX 1DB#FE60BF2A00000250
(1739018390.648) RX 1DC#B40F8FFD0520C64C
(1739018390.650) RX 1D4#F707000087460070
(1739018390.650) RX 1F2#10640000001E020E
(1739018390.651) RX 11A#014000AAC0000003
(1739018390.651) RX 50B#000006C00060
(1739018390.652) RX 380#020410210000008D
(1739018390.652) RX 5BF#000000002800001A
(1739018390.653) RX 1DA#C064180000010322
(1739018390.655) RX 54A#9E0070062600002C
(1739018390.655) RX 1C2#5C
(1739018390.656) RX 54B#007898121C000000
(1739018390.657) RX 54C#7166400000605800
(1739018390.658) RX 54F#2701000007CB8A60
(1739018390.658) RX 1DB#FE60BF2A000003D5
(1739018390.658) RX 1DC#B40F8FFD08C0CB1B
(1739018390.660) RX 1D4#F7070000C74600B7
(1739018390.661) RX 1F2#10640000001E030F
(1739018390.661) RX 284#00000000000057DD
(1739018390.661) RX 11A#0140005500000115
(1739018390.663) RX 1DA#C064180000010028
(1739018390.665) RX 1C2#5D
(1739018390.668) RX 1DB#FE60BF2A000000DF
(1739018390.668) RX 1DC#B40F8FFD0CCCD8E4
(1739018390.671) RX 1D4#F70700000746007B
(1739018390.671) RX 11A#01400055400002D8
(1739018390.671) RX 1F2#10640000001E000C
(1739018390.673) RX 1DA#C0641800000101AD
(1739018390.675) RX 1C2#5E
(1739018390.678) RX 1DB#FE60BF2A0000015A
(1739018390.679) RX 1DC#B40F8FFD0130C9CE
(1739018390.681) RX 1D4#F7070000474600BC
(1739018390.681) RX 1F2#10640000001E010D
(1739018390.681) RX 11A#014000AA800003CE
(1739018390.682) RX 284#00000000000058DE
(1739018390.683) RX 1DA#C0641800000102A7
(1739018390.685) RX 1C2#5F
(1739018390.688) RX 1DB#FE60BF2A00000250
(1739018390.688) RX 1DC#B40F8FFD0520C64C
(1739018390.690) RX 11A#014000AAC0000003
(1739018390.691) RX 1D4#F707000087460070
(1739018390.691) RX 1F2#10640000001E020E
(1739018390.693) RX 1DA#C064180000010322
(1739018390.695) RX 1C2#50
(1739018390.698) RX 1DB#FE60BF2A000003D5
(1739018390.699) RX 1DC#B40F8FFD08C0CB1B
(1739018390.701) RX 11A#0140005500000115
(1739018390.701) RX 1D4#F7070000C74600B7
(1739018390.702) RX 1F2#10640000001E030F
(1739018390.702) RX 284#00000000000059DF
(1739018390.703) RX 1DA#C064180000010028
(1739018390.705) RX 1C2#51
(1739018390.708) RX 1DB#FE60BF2A000000DF
(1739018390.709) RX 1DC#B40F8FFD0CCCD8E4
(1739018390.711) RX 11A#01400055400002D8
(1739018390.712) RX 1D4#F70700000746007B
(1739018390.712) RX 1F2#10640000001E000C
(1739018390.712) RX 50C#000000025D63
(1739018390.713) RX 1DA#C0641800000101AD
(1739018390.715) RX 1C2#52
(1739018390.718) RX 1DB#FE60BF2A0000015A
(1739018390.719) RX 1DC#B40F8FFD0130C9CE
(1739018390.721) RX 11A#014000AA800003CE
(1739018390.722) RX 1D4#F7070000474600BC
(1739018390.722) RX 1F2#10640000001E010D
(1739018390.722) RX 284#0000000000005AE0
(1739018390.723) RX 1DA#C0641800000102A7
(1739018390.725) RX 1C2#53
(1739018390.728) RX 1DB#FE60BF2A00000250
(1739018390.729) RX 1DC#B40F8FFD0520C64C
(1739018390.730) RX 11A#014000AAC0000003
(1739018390.732) RX 1D4#F707000087460070
(1739018390.732) RX 1F2#10640000001E020E
(1739018390.732) RX 50A#8552A00D8020
(1739018390.733) RX 1DA#C064180000010322
(1739018390.735) RX 1C2#54
(1739018390.738) RX 1DB#FE60BF2A000003D5
(1739018390.739) RX 1DC#B40F8FFD08C0CB1B
(1739018390.739) RX 55B#C8005500E5C013F2
(1739018390.739) RX 5BC#59032026B2054074
(1739018390.741) RX 11A#0140005500000115
(1739018390.742) RX 1D4#F7070000C74600B7
(1739018390.743) RX 1F2#10640000001E030F
(1739018390.743) RX 1DA#C064180000010028
(1739018390.743) RX 284#0000000000005BE1
(1739018390.743) RX 55A#00302E005F315B68
(1739018390.745) RX 1C2#55
(1739018390.748) RX 1DB#FE60BF2A000000DF
(1739018390.749) RX 1DC#B40F8FFD0CCCD8E4
(1739018390.751) RX 11A#01400055400002D8
(1739018390.752) RX 380#020410210000009E
(1739018390.752) RX 5BF#000000002800002B
(1739018390.753) RX 1D4#F70700000746007B
(1739018390.753) RX 1DA#C0641800000101AD
(1739018390.753) RX 1F2#10640000001E000C
(1739018390.753) RX 50B#000006C00060
(1739018390.755) RX 54A#100070062600002C
(1739018390.755) RX 1C2#56
(1739018390.756) RX 54B#007898121C000000
(1739018390.757) RX 54C#7166400000605800
(1739018390.758) RX 54F#27010000070B8A60
(1739018390.758) RX 1DB#FE60BF2A0000015A
(1739018390.759) RX 1DC#B40F8FFD0130C9CE
(1739018390.761) RX 11A#014000AA800003CE
(1739018390.763) RX 1DA#C0641800000102A7
(1739018390.763) RX 1D4#F7070000474600BC
(1739018390.763) RX 1F2#10640000001E010D
(1739018390.763) RX 284#0000000000005CE2
(1739018390.765) RX 1C2#57
(1739018390.768) RX 1DB#FE60BF2A00000250
(1739018390.769) RX 1DC#B40F8FFD0520C64C
(1739018390.770) RX 11A#014000AAC0000003
(1739018390.773) RX 1DA#C064180000010322
(1739018390.773) RX 1D4#F707000087460070
(1739018390.773) RX 1F2#10640000001E020E
(1739018390.775) RX 1C2#58
(1739018390.778) RX 1DB#FE60BF2A000003D5
(1739018390.779) RX 1DC#B40F8FFD08C0CB1B
(1739018390.781) RX 11A#0140005500000115
(1739018390.783) RX 1DA#C064180000010028
(1739018390.783) RX 1D4#F7070000C74600B7
(1739018390.784) RX 1F2#10640000001E030F
(1739018390.784) RX 284#0000000000005DE3
(1739018390.785) RX 1C2#59
(1739018390.788) RX 1DB#FE60BF2A000000DF
(1739018390.789) RX 1DC#B40F8FFD0CCCD8E4
(1739018390.791) RX 11A#01400055400002D8
(1739018390.793) RX 1DA#C0641800000101AD
(1739018390.793) RX 1D4#F70700000746007B
(1739018390.794) RX 1F2#10640000001E000C
(1739018390.795) RX 1C2#5A
(1739018390.799) RX 1DB#FE60BF2A0000015A
(1739018390.799) RX 1DC#B40F8FFD0130C9CE
(1739018390.801) RX 11A#014000AA800003CE
(1739018390.803) RX 1DA#C0641800000102A7
(1739018390.804) RX 1D4#F7070000474600BC
(1739018390.804) RX 1F2#10640000001E010D
(1739018390.804) RX 284#0000000000005EE4
(1739018390.805) RX 1C2#5B
(1739018390.809) RX 1DB#FE60BF2A00000250
(1739018390.809) RX 1DC#B40F8FFD0520C64C
(1739018390.810) RX 11A#014000AAC0000003
(1739018390.813) RX 1DA#C064180000010322
(1739018390.814) RX 1D4#F707000087460070
(1739018390.814) RX 1F2#10640000001E020E
(1739018390.814) RX 50C#00000003B29A
(1739018390.815) RX 1C2#5C
(1739018390.819) RX 1DB#FE60BF2A000003D5
(1739018390.819) RX 1DC#B40F8FFD08C0CB1B
(1739018390.821) RX 11A#0140005500000115
(1739018390.823) RX 1DA#C064180000010028
(1739018390.824) RX 1D4#F7070000C74600B7
(1739018390.824) RX 1F2#10640000001E030F
(1739018390.825) RX 284#0000000000005FE5
(1739018390.825) RX 1C2#5D
(1739018390.829) RX 1DB#FE60BF2A000000DF
(1739018390.829) RX 1DC#B40F8FFD0CCCD8E4
(1739018390.831) RX 11A#01400055400002D8
(1739018390.833) RX 1DA#C0641800000101AD
(1739018390.834) RX 1D4#F70700000746007B
(1739018390.835) RX 1F2#10640000001E000C
(1739018390.835) RX 50A#8572A00D8020
(1739018390.835) RX 1C2#5E
(1739018390.839) RX 1DB#FE60BF2A0000015A
(1739018390.839) RX 1DC#B40F8FFD0130C9CE
(1739018390.839) RX 55B#C800AA00E5C010BF
(1739018390.840) RX 5BC#59032C26B30620A0
(1739018390.841) RX 11A#014000AA800003CE
(1739018390.843) RX 1DA#C0641800000102A7
(1739018390.843) RX 55A#002F2E005F315B68
(1739018390.845) RX 1D4#F7070000474600BC
(1739018390.845) RX 1F2#10640000001E010D
(1739018390.845) RX 284#00000000000060E6
(1739018390.845) RX 1C2#5F
(1739018390.849) RX 1DB#FE60BF2A00000250
(1739018390.849) RX 1DC#B40F8FFD0520C64C
(1739018390.849) RX 5C0#404C4C0004E41100
(1739018390.850) RX 5EB#E00FFFFFFFFFFFFF
(1739018390.850) RX 11A#014000AAC0000003
(1739018390.852) RX 380#02041021000000AF
(1739018390.853) RX 5BF#000000002800003C
(1739018390.853) RX 1DA#C064180000010322
(1739018390.855) RX 1D4#F707000087460070
(1739018390.855) RX 1F2#10640000001E020E
(1739018390.855) RX 1C2#50
(1739018390.856) RX 50B#000006C00060
(1739018390.856) RX 54A#9E0070062600002C
(1739018390.857) RX 54B#007898121C000000
(1739018390.858) RX 54C#7166400000605800
(1739018390.859) RX 1DB#FE60BF2A000003D5
(1739018390.859) RX 54F#27010000074A8A60
(1739018390.859) RX 1DC#B40F8FFD08C0CB1B
(1739018390.861) RX 11A#0140005500000115
(1739018390.863) RX 1DA#C064180000010028
(1739018390.865) RX 1D4#F7070000C74600B7
(1739018390.866) RX 1C2#51
(1739018390.866) RX 1F2#10640000001E030F
(1739018390.866) RX 284#00000000000061E7
(1739018390.869) RX 1DB#FE60BF2A000000DF
(1739018390.869) RX 1DC#B40F8FFD0CCCD8E4
(1739018390.871) RX 11A#01400055400002D8
(1739018390.873) RX 1DA#C0641800000101AD
(1739018390.875) RX 1C2#52
(1739018390.876) RX 1D4#F70700000746007B
(1739018390.876) RX 1F2#10640000001E000C
(1739018390.879) RX 1DB#FE60BF2A0000015A
(1739018390.879) RX 1DC#B40F8FFD0130C9CE
(1739018390.881) RX 11A#014000AA800003CE
(1739018390.883) RX 1DA#C0641800000102A7
(1739018390.885) RX 1C2#53
(1739018390.886) RX 1D4#F7070000474600BC
(1739018390.886) RX 1F2#10640000001E010D
(1739018390.886) RX 284#00000000000062E8
(1739018390.889) RX 1DB#FE60BF2A00000250
(1739018390.889) RX 1DC#B40F8FFD0520C64C
(1739018390.890) RX 11A#014000AAC0000003
(1739018390.893) RX 1DA#C064180000010322
(1739018390.895) RX 1C2#54
(1739018390.896) RX 1D4#F707000087460070
(1739018390.896) RX 1F2#10640000001E020E
(1739018390.899) RX 1DB#FE60BF2A000003D5
(1739018390.899) RX 1DC#B40F8FFD08C0CB1B
(1739018390.901) RX 11A#0140005500000115
(1739018390.903) RX 1DA#C064180000010028
(1739018390.905) RX 1C2#55
(1739018390.906) RX 1D4#F7070000C74600B7
(1739018390.906) RX 1F2#10640000001E030F
(1739018390.907) RX 284#00000000000063E9
(1739018390.909) RX 1DB#FE60BF2A000000DF
(1739018390.909) RX 1DC#B40F8FFD0CCCD8E4
(1739018390.911) RX 11A#01400055400002D8
(1739018390.913) RX 1DA#C0641800000101AD
(1739018390.915) RX 1C2#56
(1739018390.916) RX 1D4#F70700000746007B
(1739018390.917) RX 1F2#10640000001E000C
(1739018390.917) RX 284#00000000000064EA
(1739018390.917) RX 50C#000000005DC8
(1739018390.919) RX 1DB#FE60BF2A0000015A
(1739018390.919) RX 1DC#B40F8FFD0130C9CE
(1739018390.921) RX 11A#014000AA800003CE
(1739018390.922) RX 1DA#C0641800000102A7
(1739018390.925) RX 1C2#57
(1739018390.927) RX 1D4#F7070000474600BC
(1739018390.927) RX 1F2#10640000001E010D
(1739018390.927) RX 5A9#643BB01304300000
(1739018390.929) RX 1DB#FE60BF2A00000250
(1739018390.929) RX 1DC#B40F8FFD0520C64C
(1739018390.930) RX 11A#014000AAC0000003
(1739018390.932) RX 1DA#C064180000010322
(1739018390.935) RX 1C2#58
(1739018390.937) RX 1D4#F707000087460070
(1739018390.937) RX 1F2#10640000001E020E
(1739018390.937) RX 284#00000000000065EB
(1739018390.938) RX 50A#8512A00D8020
(1739018390.939) RX 1DB#FE60BF2A000003D5
(1739018390.939) RX 1DC#B40F8FFD08C0CB1B
(1739018390.940) RX 55B#C8005500E60011D7
(1739018390.940) RX 5BC#59032C26B30620A0
(1739018390.941) RX 11A#0140005500000115
(1739018390.943) RX 1DA#C064180000010028
(1739018390.943) RX 55A#002F2F005F315B68
(1739018390.945) RX 1C2#59
(1739018390.947) RX 1D4#F7070000C74600B7
(1739018390.947) RX 1F2#10640000001E030F
(1739018390.949) RX 1DB#FE60BF2A000000DF
(1739018390.949) RX 1DC#B40F8FFD0CCCD8E4
(1739018390.951) RX 11A#01400055400002D8
(1739018390.952) RX 380#02041021000000B0
(1739018390.953) RX 1DA#C0641800000101AD
(1739018390.953) RX 5BF#0000000028000009
(1739018390.955) RX 1C2#5A
(1739018390.956) RX 54A#100070062600002C
(1739018390.957) RX 54B#007898121C000000
(1739018390.957) RX 1D4#F70700000746007B
(1739018390.958) RX 1F2#10640000001E000C
(1739018390.958) RX 284#00000000000066EC
(1739018390.958) RX 50B#000006C00060
(1739018390.958) RX 54C#7166400000605800
(1739018390.959) RX 54F#27010000078A8A60
(1739018390.959) RX 1DB#FE60BF2A0000015A
(1739018390.960) RX 1DC#B40F8FFD0130C9CE
(1739018390.961) RX 11A#014000AA800003CE
(1739018390.962) RX 1DA#C0641800000102A7
(1739018390.966) RX 1C2#5B
(1739018390.968) RX 1D4#F7070000474600BC
(1739018390.968) RX 1F2#10640000001E010D
(1739018390.969) RX 1DB#FE60BF2A00000250
(1739018390.969) RX 1DC#B40F8FFD0520C64C
(1739018390.970) RX 11A#014000AAC0000003
(1739018390.972) RX 1DA#C064180000010322
(1739018390.976) RX 1C2#5C
(1739018390.978) RX 1D4#F707000087460070
(1739018390.978) RX 1F2#10640000001E020E
(1739018390.978) RX 284#00000000000067ED
(1739018390.979) RX 1DB#FE60BF2A000003D5
(1739018390.979) RX 1DC#B40F8FFD08C0CB1B
(1739018390.981) RX 11A#0140005500000115
(1739018390.982) RX 1DA#C064180000010028
(1739018390.986) RX 1C2#5D
(1739018390.988) RX 1D4#F7070000C74600B7
(1739018390.988) RX 1F2#10640000001E030F
(1739018390.989) RX 1DB#FE60BF2A000000DF
(1739018390.989) RX 1DC#B40F8FFD0CCCD8E4
(1739018390.991) RX 11A#01400055400002D8
(1739018390.992) RX 1DA#C0641800000101AD
(1739018390.996) RX 1C2#5E
(1739018390.998) RX 1D4#F70700000746007B
(1739018390.999) RX 1F2#10640000001E000C
(1739018390.999) RX 284#00000000000068EE
(1739018390.999) RX 5B9#67FF67FF28
(1739018390.999) RX 1DB#FE60BF2A0000015A
(1739018391.000) RX 1DC#B40F8FFD0130C9CE
(1739018391.001) RX 11A#014000AA800003CE
(1739018391.002) RX 1DA#C0641800000102A7
(1739018391.006) RX 1C2#5F
(1739018391.009) RX 1D4#F7070000474600BC
(1739018391.009) RX 1F2#10640000001E010D
(1739018391.009) RX 1DB#FE60BF2A00000250
(1739018391.010) RX 1DC#B40F8FFD0520C64C
(1739018391.010) RX 11A#014000AAC0000003
(1739018391.012) RX 1DA#C064180000010322
(1739018391.016) RX 1C2#50
(1739018391.019) RX 1D4#F707000087460070
(1739018391.019) RX 1F2#10640000001E020E
(1739018391.019) RX 1DB#FE60BF2A000003D5
(1739018391.020) RX 284#00000000000069EF
(1739018391.020) RX 1DC#B40F8FFD08C0CB1B
(1739018391.020) RX 50C#00000001B231
(1739018391.021) RX 11A#0140005500000115
(1739018391.022) RX 1DA#C064180000010028
(1739018391.026) RX 1C2#51
(1739018391.029) RX 1D4#F7070000C74600B7
(1739018391.029) RX 1DB#FE60BF2A000000DF
(1739018391.030) RX 1F2#10640000001E030F
(1739018391.030) RX 1DC#B40F8FFD0CCCD8E4
(1739018391.031) RX 11A#01400055400002D8
(1739018391.032) RX 1DA#C0641800000101AD
(1739018391.036) RX 1C2#52
(1739018391.039) RX 1DB#FE60BF2A0000015A
(1739018391.040) RX 1D4#F70700000746007B
(1739018391.040) RX 1DC#B40F8FFD0130C9CE
(1739018391.040) RX 1F2#10640000001E000C
(1739018391.040) RX 284#0000000000006AF0
(1739018391.040) RX 50A#8532A00D8020
(1739018391.041) RX 55B#C800AA00E600129A
(1739018391.041) RX 5BC#59032C26B30620A0
(1739018391.041) RX 11A#014000AA800003CE
(1739018391.042) RX 1DA#C0641800000102A7
(1739018391.043) RX 55A#002F2E005F315B68
(1739018391.046) RX 1C2#53
(1739018391.049) RX 1DB#FE60BF2A00000250
(1739018391.049) RX 1DC#B40F8FFD0520C64C
(1739018391.050) RX 1D4#F7070000474600BC
(1739018391.050) RX 1F2#10640000001E010D
(1739018391.050) RX 11A#014000AAC0000003
(1739018391.052) RX 1DA#C064180000010322
(1739018391.053) RX 380#020410210000008D
(1739018391.053) RX 5BF#000000002800001A
(1739018391.055) RX 54A#9E0070062600002C
(1739018391.056) RX 1C2#54
(1739018391.056) RX 54B#007898121C000000
(1739018391.057) RX 54C#7166400000605800
(1739018391.058) RX 54F#2701000007CA8A60
(1739018391.059) RX 1DB#FE60BF2A000003D5
(1739018391.060) RX 1DC#B40F8FFD08C0CB1B
(1739018391.060) RX 1D4#F707000087460070
(1739018391.060) RX 1F2#10640000001E020E
(1739018391.060) RX 284#0000000000006BF1
(1739018391.061) RX 50B#000006C00060
(1739018391.061) RX 11A#0140005500000115
(1739018391.062) RX 1DA#C064180000010028
(1739018391.066) RX 1C2#55
(1739018391.069) RX 1DB#FE60BF2A000000DF
(1739018391.070) RX 1DC#B40F8FFD0CCCD8E4
(1739018391.070) RX 1D4#F7070000C74600B7
(1739018391.070) RX 1F2#10640000001E030F
(1739018391.071) RX 11A#01400055400002D8
(1739018391.072) RX 1DA#C0641800000101AD
(1739018391.076) RX 1C2#56
(1739018391.079) RX 1DB#FE60BF2A0000015A
(1739018391.080) RX 1DC#B40F8FFD0130C9CE
(1739018391.080) RX 1D4#F70700000746007B
(1739018391.081) RX 1F2#10640000001E000C
(1739018391.081) RX 284#0000000000006CF2
(1739018391.081) RX 11A#014000AA800003CE
(1739018391.082) RX 1DA#C0641800000102A7
(1739018391.086) RX 1C2#57
(1739018391.089) RX 1DB#FE60BF2A00000250
(1739018391.090) RX 1DC#B40F8FFD0520C64C
(1739018391.090) RX 11A#014000AAC0000003
(1739018391.091) RX 1D4#F7070000474600BC
(1739018391.091) RX 1F2#10640000001E010D
(1739018391.092) RX 1DA#C064180000010322
(1739018391.096) RX 1C2#58
(1739018391.099) RX 1DB#FE40BF2A00000384
(1739018391.100) RX 1DC#B40F8FFD08C0CB1B
(1739018391.101) RX 1D4#F707000087460070
(1739018391.101) RX 1F2#10640000001E020E
(1739018391.101) RX 11A#0140005500000115
(1739018391.102) RX 284#0000000000006DF3
(1739018391.102) RX 1DA#C064180000010028
(1739018391.106) RX 1C2#59
(1739018391.109) RX 1DB#FE20BF2A0000007D
(1739018391.110) RX 1DC#B40F8FFD0CCCD8E4
(1739018391.111) RX 11A#01400055400002D8
(1739018391.111) RX 1D4#F7070000C74600B7
(1739018391.111) RX 1F2#10640000001E030F
(1739018391.112) RX 1DA#C0641800000101AD
(1739018391.116) RX 1C2#5A
(1739018391.119) RX 1DB#FE00BF2A000001A9
(1739018391.120) RX 1DC#B40F8FFD0130C9CE
(1739018391.121) RX 11A#014000AA800003CE
(1739018391.121) RX 1D4#F70700000746007B
(1739018391.122) RX 1F2#10640000001E000C
(1739018391.122) RX 284#0000000000006EF4
(1739018391.122) RX 50C#000000025D63
 D5
(1739018391.060) RX 1DC#B40F8FFD08C0CB1B
(1739018391.060) RX 1D4#F707000087460070
(1739018391.060) RX 1F2#10640000001E020E
(1739018391.060) RX 284#0000000000006BF1
(1739018391.061) RX 50B#000006C00060
(1739018391.102) RX 1DA#C064180000010028
(1739018391.106) RX 1C2#59
(1739018391.109) RX 1DB#FE20BF2A0000007D
(1739018391.110) RX 1DC#B40F8FFD0CCCD8E4
(1739018391.111) RX 11A#01400055400002D8
(1739018391.111) RX 1D4#F7070000C74600B7
(1739018391.111) RX 1F2#10640000001E030F
(1739018391.132) RX 1DA#C064180000010322
(1739018391.136) RX 1C2#5C
(1739018391.140) RX 1DB#FDE0BF2A0000031D
(1739018391.140) RX 1DC#B40F8FFD08C0CB1B
(1739018391.140) RX 55B#C8005500E580136F
(1739018391.141) RX 5BC#59032C26B30620A0
(1739018391.141) RX 11A#0140005500000115
(1739018391.142) RX 1D4#F707000087460070
(1739018391.142) RX 1F2#10640000001E020E
(1739018391.142) RX 284#0000000000006FF5
(1739018391.143) RX 1DA#C064180000010028
(1739018391.143) RX 50A#8552A00D8020
(1739018391.143) RX 55A#002F2E005F315B68
(1739018391.146) RX 1C2#5D
(1739018391.149) RX 1DB#FDC0BF2A00000046
(1739018391.150) RX 1DC#B40F8FFD0CCCD8E4
(1739018391.151) RX 11A#01400055400002D8
(1739018391.152) RX 1D4#F7070000C74600B7
(1739018391.152) RX 1F2#10640000001E030F
(1739018391.153) RX 1DA#C0641800000101AD
(1739018391.153) RX 380#020410210000009E
(1739018391.153) RX 5BF#000000002800002B
(1739018391.155) RX 54A#100070062600002C
(1739018391.156) RX 1C2#5E
(1739018391.156) RX 54B#007898121C000000
(1739018391.157) RX 54C#7166400000605800
(1739018391.158) RX 54F#28010000070B8A60
(1739018391.160) RX 1DB#FDA0BEEA000001E0
(1739018391.160) RX 1DC#B40F8FFD0130C9CE
(1739018391.161) RX 11A#014000AA800003CE
(1739018391.162) RX 1D4#F70700000746007B
(1739018391.163) RX 1DA#C0641800000102A7
(1739018391.163) RX 1F2#10640000001E000C
(1739018391.163) RX 284#00000000000070F6
(1739018391.163) RX 50B#000006C00060
(1739018391.166) RX 1C2#5F
(1739018391.170) RX 1DB#FD80BEEA000002BB
(1739018391.170) RX 1DC#B40F8FFD0520C64C
(1739018391.170) RX 11A#014000AAC0000003
(1739018391.172) RX 1DA#C064180000010322
(1739018391.173) RX 1D4#F7070000474600BC
(1739018391.173) RX 1F2#10640000001E010D
(1739018391.176) RX 1C2#50
(1739018391.177) RX 54A#9E0070072600002C
(1739018391.178) RX 54B#0078981224000001
(1739018391.179) RX 54C#7166400000605800
(1739018391.180) RX 1DB#FD60BEEA0000030C
(1739018391.180) RX 1DC#B40F8FFD08C0CB1B
(1739018391.180) RX 54F#28010000074A8A60
(1739018391.181) RX 11A#0140005500000115
(1739018391.182) RX 1DA#C064180000010028
(1739018391.183) RX 1D4#F707000087460070
(1739018391.183) RX 1F2#10640000001E020E
(1739018391.183) RX 284#00000000000071F7
(1739018391.186) RX 1C2#51
(1739018391.190) RX 1DB#FD40BEEA00000057
(1739018391.190) RX 1DC#B40F8FFD0CCCD8E4
(1739018391.191) RX 11A#01400055400002D8
(1739018391.192) RX 1DA#C0641800000101AD
(1739018391.193) RX 1D4#F7070000C74600B7
(1739018391.193) RX 1F2#10640000001E030F
(1739018391.196) RX 1C2#52
(1739018391.200) RX 1DB#FD40BEEA000001D2
(1739018391.200) RX 1DC#B40F8FFD0130C9CE
(1739018391.201) RX 11A#014000AA800003CE
(1739018391.202) RX 1DA#C0641800000102A7
(1739018391.203) RX 1D4#F70700000746007B
(1739018391.203) RX 1F2#10640000001E000C
(1739018391.204) RX 284#00000000000072F8
(1739018391.206) RX 1C2#53
(1739018391.210) RX 1DB#FD40BEEA000002D8
(1739018391.210) RX 1DC#B40F8FFD0520C64C
(1739018391.210) RX 11A#014000AAC0000003
(1739018391.212) RX 1DA#C064180000010322
(1739018391.214) RX 1D4#F7070000474600BC
(1739018391.214) RX 1F2#10640000001E010D
(1739018391.216) RX 1C2#54
(1739018391.220) RX 1DB#FD60BEEA0000030C
(1739018391.220) RX 1DC#B40F8FFD08C0CB1B
(1739018391.221) RX 11A#0140005500000115
(1739018391.222) RX 1DA#C064180000010028
(1739018391.224) RX 1D4#F707000087460070
(1739018391.224) RX 1F2#10640000001E020E
(1739018391.224) RX 284#00000000000073F9
(1739018391.224) RX 50C#00000003B29A
(1739018391.226) RX 1C2#55
(1739018391.230) RX 1DB#FD60BEEA00000006
(1739018391.230) RX 1DC#B40F8FFD0CCCD8E4
(1739018391.231) RX 11A#01400055400002D8
(1739018391.232) RX 1DA#C0641800000101AD
(1739018391.234) RX 1D4#F7070000C74600B7
(1739018391.234) RX 1F2#10640000001E030F
(1739018391.236) RX 1C2#56
(1739018391.240) RX 1DB#FD60BEEA00000183
(1739018391.240) RX 1DC#B40F8FFD0130C9CE
(1739018391.241) RX 55B#C800AA00E5801022
(1739018391.241) RX 5BC#59032C26B30620A0
(1739018391.241) RX 11A#014000AA800003CE
(1739018391.242) RX 1DA#C0641800000102A7
(1739018391.243) RX 55A#002F2F005F315B68
(1739018391.244) RX 1D4#F70700000746007B
(1739018391.245) RX 1F2#10640000001E000C
(1739018391.245) RX 284#00000000000074FA
(1739018391.245) RX 50A#8572A00D8020
(1739018391.246) RX 1C2#57
(1739018391.250) RX 1DB#FD60BEEA00000289
(1739018391.250) RX 1DC#B40F8FFD0520C64C
(1739018391.250) RX 11A#014000AAC0000003
(1739018391.252) RX 1DA#C064180000010322
(1739018391.253) RX 380#02041021000000AF
(1739018391.253) RX 5BF#000000002800003C
(1739018391.254) RX 1D4#F7070000474600BC
(1739018391.255) RX 1F2#10640000001E010D
(1739018391.256) RX 1C2#58
(1739018391.260) RX 1DB#FD60BEEA0000030C
(1739018391.260) RX 1DC#B40F8FFD08C0CB1B
(1739018391.261) RX 11A#0140005500000115
(1739018391.262) RX 1DA#C064180000010028
(1739018391.265) RX 1D4#F707000087460070
(1739018391.265) RX 1F2#10640000001E020E
(1739018391.265) RX 284#00000000000075FB
(1739018391.265) RX 50B#000006C00060
(1739018391.266) RX 1C2#59
(1739018391.270) RX 1DB#FD60BEEA00000006
(1739018391.270) RX 1DC#B40F8FFD0CCCD8E4
(1739018391.271) RX 11A#01400055400002D8
(1739018391.272) RX 1DA#C0641800000101AD
(1739018391.275) RX 1D4#F7070000C74600B7
(1739018391.275) RX 1F2#10640000001E030F
(1739018391.275) RX 54A#100070072600002C
(1739018391.276) RX 54B#0078981224000001
(1739018391.276) RX 1C2#5A
(1739018391.277) RX 54C#7166400000605800
(1739018391.278) RX 54F#28010000078A8A60
(1739018391.280) RX 1DB#FD60BEEA00000183
(1739018391.280) RX 1DC#B40F8FFD0130C9CE
(1739018391.281) RX 11A#014000AA800003CE
(1739018391.282) RX 1DA#C0641800000102A7
(1739018391.285) RX 1D4#F70700000746007B
(1739018391.286) RX 1F2#10640000001E000C
(1739018391.286) RX 284#00000000000076FC
(1739018391.286) RX 1C2#5B
(1739018391.290) RX 1DB#FD60BEEA00000289
(1739018391.290) RX 1DC#B40F8FFD0520C64C
(1739018391.290) RX 11A#014000AAC0000003
(1739018391.292) RX 1DA#C064180000010322
(1739018391.295) RX 1D4#F7070000474600BC
(1739018391.296) RX 1F2#10640000001E010D
(1739018391.296) RX 1C2#5C
(1739018391.300) RX 1DB#FD60BEEA0000030C
(1739018391.300) RX 1DC#B40F8FFD08C0CB1B
(1739018391.301) RX 11A#0140005500000115
(1739018391.302) RX 1DA#C064180000010028
(1739018391.306) RX 1D4#F707000087460070
(1739018391.306) RX 1F2#10640000001E020E
(1739018391.306) RX 284#00000000000077FD
(1739018391.307) RX 1C2#5D
(1739018391.310) RX 1DB#FD60BEEA00000006
(1739018391.310) RX 1DC#B40F8FFD0CCCD8E4
(1739018391.311) RX 11A#01400055400002D8
(1739018391.312) RX 1DA#C0641800000101AD
(1739018391.316) RX 1D4#F7070000C74600B7
(1739018391.316) RX 1F2#10640000001E030F
(1739018391.317) RX 1C2#5E
(1739018391.320) RX 1DB#FD80BEEA000001B1
(1739018391.320) RX 1DC#B40F8FFD0130C9CE
(1739018391.321) RX 11A#014000AA800003CE
(1739018391.322) RX 1DA#C0641800000102A7
(1739018391.326) RX 1D4#F70700000746007B
(1739018391.326) RX 1F2#10640000001E000C
(1739018391.327) RX 1C2#5F
(1739018391.327) RX 284#00000000000078FE
(1739018391.327) RX 50C#000000005DC8
(1739018391.330) RX 1DB#FDA0BEEA000002EA
(1739018391.330) RX 11A#014000AAC0000003
(1739018391.331) RX 1DC#B40F8FFD0520C64C
(1739018391.332) RX 1DA#C064180000010322
(1739018391.336) RX 1D4#F7070000474600BC
(1739018391.337) RX 1C2#50
(1739018391.337) RX 1F2#10640000001E010D
(1739018391.337) RX 284#00000000000079FF
 981224000001
(1739018391.276) RX 1C2#5A
(1739018391.320) RX 1DB#FD80BEEA000001B1
(1739018391.320) RX 1DC#B40F8FFD0130C9CE
(1739018391.321) RX 11A#014000AA800003CE
(1739018391.322) RX 1DA#C0641800000102A7
(1739018391.326) RX 1D4#F70700000746007B
(1739018391.326) RX 1F2#10640000001E000C
(1739018391.327) RX 1C2#5F
(1739018391.327) RX 284#00000000000078FE
(1739018391.340) RX 1DB#FDA0BEEA0000036F
(1739018391.340) RX 1DC#B40F8FFD08C0CB1B
(1739018391.341) RX 55B#C8005500E58011E0
(1739018391.341) RX 11A#0140005500000115
(1739018391.341) RX 5BC#59032026B2064080
(1739018391.342) RX 1DA#C064180000010028
(1739018391.343) RX 55A#002F2F005F315B68
(1739018391.347) RX 1D4#F707000087460070
(1739018391.347) RX 1C2#51
(1739018391.347) RX 1F2#10640000001E020E
(1739018391.347) RX 50A#8512A00D8020
(1739018391.350) RX 1DB#FDC0BEEA00000096
(1739018391.350) RX 1DC#B40F8FFD0CCCD8E4
(1739018391.351) RX 11A#01400055400002D8
(1739018391.351) RX 5C0#C04C4C0004541100
(1739018391.351) RX 5EB#E00FFFFFFFFFFFFF
(1739018391.352) RX 1DA#C0641800000101AD
(1739018391.353) RX 380#02041021000000B0
(1739018391.353) RX 5BF#0000000028000009
(1739018391.356) RX 1C2#52
(1739018391.357) RX 1D4#F7070000C74600B7
(1739018391.357) RX 1F2#10640000001E030F
(1739018391.357) RX 284#0000000000007A00
(1739018391.360) RX 1DB#FDE0BEEA00000142
(1739018391.360) RX 1DC#B40F8FFD0130C9CE
(1739018391.361) RX 11A#014000AA800003CE
(1739018391.362) RX 1DA#C0641800000102A7
(1739018391.367) RX 1C2#53
(1739018391.367) RX 1D4#F70700000746007B
(1739018391.367) RX 1F2#10640000001E000C
(1739018391.368) RX 50B#000006C00060
(1739018391.370) RX 1DB#FE00BEEA00000273
(1739018391.370) RX 11A#014000AAC0000003
(1739018391.371) RX 1DC#B40F8FFD0520C64C
(1739018391.372) RX 1DA#C064180000010322
(1739018391.375) RX 54A#9E0070072600002C
(1739018391.376) RX 54B#0078981224000001
(1739018391.377) RX 1C2#54
(1739018391.377) RX 54C#7166400000685800
(1739018391.378) RX 1D4#F7070000474600BC
(1739018391.378) RX 1F2#10640000001E010D
(1739018391.378) RX 284#0000000000007B01
(1739018391.378) RX 54F#2801000007CB8A60
(1739018391.380) RX 1DB#FE20BF2A00000377
(1739018391.380) RX 1DC#B40F8FFD08C0CB1B
(1739018391.381) RX 11A#0140005500000115
(1739018391.382) RX 1DA#C064180000010028
(1739018391.387) RX 1C2#55
(1739018391.388) RX 1D4#F707000087460070
(1739018391.388) RX 1F2#10640000001E020E
(1739018391.390) RX 1DB#FE20BF2A0000007D
(1739018391.390) RX 1DC#B40F8FFD0CCCD8E4
(1739018391.391) RX 11A#01400055400002D8
(1739018391.392) RX 1DA#C0641800000101AD
(1739018391.397) RX 1C2#56
(1739018391.398) RX 1D4#F7070000C74600B7
(1739018391.398) RX 1F2#10640000001E030F
(1739018391.398) RX 284#0000000000007C02
(1739018391.400) RX 1DB#FE40BF2A0000010B
(1739018391.401) RX 1DC#B40F8FFD0130C9CE
(1739018391.401) RX 11A#014000AA800003CE
(1739018391.402) RX 1DA#C0641800000102A7
(1739018391.407) RX 1C2#57
(1739018391.408) RX 1D4#F70700000746007B
(1739018391.408) RX 1F2#10640000001E000C
(1739018391.410) RX 1DB#FE60BF2A00000250
(1739018391.410) RX 11A#014000AAC0000003
(1739018391.411) RX 1DC#B40F8FFD0520C64C
(1739018391.412) RX 1DA#C064180000010322
(1739018391.417) RX 1C2#58
(1739018391.418) RX 1D4#F7070000474600BC
(1739018391.419) RX 1F2#10640000001E010D
(1739018391.419) RX 284#0000000000007D03
(1739018391.420) RX 1DB#FE60BF2A000003D5
(1739018391.421) RX 1DC#B40F8FFD08C0CB1B
(1739018391.421) RX 11A#0140005500000115
(1739018391.422) RX 1DA#C064180000010028
(1739018391.427) RX 1C2#59
(1739018391.429) RX 1D4#F707000087460070
(1739018391.429) RX 1F2#10640000001E020E
(1739018391.429) RX 50C#00000001B231
(1739018391.430) RX 1DB#FE60BF2A000000DF
(1739018391.431) RX 1DC#B40F8FFD0CCCD8E4
(1739018391.431) RX 11A#01400055400002D8
(1739018391.432) RX 1DA#C0641800000101AD
(1739018391.437) RX 1C2#5A
(1739018391.439) RX 1D4#F7070000C74600B7
(1739018391.439) RX 1F2#10640000001E030F
(1739018391.439) RX 284#0000000000007E04
(1739018391.440) RX 5A9#643BB01304300000
(1739018391.440) RX 1DB#FE60BF2A0000015A
(1739018391.441) RX 1DC#B40F8FFD0130C9CE
(1739018391.441) RX 11A#014000AA800003CE
(1739018391.441) RX 55B#C800AA00E4401274
(1739018391.442) RX 5BC#59032026B2064080
(1739018391.442) RX 1DA#C0641800000102A7
(1739018391.443) RX 55A#002F2F005F315B68
(1739018391.447) RX 1C2#5B
(1739018391.449) RX 1D4#F70700000746007B
(1739018391.449) RX 1F2#10640000001E000C
(1739018391.450) RX 50A#8532A00D8020
(1739018391.450) RX 1DB#FE60BF2A00000250
(1739018391.451) RX 11A#014000AAC0000003
(1739018391.451) RX 1DC#B40F8FFD0520C64C
(1739018391.452) RX 1DA#C064180000010322
(1739018391.453) RX 380#020410210000008D
(1739018391.453) RX 5BF#000000002800001A
(1739018391.457) RX 1C2#5C
(1739018391.459) RX 1D4#F7070000474600BC
(1739018391.460) RX 1F2#10640000001E010D
(1739018391.460) RX 284#0000000000007F05
(1739018391.460) RX 1DB#FE60BF2A000003D5
(1739018391.461) RX 1DC#B40F8FFD08C0CB1B
(1739018391.461) RX 11A#0140005500000115
(1739018391.462) RX 1DA#C064180000010028
(1739018391.467) RX 1C2#5D
(1739018391.470) RX 1D4#F707000087460070
(1739018391.470) RX 1F2#10640000001E020E
(1739018391.470) RX 50B#000006C00060
(1739018391.470) RX 1DB#FE60BF2A000000DF
(1739018391.471) RX 1DC#B40F8FFD0CCCD8E4
(1739018391.471) RX 11A#01400055400002D8
(1739018391.472) RX 1DA#C0641800000101AD
(1739018391.475) RX 54A#100070072600002C
(1739018391.476) RX 54B#0078981224000001
(1739018391.477) RX 1C2#5E
(1739018391.477) RX 54C#7166400000685800
(1739018391.478) RX 54F#28010000070B8A60
(1739018391.480) RX 1D4#F7070000C74600B7
(1739018391.480) RX 1F2#10640000001E030F
(1739018391.480) RX 284#0000000000008006
(1739018391.481) RX 1DB#FE60BF2A0000015A
(1739018391.481) RX 1DC#B40F8FFD0130C9CE
(1739018391.481) RX 11A#014000AA800003CE
(1739018391.482) RX 1DA#C0641800000102A7
(1739018391.487) RX 1C2#5F
(1739018391.490) RX 1D4#F70700000746007B
(1739018391.490) RX 11A#014000AAC0000003
(1739018391.491) RX 1DB#FE60BF2A00000250
(1739018391.491) RX 1F2#10640000001E000C
(1739018391.491) RX 1DC#B40F8FFD0520C64C
(1739018391.492) RX 1DA#C064180000010322
(1739018391.497) RX 1C2#50
(1739018391.500) RX 1D4#F7070000474600BC
(1739018391.501) RX 1DB#FE60BF2A000003D5
(1739018391.501) RX 1F2#10640000001E010D
(1739018391.501) RX 1DC#B40F8FFD08C0CB1B
(1739018391.501) RX 11A#0140005500000115
(1739018391.502) RX 284#0000000000008107
(1739018391.502) RX 1DA#C064180000010028
(1739018391.507) RX 1C2#51
(1739018391.510) RX 1DB#FE60BF2A000000DF
(1739018391.511) RX 1D4#F707000087460070
(1739018391.511) RX 11A#01400055400002D8
(1739018391.511) RX 1DC#B40F8FFD0CCCD8E4
(1739018391.511) RX 1F2#10640000001E020E
(1739018391.512) RX 5B9#67FF67FF28
(1739018391.512) RX 1DA#C0641800000101AD
(1739018391.517) RX 1C2#52
(1739018391.521) RX 1DB#FE60BF2A0000015A
(1739018391.521) RX 1D4#F7070000C74600B7
(1739018391.521) RX 11A#014000AA800003CE
(1739018391.521) RX 1DC#B40F8FFD0130C9CE
(1739018391.522) RX 1F2#10640000001E030F
(1739018391.522) RX 284#0000000000008208
(1739018391.522) RX 1DA#C0641800000102A7
(1739018391.527) RX 1C2#53
(1739018391.530) RX 11A#014000AAC0000003
(1739018391.531) RX 1DB#FE60BF2A00000250
(1739018391.531) RX 1DC#B40F8FFD0520C64C
(1739018391.531) RX 1D4#F70700000746007B
(1739018391.531) RX 1F2#10640000001E000C
(1739018391.532) RX 50C#000000025D63
(1739018391.532) RX 1DA#C064180000010322
(1739018391.537) RX 1C2#54
(1739018391.541) RX 1DB#FE60BF2A000003D5
(1739018391.541) RX 1DC#B40F8FFD08C0CB1B
(1739018391.541) RX 11A#0140005500000115
(1739018391.541) RX 1D4#F7070000474600BC
(1739018391.542) RX 1F2#10640000001E010D
(1739018391.542) RX 284#0000000000008309
(1739018391.542) RX 55B#C8005500E44013B6
(1739018391.542) RX 1DA#C064180000010028
(1739018391.543) RX 55A#002F2F005F315B68
(1739018391.543) RX 5BC#59032026B2064080
(1739018391.547) RX 1C2#55
(1739018391.551) RX 1DB#FE60BF2A000000DF
(1739018391.551) RX 11A#01400055400002D8
(1739018391.551) RX 1DC#B40F8FFD0CCCD8E4
(1739018391.552) RX 1D4#F707000087460070
(1739018391.552) RX 1F2#10640000001E020E
(1739018391.552) RX 50A#8552A00D8020
(1739018391.552) RX 1DA#C0641800000101AD
(1739018391.553) RX 380#020410210000009E
(1739018391.553) RX 5BF#000000002800002B
(1739018391.557) RX 1C2#56
(1739018391.561) RX 1DB#FE60BF2A0000015A
(1739018391.561) RX 1DC#B40F8FFD0130C9CE
(1739018391.561) RX 11A#014000AA800003CE
(1739018391.562) RX 1D4#F7070000C74600B7
(1739018391.562) RX 1F2#10640000001E030F
(1739018391.562) RX 284#000000000000840A
(1739018391.563) RX 1DA#C0641800000102A7
(1739018391.567) RX 1C2#57
(1739018391.570) RX 11A#014000AAC0000003
(1739018391.571) RX 1DB#FE60BF2A00000250
(1739018391.571) RX 1DC#B40F8FFD0520C64C
(1739018391.572) RX 1D4#F70700000746007B
(1739018391.572) RX 1F2#10640000001E000C
(1739018391.572) RX 1DA#C064180000010322
(1739018391.573) RX 50B#000006C00060
(1739018391.576) RX 54A#9E0070072600002C
(1739018391.577) RX 54B#0078981224000001
(1739018391.577) RX 1C2#58
(1739018391.578) RX 54C#7166400000685800
(1739018391.579) RX 54F#28010000074B8A60
(1739018391.581) RX 1DB#FE60BF2A000003D5
(1739018391.581) RX 1DC#B40F8FFD08C0CB1B
(1739018391.581) RX 11A#0140005500000115
(1739018391.582) RX 1D4#F7070000474600BC
(1739018391.583) RX 1DA#C064180000010028
(1739018391.583) RX 1F2#10640000001E010D
(1739018391.583) RX 284#000000000000850B
(1739018391.587) RX 1C2#59
(1739018391.591) RX 1DB#FE60BF2A000000DF
(1739018391.591) RX 11A#01400055400002D8
(1739018391.591) RX 1DC#B40F8FFD0CCCD8E4
(1739018391.592) RX 1DA#C0641800000101AD
(1739018391.593) RX 1D4#F707000087460070
(1739018391.593) RX 1F2#10640000001E020E
(1739018391.597) RX 1C2#5A
(1739018391.601) RX 1DB#FE60BF2A0000015A
(1739018391.601) RX 11A#014000AA800003CE
(1739018391.601) RX 1DC#B40F8FFD0130C9CE
(1739018391.602) RX 1DA#C0641800000102A7
(1739018391.603) RX 1D4#F7070000C74600B7
(1739018391.603) RX 1F2#10640000001E030F
(1739018391.603) RX 284#000000000000860C
(1739018391.607) RX 1C2#5B
(1739018391.610) RX 11A#014000AAC0000003
(1739018391.611) RX 1DB#FE60BF2A00000250
(1739018391.611) RX 1DC#B40F8FFD0520C64C
(1739018391.612) RX 1DA#C064180000010322
(1739018391.613) RX 1D4#F70700000746007B
(1739018391.613) RX 1F2#10640000001E000C
(1739018391.617) RX 1C2#5C
(1739018391.621) RX 1DB#FE60BF2A000003D5
(1739018391.621) RX 11A#0140005500000115
(1739018391.621) RX 1DC#B40F8FFD08C0CB1B
(1739018391.622) RX 1DA#C064180000010028
(1739018391.623) RX 1D4#F7070000474600BC
(1739018391.624) RX 1F2#10640000001E010D
(1739018391.624) RX 284#000000000000870D
(1739018391.627) RX 1C2#5D
(1739018391.631) RX 11A#01400055400002D8
(1739018391.631) RX 1DB#FE60BF2A000000DF
(1739018391.631) RX 1DC#B40F8FFD0CCCD8E4
(1739018391.632) RX 1DA#C0641800000101AD
(1739018391.633) RX 1D4#F707000087460070
(1739018391.634) RX 1F2#10640000001E020E
(1739018391.634) RX 50C#00000003B29A
(1739018391.637) RX 1C2#5E
(1739018391.641) RX 1DB#FE60BF2A0000015A
(1739018391.641) RX 11A#014000AA800003CE
(1739018391.641) RX 1DC#B40F8FFD0130C9CE
(1739018391.642) RX 55B#C7C0AA00E44010B5
(1739018391.642) RX 5BC#59032026B2064080
(1739018391.642) RX 1DA#C0641800000102A7
(1739018391.643) RX 55A#002F2F005F315B68
(1739018391.644) RX 1D4#F7070000C74600B7
(1739018391.644) RX 1F2#10640000001E030F
(1739018391.644) RX 284#000000000000880E
(1739018391.647) RX 1C2#5F
(1739018391.650) RX 11A#014000AAC0000003
(1739018391.651) RX 1DB#FE60BF2A00000250
(1739018391.651) RX 1DC#B40F8FFD0520C64C
(1739018391.652) RX 1DA#C064180000010322
(1739018391.653) RX 380#02041021000000AF
(1739018391.653) RX 5BF#000000002800003C
(1739018391.654) RX 1D4#F70700000746007B
(1739018391.654) RX 1F2#10640000001E000C
(1739018391.654) RX 50A#8572A00D8020
(1739018391.657) RX 1C2#50
(1739018391.661) RX 1DB#FE60BF2A000003D5
(1739018391.661) RX 11A#0140005500000115
(1739018391.661) RX 1DC#B40F8FFD08C0CB1B
(1739018391.662) RX 1DA#C064180000010028
(1739018391.664) RX 1D4#F7070000474600BC
(1739018391.664) RX 1F2#10640000001E010D
(1739018391.665) RX 284#000000000000890F
(1739018391.668) RX 1C2#51
(1739018391.671) RX 11A#01400055400002D8
(1739018391.671) RX 1DB#FE60BF2A000000DF
(1739018391.671) RX 1DC#B40F8FFD0CCCD8E4
(1739018391.672) RX 1DA#C0641800000101AD
(1739018391.674) RX 1D4#F707000087460070
(1739018391.675) RX 1F2#10640000001E020E
(1739018391.675) RX 50B#000006C00060
(1739018391.676) RX 54A#100070072600002C
(1739018391.677) RX 54B#0078981224000001
(1739018391.677) RX 1C2#52
(1739018391.678) RX 54C#7166400000685800
(1739018391.679) RX 54F#28010000078B8A60
(1739018391.681) RX 1DB#FE60BF2A0000015A
(1739018391.681) RX 11A#014000AA800003CE
(1739018391.681) RX 1DC#B40F8FFD0130C9CE
(1739018391.682) RX 1DA#C0641800000102A7
(1739018391.685) RX 1D4#F7070000C74600B7
(1739018391.685) RX 1F2#10640000001E030F
(1739018391.685) RX 284#0000000000008A10
(1739018391.688) RX 1C2#53
(1739018391.690) RX 11A#014000AAC0000003
(1739018391.691) RX 1DB#FE60BF2A00000250
(1739018391.692) RX 1DC#B40F8FFD0520C64C
(1739018391.692) RX 1DA#C064180000010322
(1739018391.695) RX 1D4#F70700000746007B
(1739018391.695) RX 1F2#10640000001E000C
(1739018391.697) RX 1C2#54
(1739018391.701) RX 11A#0140005500000115
(1739018391.701) RX 1DB#FE60BF2A000003D5
(1739018391.702) RX 1DC#B40F8FFD08C0CB1B
(1739018391.702) RX 1DA#C064180000010028
(1739018391.705) RX 1D4#F7070000474600BC
(1739018391.705) RX 1F2#10640000001E010D
(1739018391.706) RX 284#0000000000008B11
(1739018391.707) RX 1C2#55
(1739018391.711) RX 11A#01400055400002D8
(1739018391.711) RX 1DB#FE60BF2A000000DF
(1739018391.691) RX 1DB#FE60BF2A00000250
(1739018391.692) RX 1DC#B40F8FFD0520C64C
(1739018391.692) RX 1DA#C064180000010322
(1739018391.695) RX 1D4#F70700000746007B
(1739018391.695) RX 1F2#10640000001E000C
(1739018391.697) RX 1C2#54
(1739018391.721) RX 11A#014000AA800003CE
(1739018391.721) RX 1DB#FE60BF2A0000015A
(1739018391.722) RX 1DC#B40F8FFD0130C9CE
(1739018391.722) RX 1DA#C0641800000102A7
(1739018391.726) RX 1D4#F7070000C74600B7
(1739018391.726) RX 1F2#10640000001E030F
(1739018391.726) RX 284#0000000000008C12
(1739018391.727) RX 1C2#57
(1739018391.730) RX 11A#014000AAC0000003
(1739018391.731) RX 1DB#FE60BF2A00000250
(1739018391.731) RX 1DC#B40F8FFD0520C64C
(1739018391.732) RX 1DA#C064180000010322
(1739018391.736) RX 1D4#F70700000746007B
(1739018391.736) RX 1F2#10640000001E000C
(1739018391.736) RX 50C#000000005DC8
(1739018391.737) RX 1C2#58
(1739018391.741) RX 11A#0140005500000115
(1739018391.741) RX 1DB#FE60BF2A000003D5
(1739018391.742) RX 1DC#B40F8FFD08C0CB1B
(1739018391.742) RX 55B#C7C05500E4401177
(1739018391.742) RX 5BC#59032026B2064080
(1739018391.742) RX 1DA#C064180000010028
(1739018391.743) RX 55A#00302E005F315B68
(1739018391.746) RX 1D4#F7070000474600BC
(1739018391.746) RX 1F2#10640000001E010D
(1739018391.747) RX 284#0000000000008D13
(1739018391.747) RX 1C2#59
(1739018391.751) RX 11A#01400055400002D8
(1739018391.751) RX 1DB#FE60BF2A000000DF
(1739018391.751) RX 1DC#B40F8FFD0CCCD8E4
(1739018391.752) RX 1DA#C0641800000101AD
(1739018391.753) RX 380#02041021000000B0
(1739018391.753) RX 5BF#0000000028000009
(1739018391.756) RX 1D4#F707000087460070
(1739018391.757) RX 1F2#10640000001E020E
(1739018391.757) RX 284#0000000000008E14
(1739018391.757) RX 50A#8512A00D8020
(1739018391.757) RX 1C2#5A
(1739018391.741) RX 11A#0140005500000115
(1739018391.741) RX 1DB#FE60BF2A000003D5
(1739018391.742) RX 1DC#B40F8FFD08C0CB1B
(1739018391.742) RX 55B#C7C05500E4401177
(1739018391.742) RX 5BC#59032026B2064080
(1739018391.742) RX 1DA#C064180000010028
(1739018391.743) RX 55A#00302E005F315B68
(1739018391.746) RX 1D4#F7070000474600BC
(1739018391.746) RX 1F2#10640000001E010D
(1739018391.747) RX 284(1739018391.761) RX 11A#014000AA800003CE
(1739018391.761) RX 1DB#FE60BF2A0000015A
(1739018391.762) RX 1DC#B40F8FFD0130C9CE
(1739018391.762) RX 1DA#C0641800000102A7
(1739018391.767) RX 1D4#F7070000C74600B7
(1739018391.767) RX 1F2#10640000001E030F
(1739018391.768) RX 1C2#5B
(1739018391.770) RX 11A#014000AAC0000003
(1739018391.771) RX 1DB#FE60BF2A00000250
(1739018391.771) RX 1DC#B40F8FFD0520C64C
(1739018391.772) RX 1DA#C064180000010322
(1739018391.776) RX 54A#9E0070072600002C
(1739018391.777) RX 54B#0078981224000001
(1739018391.777) RX 1D4#F70700000746007B
(1739018391.777) RX 1F2#10640000001E000C
(1739018391.777) RX 284#0000000000008F15
(1739018391.778) RX 50B#000006C00060
(1739018391.778) RX 1C2#5C
(1739018391.778) RX 54C#7166400000685800
(1739018391.779) RX 54F#2801000007CB8A60
(1739018391.781) RX 11A#0140005500000115
(1739018391.781) RX 1DB#FE60BF2A000003D5
(1739018391.782) RX 1DC#B40F8FFD08C0CB1B
(1739018391.782) RX 1DA#C064180000010028
(1739018391.787) RX 1D4#F7070000474600BC
(1739018391.787) RX 1F2#10640000001E010D
(1739018391.788) RX 1C2#5D
(1739018391.791) RX 11A#01400055400002D8
(1739018391.791) RX 1DB#FE60BF2A000000DF
(1739018391.792) RX 1DC#B40F8FFD0CCCD8E4
(1739018391.792) RX 1DA#C0641800000101AD
(1739018391.797) RX 1D4#F707000087460070
(1739018391.798) RX 1C2#5E
(1739018391.798) RX 1F2#10640000001E020E
(1739018391.798) RX 284#0000000000009016
(1739018391.801) RX 11A#014000AA800003CE
 000000008F15
(1739018391.778) RX 50B#000006C00060
(1739018391.778) RX 1C2#5C
(1739018391.778) RX 54C#7166400000685800
(1739018391.779) RX 54F#2801000007CB8A60
(1739018391.781) RX 11A#0140005500000115
(1739018391.781) RX 1DB#FE60BF2A000003D5
(1739018391.782) RX 1DC#B40F8FFD08C0CB1B
(1739018391.782) RX 1DA#C064180000010028
(1739018391.787) RX 1D4#F7070000474600BC
(1739018391.787) RX 1F2#10640000001E010D
(1739018391.788) RX 1C2#5D
(1739018391.791) RX 11A#01400055400002D8
(1739018391.801) RX 1DB#FE60BF2A0000015A
(1739018391.802) RX 1DC#B40F8FFD0130C9CE
(1739018391.802) RX 1DA#C0641800000102A7
(1739018391.807) RX 1C2#5F
(1739018391.808) RX 1D4#F7070000C74600B7
(1739018391.808) RX 1F2#10640000001E030F
(1739018391.810) RX 11A#014000AAC0000003
(1739018391.811) RX 1DB#FE60BF2A00000250
(1739018391.812) RX 1DC#B40F8FFD0520C64C
(1739018391.812) RX 1DA#C064180000010322
(1739018391.817) RX 1C2#50
(1739018391.818) RX 1D4#F70700000746007B
(1739018391.818) RX 1F2#10640000001E000C
(1739018391.818) RX 284#0000000000009117
(1739018391.821) RX 11A#0140005500000115
(1739018391.781) RX 11A#0140005500000115
(1739018391.781) RX 1DB#FE60BF2A000003D5
(1739018391.782) RX 1DC#B40F8FFD08C0CB1B
(1739018391.782) RX 1DA#C064180000010028
(1739018391.787) RX 1D4#F7070000474600BC
(1739018391.787) RX 1F2#10640000001E010D
(1739018391.788) RX 1C2#5D
(1739018391.791) RX 11A#01400055400002D8
(1739018391.821) RX 1DB#FE60BF2A000003D5
(1739018391.822) RX 1DC#B40F8FFD08C0CB1B
(1739018391.822) RX 1DA#C064180000010028
(1739018391.828) RX 1C2#51
(1739018391.828) RX 1D4#F7070000474600BC
(1739018391.828) RX 1F2#10640000001E010D
(1739018391.831) RX 11A#01400055400002D8
(1739018391.831) RX 1DB#FE60BF2A000000DF
(1739018391.832) RX 1DC#B40F8FFD0CCCD8E4
(1739018391.832) RX 1DA#C0641800000101AD
(1739018391.838) RX 1C2#52
(1739018391.838) RX 1D4#F707000087460070
(1739018391.839) RX 1F2#10640000001E020E
(1739018391.839) RX 284#0000000000009218
(1739018391.839) RX 50C#00000001B231
(1739018391.841) RX 11A#014000AA800003CE
 000006C00060
(1739018391.778) RX 1C2#5C
(1739018391.778) RX 54C#7166400000685800
(1739018391.779) RX 54F#2801000007CB8A60
(1739018391.781) RX 11A#0140005500000115
(1739018391.781) RX 1DB#FE60BF2A000003D5
(1739018391.782) RX 1DC#B40F8FFD08C0CB1B
(1739018391.782) RX 1DA#C064180000010028
(1739018391.787) RX 1D4#F7070000474600BC
(1739018391.787) RX 1F2#10640000001E010D
(1739018391.788) RX 1C2#5D
(1739018391.791) RX 11A#01400055400002D8
(1739018391.821) RX 1DB#FE60BF2A00000(1739018391.842) RX 1DB#FE60BF2A0000015A
(1739018391.842) RX 1DC#B40F8FFD0130C9CE
(1739018391.842) RX 55B#C7C0AA00E440123A
(1739018391.843) RX 1DA#C0641800000102A7
(1739018391.843) RX 55A#00302E005F315B68
(1739018391.843) RX 5BC#59032C26B3040080
(1739018391.848) RX 1C2#53
(1739018391.849) RX 1D4#F7070000C74600B7
(1739018391.849) RX 1F2#10640000001E030F
(1739018391.850) RX 11A#014000AAC0000003
(1739018391.852) RX 1DB#FE60BF2A00000250
(1739018391.852) RX 1DC#B40F8FFD0520C64C
(1739018391.852) RX 5C0#804C4C0004A01100
(1739018391.852) RX 1DA#C064180000010322
(1739018391.853) RX 5EB#E00FFFFFFFFFFFFF
(1739018391.853) RX 380#020410210000008D
(1739018391.854) RX 5BF#000000002800001A
(1739018391.858) RX 1C2#54
(1739018391.859) RX 1D4#F70700000746007B
(1739018391.859) RX 1F2#10640000001E000C
(1739018391.859) RX 284#0000000000009319
(1739018391.860) RX 50A#8532A00D8020
(1739018391.861) RX 11A#0140005500000115
 70
(1739018391.716) RX 1F2#10640000001E020E
(1739018391.717) RX 1C2#56
(1739018391.781) RX 11A#0140005500000115
(1739018391.781) RX 1DB#FE60BF2A000003D5
(1739018391.782) RX 1DC#B40F8FFD08C0CB1B
(1739018391.782) RX 1DA#C064180000010028
(1739018391.787) RX 1D4#F7070000474600BC
(1739018391.787) RX 1F2#10640000001E010D
(1739018391.788) RX 1C2#5D
(1739018391.791) RX 11A#01400055400002D8
(1739018391.821) RX 1DB#FE60BF2A00000(1739018391.842) RX 1DB#FE60BF2A0000015A
(1739018391.842) RX 1DC#B40F8FFD0130C9CE
(1739018391.842) RX 55B#C7C0AA00E440123A
(1739018391.843) RX 1DA#C0641800000102A7
(1739018391.862) RX 1DB#FE60BF2A000003D5
(1739018391.862) RX 1DC#B40F8FFD08C0CB1B
(1739018391.862) RX 1DA#C064180000010028
(1739018391.868) RX 1C2#55
(1739018391.869) RX 1D4#F7070000474600BC
(1739018391.869) RX 1F2#10640000001E010D
(1739018391.871) RX 11A#01400055400002D8
(1739018391.872) RX 1DB#FE60BF2A000000DF
(1739018391.872) RX 1DC#B40F8FFD0CCCD8E4
(1739018391.872) RX 1DA#C0641800000101AD
(1739018391.876) RX 54A#100070072600002C
(1739018391.877) RX 54B#0078981224000001
(1739018391.878) RX 1C2#56
(1739018391.878) RX 54C#7166400000705800
(1739018391.879) RX 54F#28010000070B8A60
(1739018391.879) RX 1D4#F707000087460070
(1739018391.880) RX 1F2#10640000001E020E
(1739018391.880) RX 284#000000000000941A
(1739018391.880) RX 50B#000006C00060
(1739018391.881) RX 11A#014000AA800003CE
(1739018391.781) RX 11A#0140005500000115
(1739018391.781) RX 1DB#FE60BF2A000003D5
(1739018391.782) RX 1DC#B40F8FFD08C0CB1B
(1739018391.782) RX 1DA#C064180000010028
(1739018391.787) RX 1D4#F7070000474600BC
(1739018391.787) RX 1F2#10640000001E010D
(1739018391.788) RX 1C2#5D
(1739018391.791) RX 11A#01400055400002D8
(1739018391.821) RX 1DB#FE60BF2A00000(1739018391.842) RX 1DB#FE60BF2A0000015A
(1739018391.842) RX 1DC#B40F8FFD0130C9CE
(1739018391.842) RX 55B#C7C0AA00E440123A
(1739018391.843) RX 1DA#C0641800000102A7
(1739018391.882) RX 1DB#FE60BF2A0000015A
(1739018391.882) RX 1DC#B40F8FFD0130C9CE
(1739018391.882) RX 1DA#C0641800000102A7
(1739018391.888) RX 1C2#57
(1739018391.890) RX 1D4#F7070000C74600B7
(1739018391.890) RX 1F2#10640000001E030F
(1739018391.890) RX 11A#014000AAC0000003
(1739018391.892) RX 1DB#FE60BF2A00000250
(1739018391.892) RX 1DC#B40F8FFD0520C64C
(1739018391.892) RX 1DA#C064180000010322
(1739018391.898) RX 1C2#58
(1739018391.900) RX 1D4#F70700000746007B
(1739018391.900) RX 1F2#10640000001E000C
(1739018391.900) RX 284#000000000000951B
(1739018391.901) RX 11A#0140005500000115
 1739018391.879) RX 1D4#F707000087460070
(1739018391.880) RX 1F2#10640000001E020E
(1739018391.880) RX 284#000000000000941A
(1739018391.880) RX 50B#000006C00060
(1739018391.881) RX 11A#014000AA800003CE
(1739018391.781) RX 11A#0140005500000115
(1739018391.781) RX 1DB#FE60BF2A000003D5
(1739018391.782) RX 1DC#B40F8FFD08C0CB1B
(1739018391.782) RX 1DA#C064180000010028
(1739018391.787) RX 1D4#F7070000474600BC
(1739018391.787) RX 1F2#10640000001E010D
(1739018391.788) RX 1C2#5D
(1739018391.791) RX 11A#01400055400002D8
(1739018391.902) RX 1DB#FE60BF2A000003D5
(1739018391.902) RX 1DC#B40F8FFD08C0CB1B
(1739018391.902) RX 1DA#C064180000010028
(1739018391.908) RX 1C2#59
(1739018391.910) RX 1D4#F7070000474600BC
(1739018391.910) RX 1F2#10640000001E010D
(1739018391.911) RX 11A#01400055400002D8
(1739018391.912) RX 1DB#FE40BF2A0000008E
(1739018391.912) RX 1DC#B40F8FFD0CCCD8E4
(1739018391.912) RX 1DA#C0641800000101AD
(1739018391.918) RX 1C2#5A
(1739018391.920) RX 1D4#F707000087460070
(1739018391.921) RX 1F2#10640000001E020E
(1739018391.921) RX 284#000000000000961C
(1739018391.921) RX 11A#014000AA800003CE
(1739018391.781) RX 11A#0140005500000115
(1739018391.781) RX 1DB#FE60BF2A000003D5
(1739018391.782) RX 1DC#B40F8FFD08C0CB1B
(1739018391.782) RX 1DA#C064180000010028
(1739018391.787) RX 1D4#F7070000474600BC
(1739018391.787) RX 1F2#10640000001E010D
(1739018391.788) RX 1C2#5D
(1739018391.791) RX 11A#01400055400002D8
(1739018391.922) RX 1DB#FE40BF2A0000010B
(1739018391.922) RX 1DC#B40F8FFD0130C9CE
(1739018391.922) RX 1DA#C0641800000102A7
(1739018391.928) RX 1C2#5B
(1739018391.930) RX 11A#014000AAC0000003
(1739018391.931) RX 1D4#F7070000C74600B7
(1739018391.931) RX 1F2#10640000001E030F
(1739018391.932) RX 1DB#FE20BF2A000002F2
(1739018391.932) RX 1DC#B40F8FFD0520C64C
(1739018391.932) RX 1DA#C064180000010322
(1739018391.938) RX 1C2#5C
(1739018391.941) RX 1D4#F70700000746007B
(1739018391.941) RX 11A#0140005500000115
(1739018391.941) RX 1F2#10640000001E000C
(1739018391.942) RX 284#000000000000971D
(1739018391.942) RX 50C#000000025D63
(1739018391.942) RX 1DB#FE00BF2A00000326
(1739018391.942) RX 1DC#B40F8FFD08C0CB1B
(1739018391.943) RX 1DA#C064180000010028
(1739018391.943) RX 55A#00302E005F315B68
(1739018391.943) RX 55B#C7C05500E44013F8
(1739018391.943) RX 5BC#59032C26B3040080
(1739018391.948) RX 1C2#5D
(1739018391.951) RX 11A#01400055400002D8
(1739018391.951) RX 1D4#F7070000474600BC
(1739018391.951) RX 1F2#10640000001E010D
(1739018391.952) RX 5A9#643BB01304300000
(1739018391.952) RX 1DB#FDE0BF2A00000017
(1739018391.952) RX 1DC#B40F8FFD0CCCD8E4
(1739018391.952) RX 1DA#C0641800000101AD
(1739018391.953) RX 380#020410210000009E
(1739018391.954) RX 5BF#000000002800002B
(1739018391.958) RX 1C2#5E
(1739018391.961) RX 11A#014000AA800003CE
 1739018391.880) RX 284#000000000000941A
(1739018391.880) RX 50B#000006C00060
(1739018391.881) RX 11A#014000AA800003CE
(1739018391.941) RX 11A#0140005500000115
(1739018391.941) RX 1F2#10640000001E000C
(1739018391.942) RX 284#000000000000971D
(1739018391.942) RX 50C#000000025D63
(1739018391.942) RX 1DB#FE00BF2A00000326
(1739018391.942) RX 1DC#B40F8FFD08C0CB1B
(1739018391.943) RX 1DA#C064180000010028
(1739018391.943) RX 55A#00302E005F315B68
(1739018391.943) RX 55B#C7C05500E44013F8
(1739018391.943) RX 5BC#59032C2(1739018391.961) RX 1D4#F707000087460070
(1739018391.962) RX 1F2#10640000001E020E
(1739018391.962) RX 284#000000000000981E
(1739018391.962) RX 1DB#FDC0BF2A000001C3
(1739018391.962) RX 50A#8552A00D8020
(1739018391.962) RX 1DA#C0641800000102A7
(1739018391.963) RX 1DC#B40F8FFD0130C9CE
(1739018391.968) RX 1C2#5F
(1739018391.970) RX 11A#014000AAC0000003
(1739018391.972) RX 1D4#F7070000C74600B7
(1739018391.972) RX 1DB#FDA0BF2A0000023A
(1739018391.972) RX 1F2#10640000001E030F
(1739018391.972) RX 1DC#B40F8FFD0520C64C
(1739018391.972) RX 1DA#C064180000010322
(1739018391.976) RX 54A#9E0070072600002C
(1739018391.977) RX 54B#0078981224000001
(1739018391.978) RX 54C#7166400000705800
(1739018391.978) RX 1C2#50
(1739018391.979) RX 54F#28010000074A8A60
(1739018391.981) RX 11A#0140005500000115
 1739018391.880) RX 50B#000006C00060
(1739018391.881) RX 11A#014000AA800003CE
(1739018391.941) RX 11A#0140005500000115
(1739018391.941) RX 1F2#10640000001E000C
(1739018391.942) RX 284#000000000000971D
(1739018391.942) RX 50C#000000025D63
(1739018391.942) RX 1DB#FE00BF2A00000326
(1739018391.942) RX 1DC#B40F8FFD08C0CB1B
(1739018391.943) RX 1DA#C064180000010028
(1739018391.943) RX 55A#00302E005F315B68
(1739018391.943) RX 55B#C7C05500E44013F8
(1739018391.943) RX 5BC#59032C2(1739018391.961) RX 1D4#F707000087460070
(1739018391.982) RX 1D4#F70700000746007B
(1739018391.982) RX 1DB#FD80BEEA0000033E
(1739018391.982) RX 1F2#10640000001E000C
(1739018391.983) RX 1DA#C064180000010028
(1739018391.983) RX 1DC#B40F8FFD08C0CB1B
(1739018391.983) RX 284#000000000000991F
(1739018391.983) RX 50B#000006C00060
(1739018391.988) RX 1C2#51
(1739018391.991) RX 11A#01400055400002D8
(1739018391.992) RX 1DB#FD60BEEA00000006
(1739018391.992) RX 1D4#F7070000474600BC
(1739018391.992) RX 1DC#B40F8FFD0CCCD8E4
(1739018391.992) RX 1DA#C0641800000101AD
(1739018391.993) RX 1F2#10640000001E010D
(1739018391.998) RX 1C2#52
(1739018392.001) RX 11A#014000AA800003CE
(1739018391.941) RX 11A#0140005500000115
(1739018391.941) RX 1F2#10640000001E000C
(1739018391.942) RX 284#000000000000971D
(1739018391.942) RX 50C#000000025D63
(1739018391.942) RX 1DB#FE00BF2A00000326
(1739018391.942) RX 1DC#B40F8FFD08C0CB1B
(1739018391.943) RX 1DA#C064180(1739018392.002) RX 1DB#FD40BEEA000001D2
(1739018392.002) RX 1DC#B40F8FFD0130C9CE
(1739018392.002) RX 1D4#F707000087460070
(1739018392.003) RX 1DA#C0641800000102A7
(1739018392.003) RX 1F2#10640000001E020E
(1739018392.003) RX 284#0000000000009A20
(1739018392.008) RX 1C2#53
(1739018392.010) RX 11A#014000AAC0000003
(1739018392.012) RX 1DB#FD40BEEA000002D8
(1739018392.012) RX 1DC#B40F8FFD0520C64C
(1739018392.012) RX 1DA#C064180000010322
(1739018392.013) RX 1D4#F7070000C74600B7
(1739018392.013) RX 1F2#10640000001E030F
(1739018392.018) RX 1C2#54
(1739018392.021) RX 11A#0140005500000115
(1739018391.941) RX 11A#0140005500000115
(1739018391.941) RX 1F2#10640000001E000C
(1739018391.942) RX 284#000000000000971D
(1739018391.942) RX 50C#000000025D63
(1739018391.942) RX 1DB#FE00BF2A00000326
(1739018391.942) RX 1DC#B40F8FFD08C0CB1B
(1739018391.943) RX 1DA#C064180(1739018392.022) RX 1DB#FD40BEEA0000035D
(1739018392.022) RX 1DC#B40F8FFD08C0CB1B
(1739018392.022) RX 1DA#C064180000010028
(1739018392.023) RX 1D4#F70700000746007B
(1739018392.023) RX 1F2#10640000001E000C
(1739018392.023) RX 284#0000000000009B21
(1739018392.023) RX 5B9#67FF67FF28
(1739018392.028) RX 1C2#55
(1739018392.031) RX 11A#01400055400002D8
(1739018392.032) RX 1DB#FD40BEEA00000057
(1739018392.032) RX 1DC#B40F8FFD0CCCD8E4
(1739018392.032) RX 1DA#C0641800000101AD
(1739018392.033) RX 1D4#F7070000474600BC
(1739018392.033) RX 1F2#10640000001E010D
(1739018392.038) RX 1C2#56
(1739018392.041) RX 11A#014000AA800003CE
(1739018391.941) RX 11A#0140005500000115
(1739018391.941) RX 1F2#10640000001E000C
(1739018391.942) RX 284#000000000000971D
(1739018391.942) RX 50C#000000025D63
(1739018391.942) RX 1DB#FE00BF2A00000326
(1739018391.942) RX 1DC#B40F8FFD08C0CB1B
(1739018391.943) RX 1DA#C064180(1739018392.042) RX 1DB#FD40BEEA000001D2
(1739018392.042) RX 1DA#C0641800000102A7
(1739018392.043) RX 1DC#B40F8FFD0130C9CE
(1739018392.043) RX 55A#002F2E005F315B68
(1739018392.043) RX 55B#C7C05500E44010F2
(1739018392.043) RX 1D4#F707000087460070
(1739018392.044) RX 1F2#10640000001E020E
(1739018392.044) RX 284#0000000000009C22
(1739018392.044) RX 50C#00000003B29A
(1739018392.044) RX 5BC#59032C26B3040080
(1739018392.048) RX 1C2#57
(1739018392.050) RX 11A#014000AAC0000003
(1739018392.052) RX 1DB#FD40BEEA000002D8
(1739018392.052) RX 1DC#B40F8FFD0520C64C
(1739018392.052) RX 1DA#C064180000010322
(1739018392.053) RX 380#02041021000000AF
(1739018392.054) RX 1D4#F7070000C74600B7
(1739018392.054) RX 1F2#10640000001E030F
(1739018392.054) RX 5BF#000000002800003C
(1739018392.058) RX 1C2#58
(1739018392.061) RX 11A#0140005500000115
(1739018391.941) RX 11A#0140005500000115
(1739018391.941) RX 1F2#10640000001E000C
(1739018391.942) RX 284#000000000000971D
(1739018391.942) RX 50C#000000025D63
(1739018391.942) RX 1DB#FE00BF2A00000326
(1739018391.942) RX 1DC#B40F8FFD08C0CB1B
(1739018391.943) RX 1DA#C064180(1739018392.042) RX 1DB#FD40BEEA000001D2
(1739018392.042) RX 1DA#C0641800000102A7
(1739018392.062) RX 1DB#FD60BEEA0000030C
(1739018392.062) RX 1DA#C064180000010028
(1739018392.063) RX 1DC#B40F8FFD08C0CB1B
(1739018392.064) RX 1D4#F70700000746007B
(1739018392.064) RX 1F2#10640000001E000C
(1739018392.064) RX 284#0000000000009D23
(1739018392.064) RX 50A#8572A00D8020
(1739018392.068) RX 1C2#59
(1739018392.071) RX 11A#01400055400002D8
(1739018392.072) RX 1DB#FD60BEEA00000006
(1739018392.072) RX 1DA#C0641800000101AD
(1739018392.073) RX 1DC#B40F8FFD0CCCD8E4
(1739018392.074) RX 1D4#F7070000474600BC
(1739018392.074) RX 1F2#10640000001E010D
(1739018392.076) RX 54A#100070072600002C
(1739018392.077) RX 54B#0078981224000001
(1739018392.078) RX 54C#7166400000705800
(1739018392.078) RX 1C2#5A
(1739018392.079) RX 54F#28010000078B8A60
(1739018392.081) RX 11A#014000AA800003CE
(1739018391.941) RX 11A#0140005500000115
(1739018391.941) RX 1F2#10640000001E000C
(1739018391.942) RX 284#000000000000971D
(1739018391.942) RX 50C#000000025D63
(1739018391.942) RX 1DB#FE00BF2A00000326
(1739018391.942) RX 1DC#B40F8FFD08C0CB1B
(1739018391.943) RX 1DA#C064180(1739018392.042) RX 1DB#FD40BEEA000001D2
(1739018392.042) RX 1DA#C0641800000102A7
(1739018392.062) RX 1DB#FD60BEEA0000030C
(1739018392.062) RX 1DA#C064180000010028
(1739018392.082) RX 1DB#FD60BEEA00000183
(1739018392.082) RX 1DA#C0641800000102A7
(1739018392.083) RX 1DC#B40F8FFD0130C9CE
(1739018392.084) RX 1D4#F707000087460070
(1739018392.085) RX 1F2#10640000001E020E
(1739018392.085) RX 284#0000000000009E24
(1739018392.085) RX 50B#000006C00060
(1739018392.088) RX 1C2#5B
(1739018392.090) RX 11A#014000AAC0000003
(1739018392.092) RX 1DB#FD60BEEA00000289
(1739018392.092) RX 1DA#C064180000010322
(1739018392.093) RX 1DC#B40F8FFD0520C64C
(1739018392.094) RX 1D4#F7070000C74600B7
(1739018392.095) RX 1F2#10640000001E030F
(1739018392.098) RX 1C2#5C
(1739018392.101) RX 11A#0140005500000115
(1739018392.102) RX 1DB#FD60BEEA0000030C
(1739018392.102) RX 1DA#C064180000010028
(1739018392.103) RX 1DC#B40F8FFD08C0CB1B
(1739018392.105) RX 1D4#F70700000746007B
(1739018392.105) RX 1F2#10640000001E000C
(1739018392.105) RX 284#0000000000009F25
(1739018392.108) RX 1C2#5D
(1739018392.111) RX 11A#01400055400002D8
(1739018392.112) RX 1DB#FD60BEEA00000006
(1739018392.112) RX 1DA#C0641800000101AD
(1739018392.113) RX 1DC#B40F8FFD0CCCD8E4
(1739018392.115) RX 1D4#F7070000474600BC
(1739018392.115) RX 1F2#10640000001E010D
(1739018392.118) RX 1C2#5E
(1739018392.121) RX 11A#014000AA800003CE
(1739018392.122) RX 1DB#FD60BEEA00000183
(1739018392.122) RX 1DA#C0641800000102A7
(1739018392.123) RX 1DC#B40F8FFD0130C9CE
(1739018392.125) RX 1D4#F707000087460070
(1739018392.125) RX 1F2#10640000001E020E
(1739018392.126) RX 284#000000000000A026
(1739018392.128) RX 1C2#5F
(1739018392.130) RX 11A#014000AAC0000003
(1739018392.132) RX 1DB#FD60BEEA00000289
(1739018392.132) RX 1DA#C064180000010322
(1739018392.133) RX 1DC#B40F8FFD0520C64C
(1739018392.135) RX 1D4#F7070000C74600B7
(1739018392.136) RX 1F2#10640000001E030F
(1739018392.138) RX 1C2#50
(1739018392.141) RX 11A#0140005500000115
(1739018392.142) RX 1DA#C064180000010028
(1739018392.143) RX 1DB#FD80BEEA0000033E
(1739018392.143) RX 55A#002F2F005F315B68
(1739018392.143) RX 1DC#B40F8FFD08C0CB1B
(1739018392.143) RX 55B#C7C0AA00E4C0118F
(1739018392.144) RX 5BC#59032C26B3040080
(1739018392.146) RX 1D4#F70700000746007B
(1739018392.146) RX 1F2#10640000001E000C
(1739018392.146) RX 284#000000000000A127
(1739018392.146) RX 50C#00000000B2A6
(1739018392.148) RX 1C2#51
(1739018392.151) RX 11A#01400055400002D8
(1739018392.152) RX 1DB#FDA0BEEA00000065
(1739018392.152) RX 1DA#C0641800000101AD
(1739018392.153) RX 1DC#B40F8FFD0CCCD8E4
(1739018392.154) RX 380#02041021000000B0
(1739018392.154) RX 5BF#0000000028000009
(1739018392.156) RX 1D4#F7070000474600BC
(1739018392.156) RX 1F2#10640000001E010D
(1739018392.158) RX 1C2#52
(1739018392.161) RX 11A#014000AA800003CE
(1739018392.162) RX 1DA#C0641800000102A7
(1739018392.163) RX 1DB#FDA0BEEA000001E0
(1739018392.163) RX 1DC#B40F8FFD0130C9CE
(1739018392.166) RX 1D4#F707000087460070
(1739018392.166) RX 1F2#10640000001E020E
(1739018392.167) RX 284#000000000000A228
(1739018392.167) RX 50A#8512A00D8020
(1739018392.168) RX 1C2#53
(1739018392.170) RX 11A#014000AAC0000003
(1739018392.172) RX 1DA#C064180000010322
(1739018392.173) RX 1DB#FDC0BEEA00000219
(1739018392.173) RX 1DC#B40F8FFD0520C64C
(1739018392.176) RX 54A#9E0070072600002C
(1739018392.176) RX 1D4#F7070000C74600B7
(1739018392.177) RX 1F2#10640000001E030F
(1739018392.177) RX 284#000000000000A329
(1739018392.177) RX 54B#0078981224000001
(1739018392.178) RX 54C#7166400000705800
(1739018392.178) RX 1C2#54
(1739018392.179) RX 54F#2801000007CB8A60
(1739018392.181) RX 11A#0140005500000115
(1739018392.182) RX 1DA#C064180000010028
(1739018392.183) RX 1DB#FDE0BEEA000003CD
(1739018392.183) RX 1DC#B40F8FFD08C0CB1B
(1739018392.187) RX 1D4#F70700000746007B
(1739018392.187) RX 1F2#10640000001E000C
(1739018392.187) RX 50B#000006C00060
(1739018392.188) RX 1C2#55
(1739018392.191) RX 11A#01400055400002D8
(1739018392.192) RX 1DA#C0641800000101AD
(1739018392.193) RX 1DB#FE00BEEA000000FC
(1739018392.193) RX 1DC#B40F8FFD0CCCD8E4
(1739018392.197) RX 1D4#F7070000474600BC
(1739018392.197) RX 1F2#10640000001E010D
(1739018392.197) RX 284#000000000000A42A
(1739018392.198) RX 1C2#56
(1739018392.201) RX 11A#014000AA800003CE
(1739018392.202) RX 1DA#C0641800000102A7
(1739018392.203) RX 1DB#FE20BF2A000001F8
(1739018392.203) RX 1DC#B40F8FFD0130C9CE
(1739018392.207) RX 1D4#F707000087460070
(1739018392.207) RX 1F2#10640000001E020E
(1739018392.208) RX 1C2#57
(1739018392.210) RX 11A#014000AAC0000003
(1739018392.212) RX 1DA#C064180000010322
(1739018392.213) RX 1DB#FE20BF2A000002F2
(1739018392.213) RX 1DC#B40F8FFD0520C64C
(1739018392.217) RX 1D4#F7070000C74600B7
(1739018392.218) RX 1F2#10640000001E030F
(1739018392.218) RX 284#000000000000A52B
(1739018392.219) RX 1C2#58
(1739018392.221) RX 11A#0140005500000115
(1739018392.222) RX 1DA#C064180000010028
(1739018392.223) RX 1DB#FE40BF2A00000384
(1739018392.223) RX 1DC#B40F8FFD08C0CB1B
(1739018392.228) RX 1D4#F70700000746007B
(1739018392.228) RX 1F2#10640000001E000C
(1739018392.228) RX 1C2#59
(1739018392.231) RX 11A#01400055400002D8
(1739018392.232) RX 1DA#C0641800000101AD
(1739018392.233) RX 1DB#FE60BF2A000000DF
(1739018392.233) RX 1DC#B40F8FFD0CCCD8E4
(1739018392.238) RX 1D4#F7070000474600BC
(1739018392.238) RX 1F2#10640000001E010D
(1739018392.238) RX 284#000000000000A62C
(1739018392.239) RX 1C2#5A
(1739018392.241) RX 11A#014000AA800003CE
(1739018392.242) RX 1DA#C0641800000102A7
(1739018392.242) RX 55A#002F2F005F315B68
(1739018392.243) RX 1DB#FE60BF2A0000015A
(1739018392.243) RX 1DC#B40F8FFD0130C9CE
(1739018392.244) RX 55B#C7C0AA00E4C01285
(1739018392.244) RX 5BC#59032C26B3040080
(1739018392.248) RX 1D4#F707000087460070
(1739018392.248) RX 1F2#10640000001E020E
(1739018392.249) RX 50C#000000015D5F
(1739018392.249) RX 1C2#5B
(1739018392.250) RX 11A#014000AAC0000003
(1739018392.252) RX 1DA#C064180000010322
(1739018392.253) RX 1DB#FE60BF2A00000250
(1739018392.253) RX 1DC#B40F8FFD0520C64C
(1739018392.254) RX 380#020410210000008D
(1739018392.254) RX 5BF#000000002800001A
(1739018392.258) RX 1D4#F7070000C74600B7
(1739018392.259) RX 1F2#10640000001E030F
(1739018392.259) RX 1C2#5C
(1739018392.259) RX 284#000000000000A72D
(1739018392.261) RX 11A#0140005500000115
(1739018392.262) RX 1DA#C064180000010028
(1739018392.263) RX 1DB#FE60BF2A000003D5
(1739018392.263) RX 1DC#B40F8FFD08C0CB1B
(1739018392.269) RX 1D4#F70700000746007B
(1739018392.269) RX 1C2#5D
(1739018392.269) RX 1F2#10640000001E000C
(1739018392.269) RX 50A#8532A00D8020
(1739018392.271) RX 11A#01400055400002D8
(1739018392.272) RX 1DA#C0641800000101AD
(1739018392.273) RX 1DB#FE60BF2A000000DF
(1739018392.273) RX 1DC#B40F8FFD0CCCD8E4
(1739018392.276) RX 54A#100070072600002C
(1739018392.277) RX 54B#0078981224000001
(1739018392.278) RX 54C#7166400000705800
(1739018392.279) RX 1C2#5E
(1739018392.279) RX 1D4#F7070000474600BC
(1739018392.279) RX 1F2#10640000001E010D
(1739018392.279) RX 284#000000000000A82E
(1739018392.280) RX 54F#28010000070A8A60
(1739018392.281) RX 11A#014000AA800003CE
(1739018392.282) RX 1DA#C0641800000102A7
(1739018392.283) RX 1DB#FE60BF2A0000015A
(1739018392.283) RX 1DC#B40F8FFD0130C9CE
(1739018392.289) RX 1C2#5F
(1739018392.289) RX 1D4#F707000087460070
(1739018392.289) RX 1F2#10640000001E020E
(1739018392.290) RX 50B#000006C00060
(1739018392.290) RX 11A#014000AAC0000003
(1739018392.292) RX 1DA#C064180000010322
(1739018392.293) RX 1DB#FE60BF2A00000250
(1739018392.293) RX 1DC#B40F8FFD0520C64C
(1739018392.299) RX 1C2#50
(1739018392.299) RX 1D4#F7070000C74600B7
(1739018392.300) RX 1F2#10640000001E030F
(1739018392.300) RX 284#000000000000A92F
(1739018392.301) RX 11A#0140005500000115
(1739018392.302) RX 1DA#C064180000010028
(1739018392.303) RX 1DB#FE60BF2A000003D5
(1739018392.303) RX 1DC#B40F8FFD08C0CB1B
(1739018392.309) RX 1C2#51
(1739018392.310) RX 1D4#F70700000746007B
(1739018392.310) RX 1F2#10640000001E000C
(1739018392.311) RX 11A#01400055400002D8
(1739018392.312) RX 1DA#C0641800000101AD
(1739018392.313) RX 1DB#FE60BF2A000000DF
(1739018392.313) RX 1DC#B40F8FFD0CCCD8E4
(1739018392.319) RX 1C2#52
(1739018392.320) RX 1D4#F7070000474600BC
(1739018392.320) RX 1F2#10640000001E010D
(1739018392.320) RX 284#000000000000AA30
(1739018392.321) RX 11A#014000AA800003CE
(1739018392.322) RX 1DA#C0641800000102A7
(1739018392.323) RX 1DB#FE60BF2A0000015A
(1739018392.323) RX 1DC#B40F8FFD0130C9CE
(1739018392.329) RX 1C2#53
(1739018392.330) RX 1D4#F707000087460070
(1739018392.330) RX 1F2#10640000001E020E
(1739018392.330) RX 11A#014000AAC0000003
(1739018392.332) RX 1DA#C064180000010322
(1739018392.333) RX 1DB#FE60BF2A00000250
(1739018392.333) RX 1DC#B40F8FFD0520C64C
(1739018392.339) RX 1C2#54
(1739018392.340) RX 1D4#F7070000C74600B7
(1739018392.341) RX 1F2#10640000001E030F
(1739018392.341) RX 284#000000000000AB31
(1739018392.341) RX 11A#0140005500000115
(1739018392.342) RX 1DA#C064180000010028
(1739018392.342) RX 55A#002F2E005F315B68
(1739018392.343) RX 1DB#FE60BF2A000003D5
(1739018392.343) RX 1DC#B40F8FFD08C0CB1B
(1739018392.344) RX 55B#C7C05500E4C01347
(1739018392.344) RX 5BC#59032026B205209A
(1739018392.349) RX 1C2#55
(1739018392.351) RX 1D4#F70700000746007B
(1739018392.351) RX 1F2#10640000001E000C
(1739018392.351) RX 11A#01400055400002D8
(1739018392.351) RX 50C#000000025D63
(1739018392.352) RX 1DA#C0641800000101AD
(1739018392.353) RX 1DB#FE60BF2A000000DF
(1739018392.354) RX 1DC#B40F8FFD0CCCD8E4
(1739018392.354) RX 380#020410210000009E
(1739018392.354) RX 5BF#000000002800002B
(1739018392.354) RX 5C0#404C4C0004E41100
(1739018392.355) RX 5EB#E00FFFFFFFFFFFFF
(1739018392.359) RX 1C2#56
(1739018392.361) RX 1D4#F7070000474600BC
(1739018392.361) RX 11A#014000AA800003CE
(1739018392.361) RX 1F2#10640000001E010D
(1739018392.362) RX 284#000000000000AC32
(1739018392.362) RX 1DA#C0641800000102A7
(1739018392.363) RX 1DB#FE60BF2A0000015A
(1739018392.363) RX 1DC#B40F8FFD0130C9CE
(1739018392.369) RX 1C2#57
(1739018392.370) RX 11A#014000AAC0000003
(1739018392.371) RX 1D4#F707000087460070
(1739018392.371) RX 1F2#10640000001E020E
(1739018392.371) RX 50A#8552A00D8020
(1739018392.372) RX 1DA#C064180000010322
(1739018392.373) RX 1DB#FE60BF2A00000250
(1739018392.373) RX 1DC#B40F8FFD0520C64C
(1739018392.376) RX 54A#9E0070072600002C
(1739018392.377) RX 54B#0078981224000001
(1739018392.378) RX 54C#7166400000705800
(1739018392.379) RX 1C2#58
(1739018392.379) RX 54F#28010000074A8A60
(1739018392.381) RX 11A#0140005500000115
(1739018392.381) RX 1D4#F7070000C74600B7
(1739018392.382) RX 1F2#10640000001E030F
(1739018392.382) RX 284#000000000000AD33
(1739018392.382) RX 1DA#C064180000010028
(1739018392.383) RX 1DB#FE60BF2A000003D5
(1739018392.383) RX 1DC#B40F8FFD08C0CB1B
(1739018392.389) RX 1C2#59
(1739018392.391) RX 11A#01400055400002D8
(1739018392.391) RX 1D4#F70700000746007B
(1739018392.392) RX 1F2#10640000001E000C
(1739018392.392) RX 50B#000006C00060
(1739018392.392) RX 1DA#C0641800000101AD
(1739018392.393) RX 1DB#FE60BF2A000000DF
(1739018392.393) RX 1DC#B40F8FFD0CCCD8E4
(1739018392.399) RX 1C2#5A
(1739018392.401) RX 11A#014000AA800003CE
(1739018392.402) RX 1D4#F7070000474600BC
(1739018392.402) RX 1F2#10640000001E010D
(1739018392.402) RX 284#000000000000AE34
(1739018392.402) RX 1DA#C0641800000102A7
(1739018392.403) RX 1DB#FE60BF2A0000015A
(1739018392.403) RX 1DC#B40F8FFD0130C9CE
(1739018392.409) RX 1C2#5B
(1739018392.410) RX 11A#014000AAC0000003
(1739018392.412) RX 1D4#F707000087460070
(1739018392.412) RX 1F2#10640000001E020E
(1739018392.412) RX 1DA#C064180000010322
(1739018392.413) RX 1DB#FE60BF2A00000250
(1739018392.414) RX 1DC#B40F8FFD0520C64C
(1739018392.419) RX 1C2#5C
(1739018392.421) RX 11A#0140005500000115
(1739018392.422) RX 1D4#F7070000C74600B7
(1739018392.422) RX 1DA#C064180000010028
(1739018392.423) RX 1F2#10640000001E030F
(1739018392.423) RX 284#000000000000AF35
(1739018392.423) RX 1DB#FE60BF2A000003D5
(1739018392.424) RX 1DC#B40F8FFD08C0CB1B
(1739018392.429) RX 1C2#5D
(1739018392.431) RX 11A#01400055400002D8
(1739018392.432) RX 1DA#C0641800000101AD
(1739018392.432) RX 1D4#F70700000746007B
(1739018392.433) RX 1F2#10640000001E000C
(1739018392.433) RX 1DB#FE60BF2A000000DF
(1739018392.434) RX 1DC#B40F8FFD0CCCD8E4
(1739018392.439) RX 1C2#5E
(1739018392.441) RX 11A#014000AA800003CE
(1739018392.442) RX 1DA#C0641800000102A7
(1739018392.442) RX 55A#002F2F005F315B68
(1739018392.443) RX 1D4#F7070000474600BC
(1739018392.443) RX 1F2#10640000001E010D
(1739018392.443) RX 284#000000000000B036
(1739018392.443) RX 1DB#FE60BF2A0000015A
(1739018392.444) RX 1DC#B40F8FFD0130C9CE
(1739018392.444) RX 55B#C7C05500E5001094
(1739018392.445) RX 5BC#59032026B205209A
(1739018392.449) RX 1C2#5F
(1739018392.450) RX 11A#014000AAC0000003
(1739018392.452) RX 1DA#C064180000010322
(1739018392.453) RX 1D4#F707000087460070
(1739018392.453) RX 1DB#FE60BF2A00000250
(1739018392.453) RX 1F2#10640000001E020E
(1739018392.454) RX 1DC#B40F8FFD0520C64C
(1739018392.454) RX 380#02041021000000AF
(1739018392.454) RX 50C#00000003B29A
(1739018392.454) RX 5BF#000000002800003C
(1739018392.459) RX 1C2#50
(1739018392.461) RX 11A#0140005500000115
(1739018392.462) RX 1DA#C064180000010028
(1739018392.463) RX 1DB#FE60BF2A000003D5
(1739018392.463) RX 1D4#F7070000C74600B7
(1739018392.464) RX 1DC#B40F8FFD08C0CB1B
(1739018392.464) RX 1F2#10640000001E030F
(1739018392.464) RX 284#000000000000B137
(1739018392.464) RX 5A9#643BB01304300000
(1739018392.469) RX 1C2#51
(1739018392.471) RX 11A#01400055400002D8
(1739018392.472) RX 1DA#C0641800000101AD
(1739018392.473) RX 1DB#FE60BF2A000000DF
(1739018392.473) RX 1DC#B40F8FFD0CCCD8E4
(1739018392.474) RX 1D4#F70700000746007B
(1739018392.474) RX 1F2#10640000001E000C
(1739018392.474) RX 50A#8572A00D8020
(1739018392.476) RX 54A#100070072600002C
(1739018392.477) RX 54B#0078981224000001
(1739018392.478) RX 54C#7166400000705800
(1739018392.479) RX 1C2#52
(1739018392.479) RX 54F#28010000078A8A60
(1739018392.481) RX 11A#014000AA800003CE
(1739018392.482) RX 1DA#C0641800000102A7
(1739018392.483) RX 1DB#FE60BF2A0000015A
(1739018392.483) RX 1DC#B40F8FFD0130C9CE
(1739018392.484) RX 1D4#F7070000474600BC
(1739018392.484) RX 1F2#10640000001E010D
(1739018392.484) RX 284#000000000000B238
(1739018392.489) RX 1C2#53
(1739018392.490) RX 11A#014000AAC0000003
(1739018392.492) RX 1DA#C064180000010322
(1739018392.493) RX 1DB#FE60BF2A00000250
(1739018392.494) RX 1DC#B40F8FFD0520C64C
(1739018392.494) RX 1D4#F707000087460070
(1739018392.494) RX 1F2#10640000001E020E
(1739018392.494) RX 50B#000006C00060
(1739018392.499) RX 1C2#54
(1739018392.501) RX 11A#0140005500000115
(1739018392.502) RX 1DA#C064180000010028
(1739018392.503) RX 1DB#FE60BF2A000003D5
(1739018392.504) RX 1DC#B40F8FFD08C0CB1B
(1739018392.504) RX 1D4#F7070000C74600B7
(1739018392.504) RX 1F2#10640000001E030F
(1739018392.505) RX 284#000000000000B339
(1739018392.509) RX 1C2#55
(1739018392.511) RX 11A#01400055400002D8
(1739018392.512) RX 1DA#C0641800000101AD
(1739018392.513) RX 1DB#FE60BF2A000000DF
(1739018392.514) RX 1DC#B40F8FFD0CCCD8E4
(1739018392.514) RX 1D4#F70700000746007B
(1739018392.515) RX 1F2#10640000001E000C
(1739018392.519) RX 1C2#56
(1739018392.521) RX 11A#014000AA800003CE
(1739018392.522) RX 1DA#C0641800000102A7
(1739018392.523) RX 1DB#FE60BF2A0000015A
(1739018392.524) RX 1DC#B40F8FFD0130C9CE
(1739018392.525) RX 1D4#F7070000474600BC
(1739018392.525) RX 1F2#10640000001E010D
(1739018392.525) RX 284#000000000000B43A
(1739018392.529) RX 1C2#57
(1739018392.530) RX 11A#014000AAC0000003
(1739018392.532) RX 1DA#C064180000010322
(1739018392.533) RX 1DB#FE60BF2A00000250
(1739018392.534) RX 1DC#B40F8FFD0520C64C
(1739018392.535) RX 1D4#F707000087460070
(1739018392.535) RX 1F2#10640000001E020E
(1739018392.535) RX 5B9#67FF67FF28
(1739018392.539) RX 1C2#58
(1739018392.541) RX 11A#0140005500000115
(1739018392.542) RX 1DA#C064180000010028
(1739018392.542) RX 55A#002F2F005F315B68
(1739018392.544) RX 1DB#FE60BF2A000003D5
(1739018392.544) RX 1DC#B40F8FFD08C0CB1B
(1739018392.544) RX 55B#C7C0AA00E5001156
(1739018392.544) RX 5BC#59032026B205209A
(1739018392.545) RX 1D4#F7070000C74600B7
(1739018392.545) RX 1F2#10640000001E030F
(1739018392.546) RX 284#000000000000B53B
(1739018392.549) RX 1C2#59
(1739018392.551) RX 11A#01400055400002D8
(1739018392.552) RX 1DA#C0641800000101AD
(1739018392.553) RX 1DB#FE60BF2A000000DF
(1739018392.554) RX 1DC#B40F8FFD0CCCD8E4
(1739018392.554) RX 380#02041021000000B0
(1739018392.554) RX 5BF#0000000028000009
(1739018392.555) RX 1D4#F70700000746007B
(1739018392.556) RX 1F2#10640000001E000C
(1739018392.556) RX 50C#00000000B2A6
(1739018392.559) RX 1C2#5A
(1739018392.561) RX 11A#014000AA800003CE
(1739018392.562) RX 1DA#C0641800000102A7
(1739018392.563) RX 1DB#FE60BF2A0000015A
(1739018392.564) RX 1DC#B40F8FFD0130C9CE
(1739018392.566) RX 1D4#F7070000474600BC
(1739018392.566) RX 1F2#10640000001E010D
(1739018392.566) RX 284#000000000000B63C
(1739018392.569) RX 1C2#5B
(1739018392.570) RX 11A#014000AAC0000003
(1739018392.572) RX 1DA#C064180000010322
(1739018392.573) RX 1DB#FE60BF2A00000250
(1739018392.574) RX 1DC#B40F8FFD0520C64C
(1739018392.576) RX 1D4#F707000087460070
(1739018392.576) RX 1F2#10640000001E020E
(1739018392.576) RX 50A#8512A00D8020
(1739018392.577) RX 54A#9E0070072600002C
(1739018392.577) RX 54B#0078981224000001
(1739018392.578) RX 54C#7166400000705800
(1739018392.579) RX 54F#2801000007CB8A60
(1739018392.579) RX 1C2#5C
(1739018392.581) RX 11A#0140005500000115
(1739018392.582) RX 1DA#C064180000010028
(1739018392.583) RX 1DB#FE60BF2A000003D5
(1739018392.584) RX 1DC#B40F8FFD08C0CB1B
(1739018392.586) RX 1D4#F7070000C74600B7
(1739018392.586) RX 1F2#10640000001E030F
(1739018392.587) RX 284#000000000000B73D
(1739018392.589) RX 1C2#5D
(1739018392.591) RX 11A#01400055400002D8
(1739018392.592) RX 1DA#C0641800000101AD
(1739018392.593) RX 1DB#FE60BF2A000000DF
(1739018392.594) RX 1DC#B40F8FFD0CCCD8E4
(1739018392.596) RX 1D4#F70700000746007B
(1739018392.597) RX 1F2#10640000001E000C
(1739018392.597) RX 284#000000000000B83E
(1739018392.597) RX 50B#000006C00060
(1739018392.599) RX 1C2#5E
(1739018392.601) RX 11A#014000AA800003CE
(1739018392.602) RX 1DA#C0641800000102A7
(1739018392.604) RX 1DB#FE60BF2A0000015A
(1739018392.604) RX 1DC#B40F8FFD0130C9CE
(1739018392.607) RX 1D4#F7070000474600BC
(1739018392.607) RX 1F2#10640000001E010D
(1739018392.609) RX 1C2#5F
(1739018392.610) RX 11A#014000AAC0000003
(1739018392.612) RX 1DA#C064180000010322
(1739018392.614) RX 1DB#FE60BF2A00000250
(1739018392.614) RX 1DC#B40F8FFD0520C64C
(1739018392.617) RX 1D4#F707000087460070
(1739018392.617) RX 1F2#10640000001E020E
(1739018392.617) RX 284#000000000000B93F
(1739018392.619) RX 1C2#50
(1739018392.621) RX 11A#0140005500000115
(1739018392.622) RX 1DA#C064180000010028
(1739018392.624) RX 1DB#FE60BF2A000003D5
(1739018392.624) RX 1DC#B40F8FFD08C0CB1B
(1739018392.627) RX 1D4#F7070000C74600B7
(1739018392.627) RX 1F2#10640000001E030F
(1739018392.629) RX 1C2#51
(1739018392.631) RX 11A#01400055400002D8
(1739018392.632) RX 1DA#C0641800000101AD
(1739018392.634) RX 1DB#FE60BF2A000000DF
(1739018392.634) RX 1DC#B40F8FFD0CCCD8E4
(1739018392.637) RX 1D4#F70700000746007B
(1739018392.638) RX 1F2#10640000001E000C
(1739018392.638) RX 284#000000000000BA40
(1739018392.639) RX 1C2#52
(1739018392.641) RX 11A#014000AA800003CE
(1739018392.642) RX 1DA#C0641800000102A7
(1739018392.642) RX 55A#00302F005F315B68
(1739018392.644) RX 1DB#FE60BF2A0000015A
(1739018392.644) RX 1DC#B40F8FFD0130C9CE
(1739018392.644) RX 55B#C7C0AA00E500125C
(1739018392.645) RX 5BC#59032026B205209A
(1739018392.648) RX 1D4#F7070000474600BC
(1739018392.648) RX 1F2#10640000001E010D
(1739018392.649) RX 1C2#53
(1739018392.650) RX 11A#014000AAC0000003
(1739018392.652) RX 1DA#C064180000010322
(1739018392.654) RX 1DB#FE60BF2A00000250
(1739018392.654) RX 1DC#B40F8FFD0520C64C
(1739018392.654) RX 380#020410210000008D
(1739018392.654) RX 5BF#000000002800001A
(1739018392.658) RX 1D4#F707000087460070
(1739018392.658) RX 1F2#10640000001E020E
(1739018392.658) RX 284#000000000000BB41
(1739018392.659) RX 50C#000000015D5F
(1739018392.660) RX 1C2#54
(1739018392.661) RX 11A#0140005500000115
(1739018392.662) RX 1DA#C064180000010028
(1739018392.664) RX 1DB#FE60BF2A000003D5
(1739018392.664) RX 1DC#B40F8FFD08C0CB1B
(1739018392.668) RX 1D4#F7070000C74600B7
(1739018392.668) RX 1F2#10640000001E030F
(1739018392.670) RX 1C2#55
(1739018392.671) RX 11A#01400055400002D8
(1739018392.672) RX 1DA#C0641800000101AD
(1739018392.674) RX 1DB#FE60BF2A000000DF
(1739018392.674) RX 1DC#B40F8FFD0CCCD8E4
(1739018392.676) RX 54A#100070072600002C
(1739018392.677) RX 54B#0078981224000001
(1739018392.678) RX 1D4#F70700000746007B
(1739018392.679) RX 1F2#10640000001E000C
(1739018392.679) RX 284#000000000000BC42
(1739018392.679) RX 50A#8532A00D8020
(1739018392.679) RX 54C#7166400000705800
(1739018392.680) RX 1C2#56
(1739018392.680) RX 54F#28010000070B8A60
(1739018392.681) RX 11A#014000AA800003CE
(1739018392.682) RX 1DA#C0641800000102A7
(1739018392.684) RX 1DB#FE60BF2A0000015A
(1739018392.684) RX 1DC#B40F8FFD0130C9CE
(1739018392.689) RX 1D4#F7070000474600BC
(1739018392.689) RX 1F2#10640000001E010D
(1739018392.690) RX 1C2#57
(1739018392.690) RX 11A#014000AAC0000003
(1739018392.692) RX 1DA#C064180000010322
(1739018392.694) RX 1DB#FE60BF2A00000250
(1739018392.694) RX 1DC#B40F8FFD0520C64C
(1739018392.699) RX 1D4#F707000087460070
(1739018392.699) RX 1F2#10640000001E020E
(1739018392.699) RX 284#000000000000BD43
