(1739018357.817) RX 1DB#FE60BF2A000000DF
(1739018357.817) RX 1DC#B40F8FFD0CCCD8E4
(1739018357.822) RX 1DA#C064180000010322
(1739018357.823) RX 1C2#50
(1739018357.823) RX 380#020410210000008D
(1739018357.823) RX 1D4#F7070000474600BC
(1739018357.823) RX 1F2#10640000001E010D
(1739018357.823) RX 284#000000000000ED73
(1739018357.824) RX 5BF#000000002800001A
(1739018357.824) RX 11A#0140005500000115
(1739018357.827) RX 1DB#FE60BF2A0000015A
(1739018357.827) RX 1DC#B40F8FFD0130C9CE
(1739018357.829) RX 1DA#C064180000010028
(1739018357.829) RX 1C2#51
(1739018357.830) RX 54A#9E0070072600002C
(1739018357.830) RX 1D4#F707000087460070
(1739018357.830) RX 1F2#10640000001E020E
(1739018357.830) RX 50C#000000015D5F
(1739018357.831) RX 54B#0078981214000001
(1739018357.832) RX 54C#7066400000505800
(1739018357.833) RX 54F#2601000007CD8A5F
(1739018357.833) RX 11A#01400055400002D8
(1739018357.837) RX 1DB#FE60BF2A00000250
(1739018357.837) RX 1DC#B40F8FFD0520C64C
(1739018357.839) RX 1DA#C0641800000101AD
(1739018357.839) RX 1C2#52
(1739018357.840) RX 1D4#F7070000C74600B7
(1739018357.841) RX 1F2#10640000001E030F
(1739018357.841) RX 284#000000000000EE74
(1739018357.844) RX 11A#014000AA800003CE
(1739018357.847) RX 1DB#FE60BF2A000003D5
(1739018357.848) RX 1DC#B40F8FFD08C0CB1B
(1739018357.848) RX 55B#C8005500E580136F
(1739018357.848) RX 5BC#59032C26B3054074
(1739018357.849) RX 1DA#C0641800000102A7
(1739018357.849) RX 55A#002F2E005F315B68
(1739018357.849) RX 1C2#53
(1739018357.850) RX 1D4#F70700000746007B
(1739018357.851) RX 1F2#10640000001E000C
(1739018357.851) RX 50A#8532A00C8020
(1739018357.853) RX 11A#014000AAC0000003
(1739018357.857) RX 1DB#FE60BF2A000000DF
(1739018357.857) RX 1DC#B40F8FFD0CCCD8E4
(1739018357.859) RX 1DA#C064180000010322
(1739018357.859) RX 1C2#54
(1739018357.861) RX 1D4#F7070000474600BC
(1739018357.861) RX 1F2#10640000001E010D
(1739018357.861) RX 284#000000000000EF75
(1739018357.864) RX 11A#0140005500000115
(1739018357.867) RX 1DB#FE60BF2A0000015A
(1739018357.867) RX 1DC#B40F8FFD0130C9CE
(1739018357.869) RX 1DA#C064180000010028
(1739018357.869) RX 1C2#55
(1739018357.871) RX 1D4#F707000087460070
(1739018357.871) RX 1F2#10640000001E020E
(1739018357.871) RX 50B#000006C00060
(1739018357.873) RX 11A#01400055400002D8
(1739018357.877) RX 1DB#FE60BF2A00000250
(1739018357.877) RX 1DC#B40F8FFD0520C64C
(1739018357.879) RX 1DA#C0641800000101AD
(1739018357.879) RX 1C2#56
(1739018357.881) RX 1D4#F7070000C74600B7
(1739018357.881) RX 1F2#10640000001E030F
(1739018357.882) RX 284#000000000000F076
(1739018357.884) RX 11A#014000AA800003CE
(1739018357.887) RX 1DB#FE60BF2A000003D5
(1739018357.888) RX 1DC#B40F8FFD08C0CB1B
(1739018357.889) RX 1DA#C0641800000102A7
(1739018357.889) RX 1C2#57
(1739018357.891) RX 1D4#F70700000746007B
(1739018357.892) RX 1F2#10640000001E000C
(1739018357.893) RX 11A#014000AAC0000003
(1739018357.897) RX 1DB#FE60BF2A000000DF
(1739018357.897) RX 1DC#B40F8FFD0CCCD8E4
(1739018357.899) RX 1DA#C064180000010322
(1739018357.899) RX 1C2#58
(1739018357.902) RX 1D4#F7070000474600BC
(1739018357.902) RX 1F2#10640000001E010D
(1739018357.902) RX 284#000000000000F177
(1739018357.904) RX 11A#0140005500000115
(1739018357.907) RX 1DB#FE60BF2A0000015A
(1739018357.908) RX 1DC#B40F8FFD0130C9CE
(1739018357.909) RX 1DA#C064180000010028
(1739018357.909) RX 1C2#59
(1739018357.912) RX 1D4#F707000087460070
(1739018357.912) RX 1F2#10640000001E020E
(1739018357.913) RX 11A#01400055400002D8
(1739018357.917) RX 1DB#FE60BF2A00000250
(1739018357.917) RX 1DC#B40F8FFD0520C64C
(1739018357.919) RX 1DA#C0641800000101AD
(1739018357.919) RX 1C2#5A
(1739018357.920) RX 380#020410210000009E
(1739018357.920) RX 5BF#000000002800002B
(1739018357.928) RX 1D4#F7070000C74600B7
(1739018357.928) RX 1F2#10640000001E030F
(1739018357.928) RX 284#000000000000F278
(1739018357.928) RX 11A#014000AA800003CE
(1739018357.928) RX 1DB#FE60BF2A000003D5
(1739018357.929) RX 1DC#B40F8FFD08C0CB1B
(1739018357.929) RX 1DA#C0641800000102A7
(1739018357.929) RX 1C2#5B
(1739018357.930) RX 54A#100070072600002C
(1739018357.931) RX 54B#0078981214000001
(1739018357.932) RX 54C#7066400000505800
(1739018357.933) RX 1D4#F70700000746007B
(1739018357.934) RX 1F2#10640000001E000C
(1739018357.934) RX 50C#00000002B20D
(1739018357.934) RX 11A#014000AAC0000003
(1739018357.934) RX 54F#26010000070D8A5F
(1739018357.937) RX 1DB#FE60BF2A000000DF
(1739018357.938) RX 1DC#B40F8FFD0CCCD8E4
(1739018357.939) RX 1DA#C064180000010322
(1739018357.939) RX 1C2#5C
(1739018357.943) RX 1D4#F7070000474600BC
(1739018357.943) RX 1F2#10640000001E010D
(1739018357.943) RX 284#000000000000F379
(1739018357.944) RX 11A#0140005500000115
(1739018357.947) RX 1DB#FE60BF2A0000015A
(1739018357.948) RX 1DC#B40F8FFD0130C9CE
(1739018357.948) RX 55B#C800AA00E5801022
(1739018357.948) RX 5BC#59032C26B3054074
(1739018357.949) RX 1DA#C064180000010028
(1739018357.949) RX 55A#002F2E005F315B68
(1739018357.949) RX 1C2#5D
(1739018357.953) RX 1D4#F707000087460070
(1739018357.953) RX 1F2#10640000001E020E
(1739018357.953) RX 50A#8552A00C8020
(1739018357.954) RX 11A#01400055400002D8
(1739018357.957) RX 1DB#FE60BF2A00000250
(1739018357.958) RX 1DC#B40F8FFD0520C64C
(1739018357.959) RX 1DA#C0641800000101AD
(1739018357.959) RX 1C2#5E
(1739018357.963) RX 1D4#F7070000C74600B7
(1739018357.963) RX 1F2#10640000001E030F
(1739018357.964) RX 284#000000000000F47A
(1739018357.964) RX 11A#014000AA800003CE
(1739018357.967) RX 1DB#FE60BF2A000003D5
(1739018357.968) RX 1DC#B40F8FFD08C0CB1B
(1739018357.969) RX 1DA#C0641800000102A7
(1739018357.969) RX 1C2#5F
(1739018357.973) RX 11A#014000AAC0000003
(1739018357.973) RX 1D4#F70700000746007B
(1739018357.974) RX 1F2#10640000001E000C
(1739018357.974) RX 50B#000006C00060
(1739018357.977) RX 1DB#FE60BF2A000000DF
(1739018357.978) RX 1DC#B40F8FFD0CCCD8E4
(1739018357.979) RX 1DA#C064180000010322
(1739018357.979) RX 1C2#50
(1739018357.984) RX 1D4#F7070000474600BC
(1739018357.984) RX 11A#0140005500000115
(1739018357.984) RX 1F2#10640000001E010D
(1739018357.984) RX 284#000000000000F57B
(1739018357.987) RX 1DB#FE60BF2A0000015A
(1739018357.988) RX 1DC#B40F8FFD0130C9CE
(1739018357.989) RX 1DA#C064180000010028
(1739018357.989) RX 1C2#51
(1739018357.993) RX 11A#01400055400002D8
(1739018357.994) RX 1D4#F707000087460070
(1739018357.994) RX 1F2#10640000001E020E
(1739018357.997) RX 1DB#FE60BF2A00000250
(1739018357.998) RX 1DC#B40F8FFD0520C64C
(1739018357.999) RX 1DA#C0641800000101AD
(1739018357.999) RX 1C2#52
(1739018358.004) RX 11A#014000AA800003CE
(1739018358.004) RX 1D4#F7070000C74600B7
(1739018358.004) RX 1F2#10640000001E030F
(1739018358.005) RX 284#000000000000F67C
(1739018358.007) RX 1DB#FE60BF2A000003D5
(1739018358.008) RX 1DC#B40F8FFD08C0CB1B
(1739018358.009) RX 1DA#C0641800000102A7
(1739018358.009) RX 1C2#53
(1739018358.013) RX 11A#014000AAC0000003
(1739018358.014) RX 1D4#F70700000746007B
(1739018358.015) RX 1F2#10640000001E000C
(1739018358.017) RX 1DB#FE60BF2A000000DF
(1739018358.018) RX 1DC#B40F8FFD0CCCD8E4
(1739018358.019) RX 1DA#C064180000010322
(1739018358.019) RX 1C2#54
(1739018358.020) RX 380#02041021000000AF
(1739018358.020) RX 5BF#000000002800003C
(1739018358.024) RX 11A#0140005500000115
(1739018358.025) RX 1D4#F7070000474600BC
(1739018358.025) RX 1F2#10640000001E010D
(1739018358.025) RX 284#000000000000F77D
(1739018358.028) RX 1DB#FE60BF2A0000015A
(1739018358.028) RX 1DC#B40F8FFD0130C9CE
(1739018358.029) RX 1DA#C064180000010028
(1739018358.029) RX 1C2#55
(1739018358.031) RX 54A#9E0070072600002C
(1739018358.032) RX 54B#0078981214000001
(1739018358.033) RX 54C#7066400000505800
(1739018358.034) RX 11A#01400055400002D8
(1739018358.034) RX 54F#26010000074D8A5F
(1739018358.035) RX 1D4#F707000087460070
(1739018358.035) RX 1F2#10640000001E020E
(1739018358.035) RX 50C#000000035DF4
(1739018358.038) RX 1DB#FE60BF2A00000250
(1739018358.038) RX 1DC#B40F8FFD0520C64C
(1739018358.039) RX 1DA#C0641800000101AD
(1739018358.039) RX 1C2#56
(1739018358.044) RX 11A#014000AA800003CE
(1739018358.045) RX 1D4#F7070000C74600B7
(1739018358.045) RX 1F2#10640000001E030F
(1739018358.046) RX 284#000000000000F87E
(1739018358.048) RX 1DB#FE60BF2A000003D5
(1739018358.048) RX 1DC#B40F8FFD08C0CB1B
(1739018358.048) RX 55B#C8005500E5C0117D
(1739018358.049) RX 1DA#C0641800000102A7
(1739018358.049) RX 55A#002F2E005F315B68
(1739018358.049) RX 5BC#59032C26B3054074
(1739018358.049) RX 1C2#57
(1739018358.053) RX 11A#014000AAC0000003
(1739018358.055) RX 1D4#F70700000746007B
(1739018358.056) RX 1F2#10640000001E000C
(1739018358.056) RX 50A#8572A00D8020
(1739018358.058) RX 1DB#FE60BF2A000000DF
(1739018358.058) RX 1DC#B40F8FFD0CCCD8E4
(1739018358.059) RX 1DA#C064180000010322
(1739018358.059) RX 1C2#58
(1739018358.064) RX 11A#0140005500000115
(1739018358.066) RX 1D4#F7070000474600BC
(1739018358.066) RX 1F2#10640000001E010D
(1739018358.066) RX 284#000000000000F97F
(1739018358.068) RX 1DB#FE60BF2A0000015A
(1739018358.068) RX 1DC#B40F8FFD0130C9CE
(1739018358.069) RX 1DA#C064180000010028
(1739018358.069) RX 1C2#59
(1739018358.074) RX 11A#01400055400002D8
(1739018358.076) RX 1D4#F707000087460070
(1739018358.076) RX 1F2#10640000001E020E
(1739018358.076) RX 50B#000006C00060
(1739018358.078) RX 1DB#FE60BF2A00000250
(1739018358.078) RX 1DC#B40F8FFD0520C64C
(1739018358.079) RX 1DA#C0641800000101AD
(1739018358.079) RX 1C2#5A
(1739018358.084) RX 11A#014000AA800003CE
(1739018358.086) RX 1D4#F7070000C74600B7
(1739018358.086) RX 1F2#10640000001E030F
(1739018358.087) RX 284#000000000000FA80
(1739018358.088) RX 1DB#FE60BF2A000003D5
(1739018358.088) RX 1DC#B40F8FFD08C0CB1B
(1739018358.089) RX 1DA#C0641800000102A7
(1739018358.089) RX 1C2#5B
(1739018358.093) RX 11A#014000AAC0000003
(1739018358.096) RX 1D4#F70700000746007B
(1739018358.097) RX 1F2#10640000001E000C
(1739018358.098) RX 1DB#FE60BF2A000000DF
(1739018358.098) RX 1DC#B40F8FFD0CCCD8E4
(1739018358.099) RX 1DA#C064180000010322
(1739018358.099) RX 1C2#5C
(1739018358.104) RX 11A#0140005500000115
(1739018358.107) RX 1D4#F7070000474600BC
(1739018358.107) RX 1F2#10640000001E010D
(1739018358.107) RX 284#000000000000FB81
(1739018358.108) RX 1DB#FE60BF2A0000015A
(1739018358.108) RX 1DC#B40F8FFD0130C9CE
(1739018358.109) RX 1DA#C064180000010028
(1739018358.109) RX 1C2#5D
(1739018358.114) RX 11A#01400055400002D8
(1739018358.117) RX 1D4#F707000087460070
(1739018358.117) RX 1F2#10640000001E020E
(1739018358.118) RX 1DB#FE60BF2A00000250
(1739018358.118) RX 1DC#B40F8FFD0520C64C
(1739018358.119) RX 1DA#C0641800000101AD
(1739018358.119) RX 1C2#5E
(1739018358.120) RX 380#02041021000000B0
(1739018358.120) RX 5BF#0000000028000009
(1739018358.124) RX 11A#014000AA800003CE
(1739018358.127) RX 1D4#F7070000C74600B7
(1739018358.127) RX 1F2#10640000001E030F
(1739018358.128) RX 284#000000000000FC82
(1739018358.128) RX 1DB#FE60BF2A000003D5
(1739018358.128) RX 1DC#B40F8FFD08C0CB1B
(1739018358.129) RX 1DA#C0641800000102A7
(1739018358.129) RX 1C2#5F
(1739018358.130) RX 54A#100070072600002C
(1739018358.131) RX 54B#0078981214000001
(1739018358.132) RX 54C#7066400000505800
(1739018358.133) RX 54F#26010000078D8A5F
(1739018358.133) RX 11A#014000AAC0000003
(1739018358.137) RX 1D4#F70700000746007B
(1739018358.138) RX 1F2#10640000001E000C
(1739018358.138) RX 1DB#FE60BF2A000000DF
(1739018358.138) RX 284#000000000000FD83
(1739018358.138) RX 1DC#B40F8FFD0CCCD8E4
(1739018358.139) RX 1DA#C064180000010322
(1739018358.139) RX 50C#00000000B2A6
(1739018358.139) RX 1C2#50
(1739018358.144) RX 11A#0140005500000115
(1739018358.148) RX 1D4#F7070000474600BC
(1739018358.148) RX 1F2#10640000001E010D
(1739018358.148) RX 5A9#643BB01304300000
(1739018358.148) RX 1DB#FE60BF2A0000015A
(1739018358.148) RX 1DC#B40F8FFD0130C9CE
(1739018358.149) RX 1DA#C064180000010028
(1739018358.149) RX 55A#002F2E005F315B68
(1739018358.149) RX 55B#C800AA00E5C01230
(1739018358.150) RX 5BC#59032C26B3054074
(1739018358.150) RX 1C2#51
(1739018358.154) RX 11A#01400055400002D8
(1739018358.158) RX 1DB#FE60BF2A00000250
(1739018358.158) RX 1D4#F707000087460070
(1739018358.158) RX 1DC#B40F8FFD0520C64C
(1739018358.159) RX 1DA#C0641800000101AD
(1739018358.159) RX 1F2#10640000001E020E
(1739018358.159) RX 284#000000000000FE84
(1739018358.159) RX 50A#8512A00D8020
(1739018358.159) RX 1C2#52
(1739018358.164) RX 11A#014000AA800003CE
(1739018358.168) RX 1DB#FE60BF2A000003D5
(1739018358.168) RX 1D4#F7070000C74600B7
(1739018358.168) RX 1DC#B40F8FFD08C0CB1B
(1739018358.169) RX 1DA#C0641800000102A7
(1739018358.169) RX 1F2#10640000001E030F
(1739018358.170) RX 1C2#53
(1739018358.173) RX 11A#014000AAC0000003
(1739018358.178) RX 1DB#FE60BF2A000000DF
(1739018358.178) RX 1DC#B40F8FFD0CCCD8E4
(1739018358.178) RX 1D4#F70700000746007B
(1739018358.179) RX 1DA#C064180000010322
(1739018358.179) RX 1F2#10640000001E000C
(1739018358.179) RX 284#000000000000FF85
(1739018358.179) RX 50B#000006C00060
(1739018358.180) RX 1C2#54
(1739018358.184) RX 11A#0140005500000115
(1739018358.188) RX 1DB#FE60BF2A0000015A
(1739018358.188) RX 1DC#B40F8FFD0130C9CE
(1739018358.189) RX 1D4#F7070000474600BC
(1739018358.189) RX 1DA#C064180000010028
(1739018358.189) RX 1F2#10640000001E010D
(1739018358.190) RX 1C2#55
(1739018358.193) RX 11A#01400055400002D8
(1739018358.198) RX 1DB#FE60BF2A00000250
(1739018358.198) RX 1DC#B40F8FFD0520C64C
(1739018358.198) RX 1DA#C0641800000101AD
(1739018358.199) RX 1D4#F707000087460070
(1739018358.199) RX 1F2#10640000001E020E
(1739018358.199) RX 284#0000000000000086
(1739018358.200) RX 1C2#56
(1739018358.204) RX 11A#014000AA800003CE
(1739018358.208) RX 1DB#FE60BF2A000003D5
(1739018358.208) RX 1DC#B40F8FFD08C0CB1B
(1739018358.209) RX 1DA#C0641800000102A7
(1739018358.209) RX 1D4#F7070000C74600B7
(1739018358.209) RX 1F2#10640000001E030F
(1739018358.210) RX 1C2#57
(1739018358.213) RX 11A#014000AAC0000003
(1739018358.218) RX 1DB#FE60BF2A000000DF
(1739018358.218) RX 1DC#B40F8FFD0CCCD8E4
(1739018358.219) RX 1DA#C064180000010322
(1739018358.219) RX 1D4#F70700000746007B
(1739018358.219) RX 1F2#10640000001E000C
(1739018358.220) RX 1C2#58
(1739018358.220) RX 284#0000000000000187
(1739018358.220) RX 5B9#67FF67FF28
(1739018358.220) RX 380#020410210000008D
(1739018358.221) RX 5BF#000000002800001A
(1739018358.224) RX 11A#0140005500000115
(1739018358.228) RX 1DB#FE60BF2A0000015A
(1739018358.228) RX 1DC#B40F8FFD0130C9CE
(1739018358.229) RX 1DA#C064180000010028
(1739018358.230) RX 1D4#F7070000474600BC
(1739018358.230) RX 1C2#59
(1739018358.230) RX 1F2#10640000001E010D
(1739018358.232) RX 54A#9E0070072600002C
(1739018358.233) RX 54B#0078981214000001
(1739018358.234) RX 11A#01400055400002D8
(1739018358.234) RX 54C#7066400000505800
(1739018358.235) RX 54F#2601000007CD8A5F
(1739018358.238) RX 1DB#FE60BF2A00000250
(1739018358.238) RX 1DC#B40F8FFD0520C64C
(1739018358.239) RX 1DA#C0641800000101AD
(1739018358.240) RX 1C2#5A
(1739018358.240) RX 1D4#F707000087460070
(1739018358.240) RX 1F2#10640000001E020E
(1739018358.240) RX 284#0000000000000288
(1739018358.241) RX 50C#000000015D5F
(1739018358.244) RX 11A#014000AA800003CE
(1739018358.248) RX 1DB#FE60BF2A000003D5
(1739018358.249) RX 1DA#C0641800000102A7
(1739018358.249) RX 1DC#B40F8FFD08C0CB1B
(1739018358.249) RX 55A#002F2E005F315B68
(1739018358.249) RX 55B#C8005500E5C013F2
(1739018358.250) RX 5BC#59032026B20620A0
(1739018358.250) RX 1C2#5B
(1739018358.250) RX 1D4#F7070000C74600B7
(1739018358.250) RX 1F2#10640000001E030F
(1739018358.253) RX 11A#014000AAC0000003
(1739018358.258) RX 1DB#FE60BF2A000000DF
(1739018358.258) RX 1DA#C064180000010322
(1739018358.259) RX 1DC#B40F8FFD0CCCD8E4
(1739018358.259) RX 5C0#C04C4C0004541100
(1739018358.259) RX 5EB#E00FFFFFFFFFFFFF
(1739018358.260) RX 1C2#5C
(1739018358.260) RX 1D4#F70700000746007B
(1739018358.260) RX 1F2#10640000001E000C
(1739018358.261) RX 284#0000000000000389
(1739018358.261) RX 50A#8532A00D8020
(1739018358.264) RX 11A#0140005500000115
(1739018358.268) RX 1DB#FE60BF2A0000015A
(1739018358.268) RX 1DA#C064180000010028
(1739018358.269) RX 1DC#B40F8FFD0130C9CE
(1739018358.270) RX 1C2#5D
(1739018358.270) RX 1D4#F7070000474600BC
(1739018358.271) RX 1F2#10640000001E010D
(1739018358.274) RX 11A#01400055400002D8
(1739018358.278) RX 1DB#FE60BF2A00000250
(1739018358.278) RX 1DA#C0641800000101AD
(1739018358.279) RX 1DC#B40F8FFD0520C64C
(1739018358.280) RX 1C2#5E
(1739018358.281) RX 1D4#F707000087460070
(1739018358.281) RX 1F2#10640000001E020E
(1739018358.281) RX 284#000000000000048A
(1739018358.281) RX 50B#000006C00060
(1739018358.284) RX 11A#014000AA800003CE
(1739018358.288) RX 1DB#FE60BF2A000003D5
(1739018358.288) RX 1DA#C0641800000102A7
(1739018358.289) RX 1DC#B40F8FFD08C0CB1B
(1739018358.290) RX 1C2#5F
(1739018358.291) RX 1D4#F7070000C74600B7
(1739018358.291) RX 1F2#10640000001E030F
(1739018358.293) RX 11A#014000AAC0000003
(1739018358.298) RX 1DB#FE60BF2A000000DF
(1739018358.298) RX 1DA#C064180000010322
(1739018358.299) RX 1DC#B40F8FFD0CCCD8E4
(1739018358.300) RX 1C2#50
(1739018358.301) RX 1D4#F70700000746007B
(1739018358.301) RX 1F2#10640000001E000C
(1739018358.302) RX 284#000000000000058B
(1739018358.304) RX 11A#0140005500000115
(1739018358.308) RX 1DB#FE60BF2A0000015A
(1739018358.309) RX 1DA#C064180000010028
(1739018358.309) RX 1DC#B40F8FFD0130C9CE
(1739018358.310) RX 1C2#51
(1739018358.311) RX 1D4#F7070000474600BC
(1739018358.312) RX 1F2#10640000001E010D
(1739018358.314) RX 11A#01400055400002D8
(1739018358.318) RX 1DB#FE60BF2A00000250
(1739018358.319) RX 1DA#C0641800000101AD
(1739018358.319) RX 1DC#B40F8FFD0520C64C
(1739018358.320) RX 1C2#52
(1739018358.320) RX 380#020410210000009E
(1739018358.320) RX 5BF#000000002800002B
(1739018358.322) RX 1D4#F707000087460070
(1739018358.322) RX 1F2#10640000001E020E
(1739018358.322) RX 284#000000000000068C
(1739018358.324) RX 11A#014000AA800003CE
(1739018358.328) RX 1DB#FE60BF2A000003D5
(1739018358.329) RX 1DA#C0641800000102A7
(1739018358.329) RX 1DC#B40F8FFD08C0CB1B
(1739018358.330) RX 1C2#53
(1739018358.330) RX 54A#100070072600002C
(1739018358.331) RX 54B#0078981214000001
(1739018358.332) RX 54C#7066400000505800
(1739018358.332) RX 1D4#F7070000C74600B7
(1739018358.332) RX 1F2#10640000001E030F
(1739018358.333) RX 54F#26010000070D8A60
(1739018358.333) RX 11A#014000AAC0000003
(1739018358.338) RX 1DB#FE40BF2A0000008E
(1739018358.339) RX 1DA#C064180000010322
(1739018358.339) RX 1DC#B40F8FFD0CCCD8E4
(1739018358.340) RX 1C2#54
(1739018358.342) RX 1D4#F70700000746007B
(1739018358.342) RX 1F2#10640000001E000C
(1739018358.343) RX 284#000000000000078D
(1739018358.343) RX 50C#00000002B20D
(1739018358.344) RX 11A#0140005500000115
(1739018358.348) RX 1DA#C064180000010028
(1739018358.349) RX 1DB#FE20BF2A000001F8
(1739018358.349) RX 55A#002F2E005F315B68
(1739018358.349) RX 1DC#B40F8FFD0130C9CE
(1739018358.349) RX 55B#C800AA00E5801022
(1739018358.350) RX 5BC#59032026B20620A0
(1739018358.350) RX 1C2#55
(1739018358.352) RX 1D4#F7070000474600BC
(1739018358.353) RX 1F2#10640000001E010D
(1739018358.353) RX 11A#01400055400002D8
(1739018358.358) RX 1DB#FE00BF2A000002A3
(1739018358.359) RX 1DA#C0641800000101AD
(1739018358.359) RX 1DC#B40F8FFD0520C64C
(1739018358.360) RX 1C2#56
(1739018358.363) RX 1D4#F707000087460070
(1739018358.363) RX 1F2#10640000001E020E
(1739018358.363) RX 284#000000000000088E
(1739018358.363) RX 50A#8552A00C8020
(1739018358.364) RX 11A#014000AA800003CE
(1739018358.368) RX 1DA#C0641800000102A7
(1739018358.369) RX 1DB#FDE0BF2A0000031D
(1739018358.369) RX 1DC#B40F8FFD08C0CB1B
(1739018358.370) RX 1C2#57
(1739018358.373) RX 1D4#F7070000C74600B7
(1739018358.373) RX 11A#014000AAC0000003
(1739018358.373) RX 1F2#10640000001E030F
(1739018358.378) RX 1DA#C064180000010322
(1739018358.379) RX 1DB#FDC0BF2A00000046
(1739018358.379) RX 1DC#B40F8FFD0CCCD8E4
(1739018358.380) RX 1C2#58
(1739018358.383) RX 1D4#F70700000746007B
(1739018358.383) RX 1F2#10640000001E000C
(1739018358.384) RX 284#000000000000098F
(1739018358.384) RX 11A#0140005500000115
(1739018358.384) RX 50B#000006C00060
(1739018358.388) RX 1DA#C064180000010028
(1739018358.389) RX 1DB#FDA0BEEA000001E0
(1739018358.389) RX 1DC#B40F8FFD0130C9CE
(1739018358.390) RX 1C2#59
(1739018358.393) RX 1D4#F7070000474600BC
(1739018358.394) RX 1F2#10640000001E010D
(1739018358.394) RX 11A#01400055400002D8
(1739018358.398) RX 1DA#C0641800000101AD
(1739018358.399) RX 1DB#FD80BEEA000002BB
(1739018358.399) RX 1DC#B40F8FFD0520C64C
(1739018358.400) RX 1C2#5A
(1739018358.404) RX 1D4#F707000087460070
(1739018358.404) RX 11A#014000AA800003CE
(1739018358.404) RX 1F2#10640000001E020E
(1739018358.404) RX 284#0000000000000A90
(1739018358.408) RX 1DA#C0641800000102A7
(1739018358.409) RX 1DB#FD60BEEA0000030C
(1739018358.409) RX 1DC#B40F8FFD08C0CB1B
(1739018358.410) RX 1C2#5B
(1739018358.413) RX 11A#014000AAC0000003
(1739018358.414) RX 1D4#F7070000C74600B7
(1739018358.414) RX 1F2#10640000001E030F
(1739018358.418) RX 1DA#C064180000010322
(1739018358.419) RX 1DB#FD60BEEA00000006
(1739018358.419) RX 1DC#B40F8FFD0CCCD8E4
(1739018358.420) RX 1C2#5C
(1739018358.420) RX 380#02041021000000AF
(1739018358.421) RX 5BF#000000002800003C
(1739018358.424) RX 11A#0140005500000115
(1739018358.424) RX 1D4#F70700000746007B
(1739018358.424) RX 1F2#10640000001E000C
(1739018358.425) RX 284#0000000000000B91
(1739018358.428) RX 1DA#C064180000010028
(1739018358.429) RX 1DB#FD40BEEA000001D2
(1739018358.429) RX 1DC#B40F8FFD0130C9CE
(1739018358.430) RX 54A#9E0070072600002C
(1739018358.430) RX 1C2#5D
(1739018358.431) RX 54B#0078981214000001
(1739018358.432) RX 54C#7066400000505800
(1739018358.433) RX 54F#26010000074D8A60
(1739018358.434) RX 11A#01400055400002D8
(1739018358.434) RX 1D4#F7070000474600BC
(1739018358.435) RX 1F2#10640000001E010D
(1739018358.438) RX 1DA#C0641800000101AD
(1739018358.439) RX 1DB#FD40BEEA000002D8
(1739018358.439) RX 1DC#B40F8FFD0520C64C
(1739018358.440) RX 1C2#5E
(1739018358.444) RX 11A#014000AA800003CE
(1739018358.445) RX 1D4#F707000087460070
(1739018358.445) RX 1F2#10640000001E020E
(1739018358.445) RX 284#0000000000000C92
(1739018358.445) RX 50C#000000035DF4
(1739018358.448) RX 1DA#C0641800000102A7
(1739018358.449) RX 55A#002F2E005F315B68
(1739018358.449) RX 1DB#FD40BEEA0000035D
(1739018358.449) RX 1DC#B40F8FFD08C0CB1B
(1739018358.450) RX 55B#C8005500E58011E0
(1739018358.450) RX 5BC#59032026B20620A0
(1739018358.450) RX 1C2#5F
(1739018358.453) RX 11A#014000AAC0000003
(1739018358.455) RX 1D4#F7070000C74600B7
(1739018358.455) RX 1F2#10640000001E030F
(1739018358.458) RX 1DA#C064180000010322
(1739018358.459) RX 1DB#FD40BEEA00000057
(1739018358.459) RX 1DC#B40F8FFD0CCCD8E4
(1739018358.460) RX 1C2#50
(1739018358.464) RX 11A#0140005500000115
(1739018358.465) RX 1D4#F70700000746007B
(1739018358.465) RX 1F2#10640000001E000C
(1739018358.466) RX 284#0000000000000D93
(1739018358.466) RX 50A#8572A00D8020
(1739018358.468) RX 1DA#C064180000010028
(1739018358.469) RX 1DB#FD40BEEA000001D2
(1739018358.469) RX 1DC#B40F8FFD0130C9CE
(1739018358.470) RX 1C2#51
(1739018358.473) RX 11A#01400055400002D8
(1739018358.475) RX 1D4#F7070000474600BC
(1739018358.476) RX 1F2#10640000001E010D
(1739018358.478) RX 1DA#C0641800000101AD
(1739018358.479) RX 1DB#FD40BEEA000002D8
(1739018358.479) RX 1DC#B40F8FFD0520C64C
(1739018358.480) RX 1C2#52
(1739018358.484) RX 11A#014000AA800003CE
(1739018358.486) RX 1D4#F707000087460070
(1739018358.486) RX 1F2#10640000001E020E
(1739018358.486) RX 284#0000000000000E94
(1739018358.486) RX 50B#000006C00060
(1739018358.488) RX 1DA#C0641800000102A7
(1739018358.489) RX 1DB#FD40BEEA0000035D
(1739018358.489) RX 1DC#B40F8FFD08C0CB1B
(1739018358.490) RX 1C2#53
(1739018358.493) RX 11A#014000AAC0000003
(1739018358.496) RX 1D4#F7070000C74600B7
(1739018358.496) RX 1F2#10640000001E030F
(1739018358.498) RX 1DA#C064180000010322
(1739018358.499) RX 1DB#FD60BEEA00000006
(1739018358.499) RX 1DC#B40F8FFD0CCCD8E4
(1739018358.500) RX 1C2#54
(1739018358.504) RX 11A#0140005500000115
(1739018358.506) RX 1D4#F70700000746007B
(1739018358.506) RX 1F2#10640000001E000C
(1739018358.507) RX 284#0000000000000F95
(1739018358.508) RX 1DA#C064180000010028
(1739018358.509) RX 1DB#FD60BEEA00000183
(1739018358.509) RX 1DC#B40F8FFD0130C9CE
(1739018358.510) RX 1C2#55
(1739018358.514) RX 11A#01400055400002D8
(1739018358.516) RX 1D4#F7070000474600BC
(1739018358.517) RX 1F2#10640000001E010D
(1739018358.518) RX 1DA#C0641800000101AD
(1739018358.519) RX 1DB#FD80BEEA000002BB
(1739018358.519) RX 1DC#B40F8FFD0520C64C
(1739018358.520) RX 380#02041021000000B0
(1739018358.521) RX 1C2#56
(1739018358.521) RX 5BF#0000000028000009
(1739018358.524) RX 11A#014000AA800003CE
(1739018358.527) RX 1D4#F707000087460070
(1739018358.527) RX 1F2#10640000001E020E
(1739018358.527) RX 284#0000000000001096
(1739018358.528) RX 1DA#C0641800000102A7
(1739018358.529) RX 1DB#FDA0BEEA0000036F
(1739018358.529) RX 1DC#B40F8FFD08C0CB1B
(1739018358.530) RX 54A#100070072600002C
(1739018358.530) RX 1C2#57
(1739018358.531) RX 54B#0078981214000001
(1739018358.532) RX 54C#7066400000505800
(1739018358.533) RX 11A#014000AAC0000003
(1739018358.533) RX 54F#26010000078D8A60
(1739018358.537) RX 1D4#F7070000C74600B7
(1739018358.537) RX 1F2#10640000001E030F
(1739018358.538) RX 1DA#C064180000010322
(1739018358.539) RX 1DB#FDC0BEEA00000096
(1739018358.539) RX 1DC#B40F8FFD0CCCD8E4
(1739018358.540) RX 1C2#58
(1739018358.544) RX 11A#0140005500000115
(1739018358.547) RX 1D4#F70700000746007B
(1739018358.547) RX 1F2#10640000001E000C
(1739018358.548) RX 284#0000000000001197
(1739018358.548) RX 50C#00000000B2A6
(1739018358.548) RX 1DA#C064180000010028
(1739018358.549) RX 55A#002F2E005F315B68
(1739018358.549) RX 1DB#FDE0BEEA00000142
(1739018358.549) RX 1DC#B40F8FFD0130C9CE
(1739018358.550) RX 55B#C800AA00E58012AD
(1739018358.550) RX 5BC#59032026B20620A0
(1739018358.550) RX 1C2#59
(1739018358.553) RX 11A#01400055400002D8
(1739018358.557) RX 1D4#F7070000474600BC
(1739018358.558) RX 1F2#10640000001E010D
(1739018358.558) RX 284#0000000000001298
(1739018358.558) RX 1DA#C0641800000101AD
(1739018358.559) RX 1DB#FE00BEEA00000273
(1739018358.560) RX 1DC#B40F8FFD0520C64C
(1739018358.560) RX 1C2#5A
(1739018358.564) RX 11A#014000AA800003CE
(1739018358.567) RX 1D4#F707000087460070
(1739018358.568) RX 1F2#10640000001E020E
(1739018358.568) RX 50A#8512A00C8020
(1739018358.568) RX 1DA#C0641800000102A7
(1739018358.569) RX 1DB#FE20BF2A00000377
(1739018358.569) RX 1DC#B40F8FFD08C0CB1B
(1739018358.570) RX 1C2#5B
(1739018358.573) RX 11A#014000AAC0000003
(1739018358.578) RX 1D4#F7070000C74600B7
(1739018358.578) RX 1F2#10640000001E030F
(1739018358.578) RX 284#0000000000001399
(1739018358.578) RX 1DA#C064180000010322
(1739018358.579) RX 1DB#FE40BF2A0000008E
(1739018358.580) RX 1DC#B40F8FFD0CCCD8E4
(1739018358.580) RX 1C2#5C
(1739018358.584) RX 11A#0140005500000115
(1739018358.588) RX 1D4#F70700000746007B
(1739018358.588) RX 1F2#10640000001E000C
(1739018358.588) RX 1DA#C064180000010028
(1739018358.589) RX 50B#000006C00060
(1739018358.589) RX 1DB#FE40BF2A0000010B
(1739018358.590) RX 1DC#B40F8FFD0130C9CE
(1739018358.590) RX 1C2#5D
(1739018358.594) RX 11A#01400055400002D8
(1739018358.598) RX 1D4#F7070000474600BC
(1739018358.598) RX 1DA#C0641800000101AD
(1739018358.599) RX 1F2#10640000001E010D
(1739018358.599) RX 284#000000000000149A
(1739018358.599) RX 1DB#FE60BF2A00000250
(1739018358.600) RX 1DC#B40F8FFD0520C64C
(1739018358.600) RX 1C2#5E
(1739018358.604) RX 11A#014000AA800003CE
(1739018358.608) RX 1DA#C0641800000102A7
(1739018358.609) RX 1D4#F707000087460070
(1739018358.609) RX 1F2#10640000001E020E
(1739018358.609) RX 1DB#FE60BF2A000003D5
(1739018358.610) RX 1DC#B40F8FFD08C0CB1B
(1739018358.610) RX 1C2#5F
(1739018358.613) RX 11A#014000AAC0000003
(1739018358.618) RX 1DA#C064180000010322
(1739018358.619) RX 1D4#F7070000C74600B7
(1739018358.619) RX 1F2#10640000001E030F
(1739018358.619) RX 284#000000000000159B
(1739018358.619) RX 1DB#FE60BF2A000000DF
(1739018358.620) RX 1DC#B40F8FFD0CCCD8E4
(1739018358.621) RX 380#020410210000008D
(1739018358.621) RX 1C2#50
(1739018358.621) RX 5BF#000000002800001A
(1739018358.624) RX 11A#0140005500000115
(1739018358.628) RX 1DA#C064180000010028
(1739018358.629) RX 1D4#F70700000746007B
(1739018358.629) RX 1F2#10640000001E000C
(1739018358.629) RX 1DB#FE60BF2A0000015A
(1739018358.630) RX 1DC#B40F8FFD0130C9CE
(1739018358.630) RX 54A#9E0070072600002C
(1739018358.631) RX 1C2#51
(1739018358.631) RX 54B#0078981214000001
(1739018358.632) RX 54C#7066400000505800
(1739018358.633) RX 54F#2601000007CD8A60
(1739018358.634) RX 11A#01400055400002D8
(1739018358.638) RX 1DA#C0641800000101AD
(1739018358.639) RX 1DB#FE60BF2A00000250
(1739018358.640) RX 1D4#F7070000474600BC
(1739018358.640) RX 1DC#B40F8FFD0520C64C
(1739018358.640) RX 1F2#10640000001E010D
(1739018358.640) RX 284#000000000000169C
(1739018358.641) RX 1C2#52
(1739018358.644) RX 11A#014000AA800003CE
(1739018358.648) RX 1DA#C0641800000102A7
(1739018358.649) RX 55A#002F2E005F315B68
(1739018358.649) RX 1D4#F707000087460070
(1739018358.650) RX 1DB#FE60BF2A000003D5
(1739018358.650) RX 1F2#10640000001E020E
(1739018358.650) RX 1DC#B40F8FFD08C0CB1B
(1739018358.650) RX 50C#000000015D5F
(1739018358.651) RX 55B#C800AA00E5801328
(1739018358.651) RX 5BC#59032026B20620A0
(1739018358.651) RX 1C2#53
(1739018358.653) RX 11A#014000AAC0000003
(1739018358.658) RX 1DA#C064180000010322
(1739018358.659) RX 1DB#FE60BF2A000000DF
(1739018358.660) RX 1DC#B40F8FFD0CCCD8E4
(1739018358.660) RX 1D4#F7070000C74600B7
(1739018358.660) RX 1F2#10640000001E030F
(1739018358.660) RX 284#000000000000179D
(1739018358.661) RX 5A9#643BB01304300000
(1739018358.661) RX 1C2#54
(1739018358.664) RX 11A#0140005500000115
(1739018358.668) RX 1DA#C064180000010028
(1739018358.669) RX 1DB#FE60BF2A0000015A
(1739018358.670) RX 1DC#B40F8FFD0130C9CE
(1739018358.670) RX 1D4#F70700000746007B
(1739018358.670) RX 1F2#10640000001E000C
(1739018358.670) RX 50A#8532A00D8020
(1739018358.671) RX 1C2#55
(1739018358.674) RX 11A#01400055400002D8
(1739018358.678) RX 1DA#C0641800000101AD
(1739018358.679) RX 1DB#FE60BF2A00000250
(1739018358.680) RX 1DC#B40F8FFD0520C64C
(1739018358.680) RX 1D4#F7070000474600BC
(1739018358.680) RX 1F2#10640000001E010D
(1739018358.681) RX 284#000000000000189E
(1739018358.681) RX 1C2#56
(1739018358.684) RX 11A#014000AA800003CE
(1739018358.688) RX 1DA#C0641800000102A7
(1739018358.689) RX 1DB#FE60BF2A000003D5
(1739018358.690) RX 1DC#B40F8FFD08C0CB1B
(1739018358.690) RX 1D4#F707000087460070
(1739018358.691) RX 1F2#10640000001E020E
(1739018358.691) RX 1C2#57
(1739018358.691) RX 50B#000006C00060
(1739018358.693) RX 11A#014000AAC0000003
(1739018358.698) RX 1DA#C064180000010322
(1739018358.699) RX 1DB#FE60BF2A000000DF
(1739018358.700) RX 1DC#B40F8FFD0CCCD8E4
(1739018358.701) RX 1D4#F7070000C74600B7
(1739018358.701) RX 1C2#58
(1739018358.701) RX 1F2#10640000001E030F
(1739018358.701) RX 284#000000000000199F
(1739018358.704) RX 11A#0140005500000115
(1739018358.708) RX 1DA#C064180000010028
(1739018358.709) RX 1DB#FE60BF2A0000015A
(1739018358.710) RX 1DC#B40F8FFD0130C9CE
(1739018358.711) RX 1C2#59
(1739018358.711) RX 1D4#F70700000746007B
(1739018358.711) RX 1F2#10640000001E000C
(1739018358.714) RX 11A#01400055400002D8
(1739018358.718) RX 1DA#C0641800000101AD
(1739018358.719) RX 1DB#FE60BF2A00000250
(1739018358.720) RX 1DC#B40F8FFD0520C64C
(1739018358.721) RX 380#020410210000009E
(1739018358.721) RX 1C2#5A
(1739018358.721) RX 5BF#000000002800002B
(1739018358.721) RX 1D4#F7070000474600BC
(1739018358.721) RX 1F2#10640000001E010D
(1739018358.722) RX 284#0000000000001AA0
(1739018358.724) RX 11A#014000AA800003CE
(1739018358.728) RX 1DA#C0641800000102A7
(1739018358.730) RX 1DB#FE60BF2A000003D5
(1739018358.730) RX 1DC#B40F8FFD08C0CB1B
(1739018358.731) RX 1C2#5B
(1739018358.731) RX 54A#100070072600002C
(1739018358.732) RX 1D4#F707000087460070
(1739018358.732) RX 1F2#10640000001E020E
(1739018358.732) RX 5B9#67FF67FF28
(1739018358.732) RX 54B#0078981214000001
(1739018358.733) RX 11A#014000AAC0000003
(1739018358.733) RX 54C#7066400000505800
(1739018358.734) RX 54F#26010000070D8A60
(1739018358.738) RX 1DA#C064180000010322
(1739018358.739) RX 1DB#FE60BF2A000000DF
(1739018358.740) RX 1DC#B40F8FFD0CCCD8E4
(1739018358.741) RX 1C2#5C
(1739018358.742) RX 1D4#F7070000C74600B7
(1739018358.742) RX 1F2#10640000001E030F
(1739018358.742) RX 284#0000000000001BA1
(1739018358.744) RX 11A#0140005500000115
(1739018358.748) RX 1DA#C064180000010028
(1739018358.749) RX 55A#002F2E005F315B68
(1739018358.750) RX 1DB#FE60BF2A0000015A
(1739018358.750) RX 1DC#B40F8FFD0130C9CE
(1739018358.750) RX 55B#C8005500E5801065
(1739018358.751) RX 5BC#59032C26B3064080
(1739018358.751) RX 1C2#5D
(1739018358.752) RX 1D4#F70700000746007B
(1739018358.752) RX 1F2#10640000001E000C
(1739018358.752) RX 50C#000000025D63
(1739018358.753) RX 11A#01400055400002D8
(1739018358.758) RX 1DA#C0641800000101AD
(1739018358.760) RX 1DB#FE60BF2A00000250
(1739018358.760) RX 1DC#B40F8FFD0520C64C
(1739018358.760) RX 5C0#804C4C0004A01100
(1739018358.761) RX 5EB#E00FFFFFFFFFFFFF
(1739018358.761) RX 1C2#5E
(1739018358.762) RX 1D4#F7070000474600BC
(1739018358.762) RX 1F2#10640000001E010D
(1739018358.763) RX 284#0000000000001CA2
(1739018358.764) RX 11A#014000AA800003CE
(1739018358.768) RX 1DA#C0641800000102A7
(1739018358.770) RX 1DB#FE60BF2A000003D5
(1739018358.770) RX 1DC#B40F8FFD08C0CB1B
(1739018358.771) RX 1C2#5F
(1739018358.772) RX 1D4#F707000087460070
(1739018358.773) RX 1F2#10640000001E020E
(1739018358.773) RX 50A#8552A00D8020
(1739018358.773) RX 11A#014000AAC0000003
(1739018358.778) RX 1DA#C064180000010322
(1739018358.780) RX 1DB#FE60BF2A000000DF
(1739018358.780) RX 1DC#B40F8FFD0CCCD8E4
(1739018358.781) RX 1C2#50
(1739018358.783) RX 1D4#F7070000C74600B7
(1739018358.783) RX 1F2#10640000001E030F
(1739018358.783) RX 284#0000000000001DA3
(1739018358.784) RX 11A#0140005500000115
(1739018358.788) RX 1DA#C064180000010028
(1739018358.790) RX 1DB#FE60BF2A0000015A
(1739018358.790) RX 1DC#B40F8FFD0130C9CE
(1739018358.791) RX 1C2#51
(1739018358.793) RX 1D4#F70700000746007B
(1739018358.793) RX 1F2#10640000001E000C
(1739018358.793) RX 50B#000006C00060
(1739018358.794) RX 11A#01400055400002D8
(1739018358.798) RX 1DA#C0641800000101AD
(1739018358.800) RX 1DB#FE60BF2A00000250
(1739018358.800) RX 1DC#B40F8FFD0520C64C
(1739018358.801) RX 1C2#52
(1739018358.803) RX 1D4#F7070000474600BC
(1739018358.803) RX 1F2#10640000001E010D
(1739018358.804) RX 284#0000000000001EA4
(1739018358.804) RX 11A#014000AA800003CE
(1739018358.808) RX 1DA#C0641800000102A7
(1739018358.810) RX 1DB#FE60BF2A000003D5
(1739018358.810) RX 1DC#B40F8FFD08C0CB1B
(1739018358.811) RX 1C2#53
(1739018358.813) RX 11A#014000AAC0000003
(1739018358.813) RX 1D4#F707000087460070
(1739018358.814) RX 1F2#10640000001E020E
(1739018358.818) RX 1DA#C064180000010322
(1739018358.820) RX 1DB#FE60BF2A000000DF
(1739018358.820) RX 1DC#B40F8FFD0CCCD8E4
(1739018358.821) RX 380#02041021000000AF
(1739018358.821) RX 5BF#000000002800003C
(1739018358.821) RX 1C2#54
(1739018358.824) RX 1D4#F7070000C74600B7
(1739018358.824) RX 11A#0140005500000115
(1739018358.824) RX 1F2#10640000001E030F
(1739018358.824) RX 284#0000000000001FA5
(1739018358.828) RX 1DA#C064180000010028
(1739018358.830) RX 1DB#FE60BF2A0000015A
(1739018358.830) RX 1DC#B40F8FFD0130C9CE
(1739018358.830) RX 54A#9E0070072600002C
(1739018358.831) RX 1C2#55
(1739018358.831) RX 54B#0078981214000001
(1739018358.832) RX 54C#7066400000505800
(1739018358.833) RX 54F#26010000074D8A60
(1739018358.834) RX 11A#01400055400002D8
(1739018358.834) RX 1D4#F70700000746007B
(1739018358.834) RX 1F2#10640000001E000C
(1739018358.838) RX 1DA#C0641800000101AD
(1739018358.840) RX 1DB#FE60BF2A00000250
(1739018358.840) RX 1DC#B40F8FFD0520C64C
(1739018358.841) RX 1C2#56
(1739018358.844) RX 11A#014000AA800003CE
(1739018358.844) RX 1D4#F7070000474600BC
(1739018358.844) RX 1F2#10640000001E010D
(1739018358.845) RX 284#00000000000020A6
(1739018358.848) RX 1DA#C0641800000102A7
(1739018358.849) RX 55A#002F2E005F315B68
(1739018358.850) RX 1DB#FE60BF2A000003D5
(1739018358.850) RX 1DC#B40F8FFD08C0CB1B
(1739018358.850) RX 55B#C8005500E58011E0
(1739018358.851) RX 5BC#59032C26B3064080
(1739018358.851) RX 1C2#57
(1739018358.853) RX 11A#014000AAC0000003
(1739018358.854) RX 1D4#F707000087460070
(1739018358.855) RX 1F2#10640000001E020E
(1739018358.855) RX 50C#00000003B29A
(1739018358.858) RX 1DA#C064180000010322
(1739018358.860) RX 1DB#FE60BF2A000000DF
(1739018358.860) RX 1DC#B40F8FFD0CCCD8E4
(1739018358.861) RX 1C2#58
(1739018358.864) RX 11A#0140005500000115
(1739018358.865) RX 1D4#F7070000C74600B7
(1739018358.865) RX 1F2#10640000001E030F
(1739018358.865) RX 284#00000000000021A7
(1739018358.868) RX 1DA#C064180000010028
(1739018358.870) RX 1DB#FE60BF2A0000015A
(1739018358.870) RX 1DC#B40F8FFD0130C9CE
(1739018358.871) RX 1C2#59
(1739018358.874) RX 11A#01400055400002D8
(1739018358.875) RX 1D4#F70700000746007B
(1739018358.875) RX 1F2#10640000001E000C
(1739018358.875) RX 50A#8572A00D8020
(1739018358.878) RX 1DA#C0641800000101AD
(1739018358.880) RX 1DB#FE60BF2A00000250
(1739018358.880) RX 1DC#B40F8FFD0520C64C
(1739018358.881) RX 1C2#5A
(1739018358.884) RX 11A#014000AA800003CE
(1739018358.885) RX 1D4#F7070000474600BC
(1739018358.885) RX 1F2#10640000001E010D
(1739018358.886) RX 284#00000000000022A8
(1739018358.888) RX 1DA#C0641800000102A7
(1739018358.890) RX 1DB#FE60BF2A000003D5
(1739018358.890) RX 1DC#B40F8FFD08C0CB1B
(1739018358.891) RX 1C2#5B
(1739018358.893) RX 11A#014000AAC0000003
(1739018358.895) RX 1D4#F707000087460070
(1739018358.896) RX 1F2#10640000001E020E
(1739018358.896) RX 50B#000006C00060
(1739018358.898) RX 1DA#C064180000010322
(1739018358.900) RX 1DB#FE60BF2A000000DF
(1739018358.900) RX 1DC#B40F8FFD0CCCD8E4
(1739018358.901) RX 1C2#5C
(1739018358.904) RX 11A#0140005500000115
(1739018358.906) RX 1D4#F7070000C74600B7
(1739018358.906) RX 1F2#10640000001E030F
(1739018358.906) RX 284#00000000000023A9
(1739018358.908) RX 1DA#C064180000010028
(1739018358.910) RX 1DB#FE60BF2A0000015A
(1739018358.910) RX 1DC#B40F8FFD0130C9CE
(1739018358.911) RX 1C2#5D
(1739018358.914) RX 11A#01400055400002D8
(1739018358.916) RX 1D4#F70700000746007B
(1739018358.916) RX 1F2#10640000001E000C
(1739018358.918) RX 1DA#C0641800000101AD
(1739018358.920) RX 1DB#FE60BF2A00000250
(1739018358.920) RX 1DC#B40F8FFD0520C64C
(1739018358.921) RX 380#02041021000000B0
(1739018358.921) RX 5BF#0000000028000009
(1739018358.921) RX 1C2#5E
(1739018358.924) RX 11A#014000AA800003CE
(1739018358.926) RX 1D4#F7070000474600BC
(1739018358.926) RX 1F2#10640000001E010D
(1739018358.927) RX 284#00000000000024AA
(1739018358.928) RX 1DA#C0641800000102A7
(1739018358.930) RX 1DB#FE60BF2A000003D5
(1739018358.930) RX 1DC#B40F8FFD08C0CB1B
(1739018358.931) RX 1C2#5F
(1739018358.931) RX 54A#100070072600002C
(1739018358.932) RX 54B#0078981214000001
(1739018358.933) RX 11A#014000AAC0000003
(1739018358.933) RX 54C#7066400000505800
(1739018358.934) RX 54F#26010000078D8A60
(1739018358.936) RX 1D4#F707000087460070
(1739018358.937) RX 1F2#10640000001E020E
(1739018358.938) RX 1DA#C064180000010322
(1739018358.940) RX 1DB#FE60BF2A000000DF
(1739018358.940) RX 1DC#B40F8FFD0CCCD8E4
(1739018358.941) RX 1C2#50
(1739018358.944) RX 11A#0140005500000115
(1739018358.947) RX 1D4#F7070000C74600B7
(1739018358.947) RX 1F2#10640000001E030F
(1739018358.947) RX 284#00000000000025AB
(1739018358.948) RX 1DA#C064180000010028
(1739018358.949) RX 55A#002F2E005F315B68
(1739018358.950) RX 1DB#FE60BF2A0000015A
(1739018358.951) RX 1DC#B40F8FFD0130C9CE
(1739018358.951) RX 55B#C800AA00E58012AD
(1739018358.951) RX 5BC#59032C26B3064080
(1739018358.951) RX 1C2#51
(1739018358.953) RX 11A#01400055400002D8
(1739018358.957) RX 1D4#F70700000746007B
(1739018358.957) RX 1F2#10640000001E000C
(1739018358.957) RX 50C#00000000B2A6
(1739018358.958) RX 1DA#C0641800000101AD
(1739018358.960) RX 1DB#FE60BF2A00000250
(1739018358.960) RX 1DC#B40F8FFD0520C64C
(1739018358.961) RX 1C2#52
(1739018358.964) RX 11A#014000AA800003CE
(1739018358.967) RX 1D4#F7070000474600BC
(1739018358.967) RX 1F2#10640000001E010D
(1739018358.967) RX 284#00000000000026AC
(1739018358.968) RX 1DA#C0641800000102A7
(1739018358.970) RX 1DB#FE60BF2A000003D5
(1739018358.971) RX 1DC#B40F8FFD08C0CB1B
(1739018358.971) RX 1C2#53
(1739018358.973) RX 11A#014000AAC0000003
(1739018358.977) RX 1D4#F707000087460070
(1739018358.977) RX 1F2#10640000001E020E
(1739018358.978) RX 284#00000000000027AD
(1739018358.978) RX 50A#8512A00D8020
(1739018358.978) RX 1DA#C064180000010322
(1739018358.980) RX 1DB#FE60BF2A000000DF
(1739018358.980) RX 1DC#B40F8FFD0CCCD8E4
(1739018358.981) RX 1C2#54
(1739018358.984) RX 11A#0140005500000115
(1739018358.987) RX 1D4#F7070000C74600B7
(1739018358.988) RX 1F2#10640000001E030F
(1739018358.988) RX 1DA#C064180000010028
(1739018358.990) RX 1DB#FE60BF2A0000015A
(1739018358.991) RX 1DC#B40F8FFD0130C9CE
(1739018358.991) RX 1C2#55
(1739018358.994) RX 11A#01400055400002D8
(1739018358.998) RX 1D4#F70700000746007B
(1739018358.998) RX 1F2#10640000001E000C
(1739018358.998) RX 284#00000000000028AE
(1739018358.998) RX 1DA#C0641800000101AD
(1739018358.999) RX 50B#000006C00060
(1739018359.000) RX 1DB#FE60BF2A00000250
(1739018359.001) RX 1DC#B40F8FFD0520C64C
(1739018359.001) RX 1C2#56
(1739018359.004) RX 11A#014000AA800003CE
(1739018359.008) RX 1D4#F7070000474600BC
(1739018359.008) RX 1F2#10640000001E010D
(1739018359.008) RX 1DA#C0641800000102A7
(1739018359.010) RX 1DB#FE60BF2A000003D5
(1739018359.011) RX 1DC#B40F8FFD08C0CB1B
(1739018359.011) RX 1C2#57
(1739018359.013) RX 11A#014000AAC0000003
(1739018359.018) RX 1D4#F707000087460070
(1739018359.018) RX 1DA#C064180000010322
(1739018359.019) RX 1F2#10640000001E020E
(1739018359.019) RX 284#00000000000029AF
(1739018359.020) RX 1DB#FE60BF2A000000DF
(1739018359.021) RX 1DC#B40F8FFD0CCCD8E4
(1739018359.021) RX 380#020410210000008D
(1739018359.021) RX 5BF#000000002800001A
(1739018359.021) RX 1C2#58
(1739018359.024) RX 11A#0140005500000115
(1739018359.028) RX 1DA#C064180000010028
(1739018359.029) RX 1D4#F7070000C74600B7
(1739018359.029) RX 1F2#10640000001E030F
(1739018359.030) RX 1DB#FE60BF2A0000015A
(1739018359.031) RX 54A#9E0070072600002C
(1739018359.031) RX 1DC#B40F8FFD0130C9CE
(1739018359.031) RX 54B#0078981214000001
(1739018359.032) RX 1C2#59
(1739018359.033) RX 54C#7066400000505800
(1739018359.033) RX 11A#01400055400002D8
(1739018359.034) RX 54F#2601000007CD8A60
(1739018359.038) RX 1DA#C0641800000101AD
(1739018359.039) RX 1D4#F70700000746007B
(1739018359.039) RX 1F2#10640000001E000C
(1739018359.039) RX 284#0000000000002AB0
(1739018359.041) RX 1DB#FE60BF2A00000250
(1739018359.041) RX 1DC#B40F8FFD0520C64C
(1739018359.041) RX 1C2#5A
(1739018359.044) RX 11A#014000AA800003CE
(1739018359.048) RX 1DA#C0641800000102A7
(1739018359.049) RX 55A#002F2E005F315B68
(1739018359.049) RX 1D4#F7070000474600BC
(1739018359.049) RX 1F2#10640000001E010D
(1739018359.051) RX 1DB#FE60BF2A000003D5
(1739018359.051) RX 1DC#B40F8FFD08C0CB1B
(1739018359.051) RX 55B#C800AA00E540130A
(1739018359.051) RX 5BC#59032C26B3064080
(1739018359.052) RX 1C2#5B
(1739018359.053) RX 11A#014000AAC0000003
(1739018359.058) RX 1DA#C064180000010322
(1739018359.059) RX 1D4#F707000087460070
(1739018359.059) RX 1F2#10640000001E020E
(1739018359.060) RX 284#0000000000002BB1
(1739018359.060) RX 50C#000000015D5F
(1739018359.060) RX 1DB#FE60BF2A000000DF
(1739018359.061) RX 1DC#B40F8FFD0CCCD8E4
(1739018359.062) RX 1C2#5C
(1739018359.064) RX 11A#0140005500000115
(1739018359.068) RX 1DA#C064180000010028
(1739018359.069) RX 1D4#F7070000C74600B7
(1739018359.070) RX 1F2#10640000001E030F
(1739018359.071) RX 1DB#FE60BF2A0000015A
(1739018359.071) RX 1DC#B40F8FFD0130C9CE
(1739018359.072) RX 1C2#5D
(1739018359.073) RX 11A#01400055400002D8
(1739018359.078) RX 1DA#C0641800000101AD
(1739018359.080) RX 1D4#F70700000746007B
(1739018359.080) RX 1F2#10640000001E000C
(1739018359.080) RX 284#0000000000002CB2
(1739018359.080) RX 50A#8532A00D8020
(1739018359.081) RX 1DB#FE60BF2A00000250
(1739018359.081) RX 1DC#B40F8FFD0520C64C
(1739018359.082) RX 1C2#5E
(1739018359.084) RX 11A#014000AA800003CE
(1739018359.088) RX 1DA#C0641800000102A7
(1739018359.090) RX 1D4#F7070000474600BC
(1739018359.090) RX 1F2#10640000001E010D
(1739018359.091) RX 1DB#FE60BF2A000003D5
(1739018359.091) RX 1DC#B40F8FFD08C0CB1B
(1739018359.092) RX 1C2#5F
(1739018359.093) RX 11A#014000AAC0000003
(1739018359.098) RX 1DA#C064180000010322
(1739018359.100) RX 1D4#F707000087460070
(1739018359.100) RX 1F2#10640000001E020E
(1739018359.101) RX 1DB#FE60BF2A000000DF
(1739018359.101) RX 284#0000000000002DB3
(1739018359.101) RX 1DC#B40F8FFD0CCCD8E4
(1739018359.101) RX 50B#000006C00060
(1739018359.102) RX 1C2#50
(1739018359.104) RX 11A#0140005500000115
(1739018359.108) RX 1DA#C064180000010028
(1739018359.110) RX 1D4#F7070000C74600B7
(1739018359.111) RX 1DB#FE60BF2A0000015A
(1739018359.111) RX 1F2#10640000001E030F
(1739018359.111) RX 1DC#B40F8FFD0130C9CE
(1739018359.112) RX 1C2#51
(1739018359.114) RX 11A#01400055400002D8
(1739018359.118) RX 1DA#C0641800000101AD
(1739018359.121) RX 1DB#FE60BF2A00000250
(1739018359.121) RX 1D4#F70700000746007B
(1739018359.121) RX 1DC#B40F8FFD0520C64C
(1739018359.121) RX 1F2#10640000001E000C
(1739018359.121) RX 284#0000000000002EB4
(1739018359.122) RX 380#020410210000009E
(1739018359.122) RX 1C2#52
(1739018359.122) RX 5BF#000000002800002B
(1739018359.124) RX 11A#014000AA800003CE
(1739018359.128) RX 1DA#C0641800000102A7
(1739018359.131) RX 1DB#FE60BF2A000003D5
(1739018359.131) RX 1DC#B40F8FFD08C0CB1B
(1739018359.131) RX 1D4#F7070000474600BC
(1739018359.131) RX 1F2#10640000001E010D
(1739018359.132) RX 54A#100070072600002C
(1739018359.132) RX 1C2#53
(1739018359.133) RX 54B#0078981214000001
(1739018359.133) RX 11A#014000AAC0000003
(1739018359.134) RX 54C#7066400000505800
(1739018359.135) RX 54F#26010000070D8A60
(1739018359.138) RX 1DA#C064180000010322
(1739018359.141) RX 1DB#FE60BF2A000000DF
(1739018359.141) RX 1DC#B40F8FFD0CCCD8E4
(1739018359.141) RX 1D4#F707000087460070
(1739018359.141) RX 1F2#10640000001E020E
(1739018359.142) RX 284#0000000000002FB5
(1739018359.142) RX 1C2#54
(1739018359.144) RX 11A#0140005500000115
(1739018359.148) RX 1DA#C064180000010028
(1739018359.149) RX 55A#002F2E005F315B68
(1739018359.151) RX 1DB#FE40BF2A0000010B
(1739018359.151) RX 1DC#B40F8FFD0130C9CE
(1739018359.151) RX 55B#C8005500E5401047
(1739018359.152) RX 1D4#F7070000C74600B7
(1739018359.152) RX 1F2#10640000001E030F
(1739018359.152) RX 5BC#59032C26B3064080
(1739018359.152) RX 1C2#55
(1739018359.154) RX 11A#01400055400002D8
(1739018359.158) RX 1DA#C0641800000101AD
(1739018359.161) RX 1DB#FE40BF2A00000201
(1739018359.161) RX 1DC#B40F8FFD0520C64C
(1739018359.162) RX 1D4#F70700000746007B
(1739018359.162) RX 1C2#56
(1739018359.162) RX 1F2#10640000001E000C
(1739018359.162) RX 284#00000000000030B6
(1739018359.163) RX 50C#000000025D63
(1739018359.164) RX 11A#014000AA800003CE
(1739018359.168) RX 1DA#C0641800000102A7
(1739018359.171) RX 1DB#FE20BF2A00000377
(1739018359.171) RX 1DC#B40F8FFD08C0CB1B
(1739018359.172) RX 1D4#F7070000474600BC
(1739018359.172) RX 1C2#57
(1739018359.172) RX 1F2#10640000001E010D
(1739018359.172) RX 5A9#643BB01304300000
(1739018359.173) RX 11A#014000AAC0000003
(1739018359.178) RX 1DA#C064180000010322
(1739018359.181) RX 1DB#FE00BF2A0000002C
(1739018359.181) RX 1DC#B40F8FFD0CCCD8E4
(1739018359.182) RX 1C2#58
(1739018359.182) RX 1D4#F707000087460070
(1739018359.182) RX 1F2#10640000001E020E
(1739018359.183) RX 284#00000000000031B7
(1739018359.183) RX 50A#8552A00C8020
(1739018359.184) RX 11A#0140005500000115
(1739018359.188) RX 1DA#C064180000010028
(1739018359.191) RX 1DB#FDE0BF2A00000192
(1739018359.191) RX 1DC#B40F8FFD0130C9CE
(1739018359.192) RX 1C2#59
(1739018359.192) RX 1D4#F7070000C74600B7
(1739018359.193) RX 1F2#10640000001E030F
(1739018359.193) RX 11A#01400055400002D8
(1739018359.198) RX 1DA#C0641800000101AD
(1739018359.201) RX 1DB#FDC0BF2A000002C9
(1739018359.201) RX 1DC#B40F8FFD0520C64C
(1739018359.202) RX 1C2#5A
(1739018359.203) RX 1D4#F70700000746007B
(1739018359.203) RX 1F2#10640000001E000C
(1739018359.203) RX 284#00000000000032B8
(1739018359.203) RX 50B#000006C00060
(1739018359.204) RX 11A#014000AA800003CE
(1739018359.208) RX 1DA#C0641800000102A7
(1739018359.211) RX 1DB#FDA0BEEA0000036F
(1739018359.211) RX 1DC#B40F8FFD08C0CB1B
(1739018359.212) RX 1C2#5B
(1739018359.213) RX 1D4#F7070000474600BC
(1739018359.213) RX 11A#014000AAC0000003
(1739018359.213) RX 1F2#10640000001E010D
(1739018359.218) RX 1DA#C064180000010322
(1739018359.221) RX 1DB#FD80BEEA00000034
(1739018359.221) RX 380#02041021000000AF
(1739018359.221) RX 1DC#B40F8FFD0CCCD8E4
(1739018359.222) RX 5BF#000000002800003C
(1739018359.222) RX 1C2#5C
(1739018359.223) RX 1D4#F707000087460070
(1739018359.223) RX 1F2#10640000001E020E
(1739018359.224) RX 284#00000000000033B9
(1739018359.224) RX 11A#0140005500000115
(1739018359.228) RX 1DA#C064180000010028
(1739018359.231) RX 54A#9E0070072600002C
(1739018359.231) RX 1DB#FD60BEEA00000183
(1739018359.231) RX 1DC#B40F8FFD0130C9CE
(1739018359.232) RX 54B#0078981214000001
(1739018359.232) RX 1C2#5D
(1739018359.233) RX 54C#7066400000505800
(1739018359.233) RX 11A#01400055400002D8
(1739018359.234) RX 1D4#F7070000C74600B7
(1739018359.234) RX 1F2#10640000001E030F
(1739018359.234) RX 54F#26010000074D8A60
(1739018359.238) RX 1DA#C0641800000101AD
(1739018359.241) RX 1DB#FD40BEEA000002D8
(1739018359.241) RX 1DC#B40F8FFD0520C64C
(1739018359.242) RX 1C2#5E
(1739018359.244) RX 1D4#F70700000746007B
(1739018359.244) RX 11A#014000AA800003CE
(1739018359.244) RX 1F2#10640000001E000C
(1739018359.244) RX 284#00000000000034BA
(1739018359.245) RX 5B9#67FF67FF28
(1739018359.248) RX 1DA#C0641800000102A7
(1739018359.249) RX 55A#002F2E005F315B68
(1739018359.251) RX 1DB#FD40BEEA0000035D
(1739018359.251) RX 1DC#B40F8FFD08C0CB1B
(1739018359.252) RX 55B#C8005500E54011C2
(1739018359.252) RX 5BC#59032026B2040080
(1739018359.252) RX 1C2#5F
(1739018359.253) RX 11A#014000AAC0000003
(1739018359.254) RX 1D4#F7070000474600BC
(1739018359.254) RX 1F2#10640000001E010D
(1739018359.258) RX 1DA#C064180000010322
(1739018359.261) RX 1DB#FD40BEEA00000057
(1739018359.261) RX 1DC#B40F8FFD0CCCD8E4
(1739018359.262) RX 5C0#404C4C0004E41100
(1739018359.262) RX 5EB#E00FFFFFFFFFFFFF
(1739018359.262) RX 1C2#50
(1739018359.264) RX 11A#0140005500000115
(1739018359.264) RX 1D4#F707000087460070
(1739018359.264) RX 1F2#10640000001E020E
(1739018359.265) RX 284#00000000000035BB
(1739018359.265) RX 50C#00000003B29A
(1739018359.268) RX 1DA#C064180000010028
(1739018359.271) RX 1DB#FD40BEEA000001D2
(1739018359.271) RX 1DC#B40F8FFD0130C9CE
(1739018359.272) RX 1C2#51
(1739018359.273) RX 11A#01400055400002D8
(1739018359.274) RX 1D4#F7070000C74600B7
(1739018359.275) RX 1F2#10640000001E030F
(1739018359.278) RX 1DA#C0641800000101AD
(1739018359.281) RX 1DB#FD40BEEA000002D8
(1739018359.281) RX 1DC#B40F8FFD0520C64C
(1739018359.282) RX 1C2#52
(1739018359.284) RX 11A#014000AA800003CE
(1739018359.285) RX 1D4#F70700000746007B
(1739018359.285) RX 1F2#10640000001E000C
(1739018359.285) RX 284#00000000000036BC
(1739018359.285) RX 50A#8572A00C8020
(1739018359.288) RX 1DA#C0641800000102A7
(1739018359.291) RX 1DB#FD40BEEA0000035D
(1739018359.291) RX 1DC#B40F8FFD08C0CB1B
(1739018359.292) RX 1C2#53
(1739018359.293) RX 11A#014000AAC0000003
(1739018359.295) RX 1D4#F7070000474600BC
(1739018359.295) RX 1F2#10640000001E010D
(1739018359.298) RX 1DA#C064180000010322
(1739018359.301) RX 1DB#FD40BEEA00000057
(1739018359.301) RX 1DC#B40F8FFD0CCCD8E4
(1739018359.302) RX 1C2#54
(1739018359.304) RX 11A#0140005500000115
(1739018359.305) RX 1D4#F707000087460070
(1739018359.305) RX 1F2#10640000001E020E
(1739018359.305) RX 284#00000000000037BD
(1739018359.306) RX 50B#000006C00060
(1739018359.308) RX 1DA#C064180000010028
(1739018359.311) RX 1DB#FD40BEEA000001D2
(1739018359.311) RX 1DC#B40F8FFD0130C9CE
(1739018359.312) RX 1C2#55
(1739018359.314) RX 11A#01400055400002D8
(1739018359.315) RX 1D4#F7070000C74600B7
(1739018359.315) RX 1F2#10640000001E030F
(1739018359.318) RX 1DA#C0641800000101AD
(1739018359.321) RX 1DB#FD60BEEA00000289
(1739018359.321) RX 380#02041021000000B0
(1739018359.322) RX 1DC#B40F8FFD0520C64C
(1739018359.322) RX 5BF#0000000028000009
(1739018359.322) RX 1C2#56
(1739018359.324) RX 11A#014000AA800003CE
(1739018359.326) RX 1D4#F70700000746007B
(1739018359.326) RX 1F2#10640000001E000C
(1739018359.326) RX 284#00000000000038BE
(1739018359.328) RX 1DA#C0641800000102A7
(1739018359.331) RX 54A#100070072600002C
(1739018359.331) RX 1DB#FD80BEEA0000033E
(1739018359.331) RX 1DC#B40F8FFD08C0CB1B
(1739018359.332) RX 54B#0078981214000001
(1739018359.332) RX 1C2#57
(1739018359.333) RX 54C#7066400000505800
(1739018359.333) RX 11A#014000AAC0000003
(1739018359.334) RX 54F#26010000078D8A60
(1739018359.336) RX 1D4#F7070000474600BC
(1739018359.336) RX 1F2#10640000001E010D
(1739018359.338) RX 1DA#C064180000010322
(1739018359.341) RX 1DB#FDA0BEEA00000065
(1739018359.341) RX 1DC#B40F8FFD0CCCD8E4
(1739018359.342) RX 1C2#58
(1739018359.344) RX 11A#0140005500000115
(1739018359.346) RX 1D4#F707000087460070
(1739018359.346) RX 1F2#10640000001E020E
(1739018359.346) RX 284#00000000000039BF
(1739018359.348) RX 1DA#C064180000010028
(1739018359.349) RX 55A#002F2E005F315B68
(1739018359.351) RX 1DB#FDC0BEEA00000113
(1739018359.352) RX 1DC#B40F8FFD0130C9CE
(1739018359.352) RX 55B#C800AA00E58012AD
(1739018359.352) RX 5BC#59032026B2040080
(1739018359.352) RX 1C2#59
(1739018359.353) RX 11A#01400055400002D8
(1739018359.356) RX 1D4#F7070000C74600B7
(1739018359.357) RX 1F2#10640000001E030F
(1739018359.358) RX 1DA#C0641800000101AD
(1739018359.361) RX 1DB#FDE0BEEA00000248
(1739018359.361) RX 1DC#B40F8FFD0520C64C
(1739018359.362) RX 1C2#5A
(1739018359.364) RX 11A#014000AA800003CE
(1739018359.367) RX 1D4#F70700000746007B
(1739018359.367) RX 1F2#10640000001E000C
(1739018359.367) RX 284#0000000000003AC0
(1739018359.367) RX 50C#000000005DC8
(1739018359.368) RX 1DA#C0641800000102A7
(1739018359.371) RX 1DB#FDE0BEEA000003CD
(1739018359.372) RX 1DC#B40F8FFD08C0CB1B
(1739018359.372) RX 1C2#5B
(1739018359.373) RX 11A#014000AAC0000003
(1739018359.377) RX 1D4#F7070000474600BC
(1739018359.377) RX 1F2#10640000001E010D
(1739018359.378) RX 1DA#C064180000010322
(1739018359.381) RX 1DB#FE00BEEA000000FC
(1739018359.382) RX 1DC#B40F8FFD0CCCD8E4
(1739018359.382) RX 1C2#5C
(1739018359.384) RX 11A#0140005500000115
(1739018359.387) RX 1D4#F707000087460070
(1739018359.387) RX 1F2#10640000001E020E
(1739018359.387) RX 284#0000000000003BC1
(1739018359.388) RX 50A#8512A00C8020
(1739018359.388) RX 1DA#C064180000010028
(1739018359.391) RX 1DB#FE20BF2A000001F8
(1739018359.392) RX 1DC#B40F8FFD0130C9CE
(1739018359.392) RX 1C2#5D
(1739018359.393) RX 11A#01400055400002D8
(1739018359.397) RX 1D4#F7070000C74600B7
(1739018359.397) RX 1F2#10640000001E030F
(1739018359.398) RX 284#0000000000003CC2
(1739018359.398) RX 1DA#C0641800000101AD
(1739018359.401) RX 1DB#FE40BF2A00000201
(1739018359.402) RX 1DC#B40F8FFD0520C64C
(1739018359.402) RX 1C2#5E
(1739018359.404) RX 11A#014000AA800003CE
(1739018359.407) RX 1D4#F70700000746007B
(1739018359.408) RX 1F2#10640000001E000C
(1739018359.408) RX 50B#000006C00060
(1739018359.408) RX 1DA#C0641800000102A7
(1739018359.411) RX 1DB#FE60BF2A000003D5
(1739018359.412) RX 1DC#B40F8FFD08C0CB1B
(1739018359.412) RX 1C2#5F
(1739018359.413) RX 11A#014000AAC0000003
(1739018359.418) RX 1D4#F7070000474600BC
(1739018359.418) RX 1F2#10640000001E010D
(1739018359.418) RX 284#0000000000003DC3
(1739018359.418) RX 1DA#C064180000010322
(1739018359.421) RX 380#020410210000008D
(1739018359.422) RX 1DB#FE60BF2A000000DF
(1739018359.422) RX 5BF#000000002800001A
(1739018359.422) RX 1DC#B40F8FFD0CCCD8E4
(1739018359.422) RX 1C2#50
(1739018359.424) RX 11A#0140005500000115
(1739018359.428) RX 1D4#F707000087460070
(1739018359.428) RX 1F2#10640000001E020E
(1739018359.428) RX 1DA#C064180000010028
(1739018359.431) RX 54A#9E0070072600002C
(1739018359.431) RX 1DB#FE60BF2A0000015A
(1739018359.432) RX 1DC#B40F8FFD0130C9CE
(1739018359.432) RX 54B#0078981214000001
(1739018359.433) RX 1C2#51
(1739018359.433) RX 54C#7066400000505800
(1739018359.434) RX 11A#01400055400002D8
(1739018359.434) RX 54F#2601000007CD8A60
(1739018359.438) RX 1DA#C0641800000101AD
(1739018359.438) RX 1D4#F7070000C74600B7
(1739018359.439) RX 1F2#10640000001E030F
(1739018359.439) RX 284#0000000000003EC4
(1739018359.441) RX 1DB#FE60BF2A00000250
(1739018359.442) RX 1DC#B40F8FFD0520C64C
(1739018359.442) RX 1C2#52
(1739018359.444) RX 11A#014000AA800003CE
(1739018359.448) RX 1DA#C0641800000102A7
(1739018359.448) RX 1D4#F70700000746007B
(1739018359.449) RX 1F2#10640000001E000C
(1739018359.449) RX 55A#002F2E005F315B68
(1739018359.452) RX 1DB#FE60BF2A000003D5
(1739018359.452) RX 1DC#B40F8FFD08C0CB1B
(1739018359.452) RX 55B#C8005500E580136F
(1739018359.453) RX 5BC#59032026B2040080
(1739018359.453) RX 1C2#53
(1739018359.453) RX 11A#014000AAC0000003
(1739018359.458) RX 1DA#C064180000010322
(1739018359.459) RX 1D4#F7070000474600BC
(1739018359.459) RX 1F2#10640000001E010D
(1739018359.459) RX 284#0000000000003FC5
(1739018359.461) RX 1DB#FE60BF2A000000DF
(1739018359.462) RX 1DC#B40F8FFD0CCCD8E4
(1739018359.462) RX 1C2#54
(1739018359.464) RX 11A#0140005500000115
(1739018359.468) RX 1DA#C064180000010028
(1739018359.469) RX 1D4#F707000087460070
(1739018359.469) RX 1F2#10640000001E020E
(1739018359.469) RX 50C#00000001B231
(1739018359.472) RX 1DB#FE60BF2A0000015A
(1739018359.472) RX 1DC#B40F8FFD0130C9CE
(1739018359.472) RX 1C2#55
(1739018359.473) RX 11A#01400055400002D8
(1739018359.478) RX 1DA#C0641800000101AD
(1739018359.479) RX 1D4#F7070000C74600B7
(1739018359.479) RX 1F2#10640000001E030F
(1739018359.480) RX 284#00000000000040C6
(1739018359.482) RX 1DB#FE60BF2A00000250
(1739018359.482) RX 1DC#B40F8FFD0520C64C
(1739018359.482) RX 1C2#56
(1739018359.484) RX 11A#014000AA800003CE
(1739018359.488) RX 1DA#C0641800000102A7
(1739018359.489) RX 1D4#F70700000746007B
(1739018359.490) RX 1F2#10640000001E000C
(1739018359.490) RX 50A#8532A00C8020
(1739018359.492) RX 1DB#FE60BF2A000003D5
(1739018359.492) RX 1DC#B40F8FFD08C0CB1B
(1739018359.493) RX 1C2#57
(1739018359.493) RX 11A#014000AAC0000003
(1739018359.498) RX 1DA#C064180000010322
(1739018359.500) RX 1D4#F7070000474600BC
(1739018359.500) RX 1F2#10640000001E010D
(1739018359.500) RX 284#00000000000041C7
(1739018359.502) RX 1DB#FE60BF2A000000DF
(1739018359.502) RX 1DC#B40F8FFD0CCCD8E4
(1739018359.503) RX 1C2#58
(1739018359.504) RX 11A#0140005500000115
(1739018359.508) RX 1DA#C064180000010028
(1739018359.510) RX 1D4#F707000087460070
(1739018359.510) RX 1F2#10640000001E020E
(1739018359.510) RX 50B#000006C00060
(1739018359.512) RX 1DB#FE60BF2A0000015A
(1739018359.512) RX 1DC#B40F8FFD0130C9CE
(1739018359.513) RX 1C2#59
(1739018359.513) RX 11A#01400055400002D8
(1739018359.518) RX 1DA#C0641800000101AD
(1739018359.520) RX 1D4#F7070000C74600B7
(1739018359.520) RX 1F2#10640000001E030F
(1739018359.521) RX 284#00000000000042C8
(1739018359.521) RX 380#020410210000009E
(1739018359.522) RX 1DB#FE60BF2A00000250
(1739018359.522) RX 5BF#000000002800002B
(1739018359.522) RX 1DC#B40F8FFD0520C64C
(1739018359.523) RX 1C2#5A
(1739018359.524) RX 11A#014000AA800003CE
(1739018359.528) RX 1DA#C0641800000102A7
(1739018359.530) RX 1D4#F70700000746007B
(1739018359.531) RX 1F2#10640000001E000C
(1739018359.531) RX 54A#100070072600002C
(1739018359.532) RX 1DB#FE60BF2A000003D5
(1739018359.532) RX 54B#0078981214000001
(1739018359.532) RX 1DC#B40F8FFD08C0CB1B
(1739018359.533) RX 1C2#5B
(1739018359.533) RX 11A#014000AAC0000003
(1739018359.533) RX 54C#7066400000505800
(1739018359.534) RX 54F#26010000070D8A60
(1739018359.538) RX 1DA#C064180000010322
(1739018359.541) RX 1D4#F7070000474600BC
(1739018359.541) RX 1F2#10640000001E010D
(1739018359.541) RX 284#00000000000043C9
(1739018359.542) RX 1DB#FE60BF2A000000DF
(1739018359.542) RX 1DC#B40F8FFD0CCCD8E4
(1739018359.543) RX 1C2#5C
(1739018359.544) RX 11A#0140005500000115
(1739018359.548) RX 1DA#C064180000010028
(1739018359.548) RX 55A#002F2E005F315B68
(1739018359.551) RX 1D4#F707000087460070
(1739018359.551) RX 1F2#10640000001E020E
(1739018359.552) RX 1DB#FE60BF2A0000015A
(1739018359.552) RX 1DC#B40F8FFD0130C9CE
(1739018359.553) RX 55B#C800AA00E5801022
(1739018359.553) RX 5BC#59032026B2040080
(1739018359.553) RX 1C2#5D
(1739018359.554) RX 11A#01400055400002D8
(1739018359.558) RX 1DA#C0641800000101AD
(1739018359.561) RX 1D4#F7070000C74600B7
(1739018359.561) RX 1F2#10640000001E030F
(1739018359.562) RX 284#00000000000044CA
(1739018359.562) RX 1DB#FE60BF2A00000250
(1739018359.562) RX 1DC#B40F8FFD0520C64C
(1739018359.563) RX 1C2#5E
(1739018359.564) RX 11A#014000AA800003CE
(1739018359.568) RX 1DA#C0641800000102A7
(1739018359.571) RX 1D4#F70700000746007B
(1739018359.572) RX 1F2#10640000001E000C
(1739018359.572) RX 1DB#FE60BF2A000003D5
(1739018359.572) RX 50C#000000025D63
(1739018359.572) RX 1DC#B40F8FFD08C0CB1B
(1739018359.573) RX 11A#014000AAC0000003
(1739018359.573) RX 1C2#5F
(1739018359.578) RX 1DA#C064180000010322
(1739018359.582) RX 1D4#F7070000474600BC
(1739018359.582) RX 1DB#FE60BF2A000000DF
(1739018359.582) RX 1F2#10640000001E010D
(1739018359.582) RX 1DC#B40F8FFD0CCCD8E4
(1739018359.583) RX 284#00000000000045CB
(1739018359.583) RX 1C2#50
(1739018359.584) RX 11A#0140005500000115
(1739018359.588) RX 1DA#C064180000010028
(1739018359.592) RX 1D4#F707000087460070
(1739018359.592) RX 1DB#FE60BF2A0000015A
(1739018359.592) RX 1F2#10640000001E020E
(1739018359.593) RX 1DC#B40F8FFD0130C9CE
(1739018359.593) RX 50A#8552A00D8020
(1739018359.593) RX 1C2#51
(1739018359.594) RX 11A#01400055400002D8
(1739018359.598) RX 1DA#C0641800000101AD
(1739018359.602) RX 1DB#FE60BF2A00000250
(1739018359.602) RX 1D4#F7070000C74600B7
(1739018359.602) RX 1DC#B40F8FFD0520C64C
(1739018359.603) RX 1F2#10640000001E030F
(1739018359.603) RX 284#00000000000046CC
(1739018359.603) RX 1C2#52
(1739018359.604) RX 11A#014000AA800003CE
(1739018359.608) RX 1DA#C0641800000102A7
(1739018359.612) RX 1DB#FE60BF2A000003D5
(1739018359.612) RX 1DC#B40F8FFD08C0CB1B
(1739018359.613) RX 1D4#F70700000746007B
(1739018359.613) RX 1F2#10640000001E000C
(1739018359.613) RX 11A#014000AAC0000003
(1739018359.613) RX 1C2#53
(1739018359.613) RX 50B#000006C00060
(1739018359.618) RX 1DA#C064180000010322
(1739018359.622) RX 380#02041021000000AF
(1739018359.622) RX 5BF#000000002800003C
(1739018359.622) RX 1DB#FE60BF2A000000DF
(1739018359.622) RX 1DC#B40F8FFD0CCCD8E4
(1739018359.623) RX 1D4#F7070000474600BC
(1739018359.623) RX 1F2#10640000001E010D
(1739018359.623) RX 1C2#54
(1739018359.623) RX 284#00000000000047CD
(1739018359.624) RX 11A#0140005500000115
(1739018359.628) RX 1DA#C064180000010028
(1739018359.631) RX 54A#9E0070072600002C
(1739018359.632) RX 54B#0078981214000001
(1739018359.632) RX 1DB#FE60BF2A0000015A
(1739018359.632) RX 1DC#B40F8FFD0130C9CE
(1739018359.633) RX 1D4#F707000087460070
(1739018359.633) RX 1C2#55
(1739018359.633) RX 1F2#10640000001E020E
(1739018359.633) RX 54C#7066400000505800
(1739018359.634) RX 11A#01400055400002D8
(1739018359.634) RX 54F#26010000074D8A60
(1739018359.638) RX 1DA#C0641800000101AD
(1739018359.642) RX 1DB#FE60BF2A00000250
(1739018359.642) RX 1DC#B40F8FFD0520C64C
(1739018359.643) RX 1C2#56
(1739018359.643) RX 1D4#F7070000C74600B7
(1739018359.643) RX 1F2#10640000001E030F
(1739018359.644) RX 284#00000000000048CE
(1739018359.644) RX 11A#014000AA800003CE
(1739018359.648) RX 1DA#C0641800000102A7
(1739018359.648) RX 55A#002F2E005F315B68
(1739018359.652) RX 1DB#FE60BF2A000003D5
(1739018359.652) RX 1DC#B40F8FFD08C0CB1B
(1739018359.653) RX 55B#C8005500E58011E0
(1739018359.653) RX 11A#014000AAC0000003
(1739018359.653) RX 5BC#59032026B2040080
(1739018359.653) RX 1D4#F70700000746007B
(1739018359.654) RX 1C2#57
(1739018359.654) RX 1F2#10640000001E000C
(1739018359.658) RX 1DA#C064180000010322
(1739018359.662) RX 1DB#FE60BF2A000000DF
(1739018359.662) RX 1DC#B40F8FFD0CCCD8E4
(1739018359.663) RX 1C2#58
(1739018359.664) RX 11A#0140005500000115
(1739018359.664) RX 1D4#F7070000474600BC
(1739018359.664) RX 1F2#10640000001E010D
(1739018359.664) RX 284#00000000000049CF
(1739018359.668) RX 1DA#C064180000010028
(1739018359.672) RX 1DB#FE60BF2A0000015A
(1739018359.672) RX 1DC#B40F8FFD0130C9CE
(1739018359.673) RX 1C2#59
(1739018359.673) RX 11A#01400055400002D8
(1739018359.674) RX 1D4#F707000087460070
(1739018359.674) RX 1F2#10640000001E020E
(1739018359.674) RX 50C#00000003B29A
(1739018359.678) RX 1DA#C0641800000101AD
(1739018359.682) RX 1DB#FE60BF2A00000250
(1739018359.682) RX 1DC#B40F8FFD0520C64C
(1739018359.683) RX 1C2#5A
(1739018359.684) RX 11A#014000AA800003CE
(1739018359.684) RX 1D4#F7070000C74600B7
(1739018359.684) RX 1F2#10640000001E030F
(1739018359.685) RX 284#0000000000004AD0
(1739018359.685) RX 5A9#643BB01304300000
(1739018359.688) RX 1DA#C0641800000102A7
(1739018359.692) RX 1DB#FE60BF2A000003D5
(1739018359.692) RX 1DC#B40F8FFD08C0CB1B
(1739018359.693) RX 11A#014000AAC0000003
(1739018359.693) RX 1C2#5B
(1739018359.694) RX 1D4#F70700000746007B
(1739018359.695) RX 1F2#10640000001E000C
(1739018359.695) RX 50A#8572A00C8020
(1739018359.698) RX 1DA#C064180000010322
(1739018359.702) RX 1DB#FE60BF2A000000DF
(1739018359.702) RX 1DC#B40F8FFD0CCCD8E4
(1739018359.703) RX 1C2#5C
(1739018359.704) RX 11A#0140005500000115
(1739018359.705) RX 1D4#F7070000474600BC
(1739018359.705) RX 1F2#10640000001E010D
(1739018359.705) RX 284#0000000000004BD1
(1739018359.708) RX 1DA#C064180000010028
(1739018359.712) RX 1DB#FE60BF2A0000015A
(1739018359.712) RX 1DC#B40F8FFD0130C9CE
(1739018359.713) RX 1C2#5D
(1739018359.713) RX 11A#01400055400002D8
(1739018359.715) RX 1D4#F707000087460070
(1739018359.715) RX 1F2#10640000001E020E
(1739018359.715) RX 50B#000006C00060
(1739018359.718) RX 1DA#C0641800000101AD
(1739018359.722) RX 380#02041021000000B0
(1739018359.722) RX 5BF#0000000028000009
(1739018359.722) RX 1DB#FE60BF2A00000250
(1739018359.723) RX 1DC#B40F8FFD0520C64C
(1739018359.723) RX 1C2#5E
(1739018359.724) RX 11A#014000AA800003CE
(1739018359.725) RX 1D4#F7070000C74600B7
(1739018359.725) RX 1F2#10640000001E030F
(1739018359.726) RX 284#0000000000004CD2
(1739018359.728) RX 1DA#C0641800000102A7
(1739018359.731) RX 54A#100070072600002C
(1739018359.732) RX 54B#0078981214000001
(1739018359.732) RX 1DB#FE60BF2A000003D5
(1739018359.733) RX 1DC#B40F8FFD08C0CB1B
(1739018359.733) RX 11A#014000AAC0000003
(1739018359.733) RX 54C#7066400000505800
(1739018359.733) RX 1C2#5F
(1739018359.734) RX 54F#26010000078D8A60
(1739018359.735) RX 1D4#F70700000746007B
(1739018359.736) RX 1F2#10640000001E000C
(1739018359.738) RX 1DA#C064180000010322
(1739018359.742) RX 1DB#FE60BF2A000000DF
(1739018359.743) RX 1DC#B40F8FFD0CCCD8E4
(1739018359.743) RX 1C2#50
(1739018359.744) RX 11A#0140005500000115
(1739018359.745) RX 1D4#F7070000474600BC
(1739018359.746) RX 1F2#10640000001E010D
(1739018359.746) RX 284#0000000000004DD3
(1739018359.748) RX 1DA#C064180000010028
(1739018359.748) RX 55A#002F2E005F315B68
(1739018359.753) RX 1DB#FE60BF2A0000015A
(1739018359.753) RX 1DC#B40F8FFD0130C9CE
(1739018359.753) RX 55B#C800AA00E58012AD
(1739018359.753) RX 5BC#59032C26B3052092
(1739018359.754) RX 11A#01400055400002D8
(1739018359.754) RX 1C2#51
(1739018359.756) RX 1D4#F707000087460070
(1739018359.756) RX 1F2#10640000001E020E
(1739018359.756) RX 5B9#67FF67FF28
(1739018359.758) RX 1DA#C0641800000101AD
(1739018359.762) RX 1DB#FE60BF2A00000250
(1739018359.763) RX 1DC#B40F8FFD0520C64C
(1739018359.763) RX 5C0#C04C4C0004541100
(1739018359.763) RX 5EB#E00FFFFFFFFFFFFF
(1739018359.764) RX 11A#014000AA800003CE
(1739018359.764) RX 1C2#52
(1739018359.766) RX 1D4#F7070000C74600B7
(1739018359.766) RX 1F2#10640000001E030F
(1739018359.767) RX 284#0000000000004ED4
(1739018359.768) RX 1DA#C0641800000102A7
(1739018359.772) RX 1DB#FE60BF2A000003D5
(1739018359.773) RX 1DC#B40F8FFD08C0CB1B
(1739018359.773) RX 11A#014000AAC0000003
(1739018359.773) RX 1C2#53
(1739018359.776) RX 1D4#F70700000746007B
(1739018359.777) RX 1F2#10640000001E000C
(1739018359.777) RX 50C#000000005DC8
(1739018359.778) RX 1DA#C064180000010322
(1739018359.782) RX 1DB#FE60BF2A000000DF
(1739018359.783) RX 1DC#B40F8FFD0CCCD8E4
(1739018359.783) RX 1C2#54
(1739018359.784) RX 11A#0140005500000115
(1739018359.786) RX 1D4#F7070000474600BC
(1739018359.787) RX 1F2#10640000001E010D
(1739018359.787) RX 284#0000000000004FD5
(1739018359.788) RX 1DA#C064180000010028
(1739018359.792) RX 1DB#FE60BF2A0000015A
(1739018359.793) RX 1DC#B40F8FFD0130C9CE
(1739018359.793) RX 11A#01400055400002D8
(1739018359.794) RX 1C2#55
(1739018359.797) RX 1D4#F707000087460070
(1739018359.797) RX 1F2#10640000001E020E
(1739018359.797) RX 50A#8512A00C8020
(1739018359.798) RX 1DA#C0641800000101AD
(1739018359.802) RX 1DB#FE60BF2A00000250
(1739018359.803) RX 1DC#B40F8FFD0520C64C
(1739018359.803) RX 1C2#56
(1739018359.804) RX 11A#014000AA800003CE
(1739018359.807) RX 1D4#F7070000C74600B7
(1739018359.807) RX 1F2#10640000001E030F
(1739018359.807) RX 284#00000000000050D6
(1739018359.808) RX 1DA#C0641800000102A7
(1739018359.813) RX 1DB#FE60BF2A000003D5
(1739018359.813) RX 11A#014000AAC0000003
(1739018359.813) RX 1DC#B40F8FFD08C0CB1B
(1739018359.813) RX 1C2#57
(1739018359.817) RX 1D4#F70700000746007B
(1739018359.817) RX 1F2#10640000001E000C
(1739018359.818) RX 284#00000000000051D7
(1739018359.818) RX 50B#000006C00060
(1739018359.818) RX 1DA#C064180000010322
(1739018359.822) RX 380#020410210000008D
(1739018359.822) RX 5BF#000000002800001A
(1739018359.823) RX 1DB#FE60BF2A000000DF
(1739018359.823) RX 1DC#B40F8FFD0CCCD8E4
(1739018359.823) RX 1C2#58
(1739018359.824) RX 11A#0140005500000115
(1739018359.827) RX 1D4#F7070000474600BC
(1739018359.828) RX 1F2#10640000001E010D
(1739018359.828) RX 1DA#C064180000010028
(1739018359.831) RX 54A#9E0070072600002C
(1739018359.832) RX 54B#0078981214000001
(1739018359.833) RX 1DB#FE60BF2A0000015A
(1739018359.833) RX 1DC#B40F8FFD0130C9CE
(1739018359.833) RX 54C#7066400000505800
(1739018359.833) RX 11A#01400055400002D8
(1739018359.834) RX 1C2#59
(1739018359.834) RX 54F#2601000007CC8A60
(1739018359.838) RX 1D4#F707000087460070
(1739018359.838) RX 1F2#10640000001E020E
(1739018359.838) RX 1DA#C0641800000101AD
(1739018359.838) RX 284#00000000000052D8
(1739018359.843) RX 1DB#FE60BF2A00000250
(1739018359.843) RX 1DC#B40F8FFD0520C64C
(1739018359.843) RX 1C2#5A
(1739018359.844) RX 11A#014000AA800003CE
(1739018359.848) RX 1D4#F7070000C74600B7
(1739018359.848) RX 1F2#10640000001E030F
(1739018359.848) RX 1DA#C0641800000102A7
(1739018359.849) RX 55A#002F2E005F315B68
(1739018359.853) RX 1DB#FE60BF2A000003D5
(1739018359.853) RX 11A#014000AAC0000003
(1739018359.853) RX 1DC#B40F8FFD08C0CB1B
(1739018359.854) RX 55B#C8005500E580136F
(1739018359.854) RX 5BC#59032C26B3052092
(1739018359.854) RX 1C2#5B
(1739018359.858) RX 1DA#C064180000010322
(1739018359.858) RX 1D4#F70700000746007B
(1739018359.859) RX 1F2#10640000001E000C
(1739018359.859) RX 284#00000000000053D9
(1739018359.863) RX 1DB#FE60BF2A000000DF
(1739018359.863) RX 1DC#B40F8FFD0CCCD8E4
(1739018359.863) RX 1C2#5C
(1739018359.864) RX 11A#0140005500000115
(1739018359.868) RX 1DA#C064180000010028
(1739018359.868) RX 1D4#F7070000474600BC
(1739018359.869) RX 1F2#10640000001E010D
(1739018359.873) RX 1DB#FE60BF2A0000015A
(1739018359.873) RX 1DC#B40F8FFD0130C9CE
(1739018359.873) RX 11A#01400055400002D8
(1739018359.873) RX 1C2#5D
(1739018359.878) RX 1DA#C0641800000101AD
(1739018359.879) RX 1D4#F707000087460070
(1739018359.879) RX 1F2#10640000001E020E
(1739018359.879) RX 284#00000000000054DA
(1739018359.879) RX 50C#00000001B231
(1739018359.883) RX 1DB#FE60BF2A00000250
(1739018359.883) RX 1DC#B40F8FFD0520C64C
(1739018359.883) RX 1C2#5E
(1739018359.884) RX 11A#014000AA800003CE
(1739018359.888) RX 1DA#C0641800000102A7
(1739018359.889) RX 1D4#F7070000C74600B7
(1739018359.889) RX 1F2#10640000001E030F
(1739018359.893) RX 1DB#FE60BF2A000003D5
(1739018359.893) RX 11A#014000AAC0000003
(1739018359.893) RX 1DC#B40F8FFD08C0CB1B
(1739018359.894) RX 1C2#5F
(1739018359.898) RX 1DA#C064180000010322
(1739018359.899) RX 1D4#F70700000746007B
(1739018359.899) RX 1F2#10640000001E000C
(1739018359.900) RX 284#00000000000055DB
(1739018359.900) RX 50A#8532A00D8020
(1739018359.903) RX 1DB#FE60BF2A000000DF
(1739018359.903) RX 1DC#B40F8FFD0CCCD8E4
(1739018359.903) RX 1C2#50
(1739018359.904) RX 11A#0140005500000115
(1739018359.908) RX 1DA#C064180000010028
(1739018359.909) RX 1D4#F7070000474600BC
(1739018359.910) RX 1F2#10640000001E010D
(1739018359.913) RX 1DB#FE60BF2A0000015A
(1739018359.913) RX 1DC#B40F8FFD0130C9CE
(1739018359.914) RX 11A#01400055400002D8
(1739018359.914) RX 1C2#51
(1739018359.918) RX 1DA#C0641800000101AD
(1739018359.920) RX 1D4#F707000087460070
(1739018359.920) RX 1F2#10640000001E020E
(1739018359.920) RX 284#00000000000056DC
(1739018359.920) RX 50B#000006C00060
(1739018359.922) RX 380#020410210000009E
(1739018359.922) RX 5BF#000000002800002B
(1739018359.923) RX 1DB#FE60BF2A00000250
(1739018359.923) RX 1DC#B40F8FFD0520C64C
(1739018359.924) RX 11A#014000AA800003CE
(1739018359.924) RX 1C2#52
(1739018359.928) RX 1DA#C0641800000102A7
(1739018359.930) RX 1D4#F7070000C74600B7
(1739018359.930) RX 1F2#10640000001E030F
(1739018359.933) RX 11A#014000AAC0000003
(1739018359.933) RX 1DB#FE60BF2A000003D5
(1739018359.933) RX 1DC#B40F8FFD08C0CB1B
(1739018359.934) RX 1C2#53
(1739018359.934) RX 54A#100070062600002C
(1739018359.935) RX 54B#007898121C000000
(1739018359.936) RX 54C#7066400000505800
(1739018359.937) RX 54F#26010000070C8A60
(1739018359.938) RX 1DA#C064180000010322
(1739018359.940) RX 1D4#F70700000746007B
(1739018359.940) RX 1F2#10640000001E000C
(1739018359.941) RX 284#00000000000057DD
(1739018359.943) RX 1DB#FE60BF2A000000DF
(1739018359.943) RX 1DC#B40F8FFD0CCCD8E4
(1739018359.944) RX 11A#0140005500000115
(1739018359.944) RX 1C2#54
(1739018359.948) RX 1DA#C064180000010028
(1739018359.948) RX 55A#002F2E005F315B68
(1739018359.950) RX 1D4#F7070000474600BC
(1739018359.951) RX 1F2#10640000001E010D
(1739018359.953) RX 1DB#FE60BF2A0000015A
(1739018359.953) RX 1DC#B40F8FFD0130C9CE
(1739018359.954) RX 11A#01400055400002D8
(1739018359.954) RX 55B#C800AA00E5801022
(1739018359.954) RX 5BC#59032C26B3052092
(1739018359.954) RX 1C2#55
(1739018359.958) RX 1DA#C0641800000101AD
(1739018359.961) RX 1D4#F707000087460070
(1739018359.961) RX 1F2#10640000001E020E
(1739018359.961) RX 284#00000000000058DE
(1739018359.963) RX 1DB#FE60BF2A00000250
(1739018359.963) RX 1DC#B40F8FFD0520C64C
(1739018359.964) RX 11A#014000AA800003CE
(1739018359.964) RX 1C2#56
(1739018359.968) RX 1DA#C0641800000102A7
(1739018359.971) RX 1D4#F7070000C74600B7
(1739018359.971) RX 1F2#10640000001E030F
(1739018359.973) RX 11A#014000AAC0000003
(1739018359.973) RX 1DB#FE40BF2A00000384
(1739018359.973) RX 1DC#B40F8FFD08C0CB1B
(1739018359.974) RX 1C2#57
(1739018359.978) RX 1DA#C064180000010322
(1739018359.981) RX 1D4#F70700000746007B
(1739018359.981) RX 1F2#10640000001E000C
(1739018359.982) RX 284#00000000000059DF
(1739018359.982) RX 50C#000000025D63
(1739018359.983) RX 1DB#FE40BF2A0000008E
(1739018359.983) RX 1DC#B40F8FFD0CCCD8E4
(1739018359.984) RX 11A#0140005500000115
(1739018359.984) RX 1C2#58
(1739018359.988) RX 1DA#C064180000010028
(1739018359.991) RX 1D4#F7070000474600BC
(1739018359.992) RX 1F2#10640000001E010D
(1739018359.993) RX 1DB#FE20BF2A000001F8
(1739018359.993) RX 11A#01400055400002D8
(1739018359.994) RX 1DC#B40F8FFD0130C9CE
(1739018359.994) RX 1C2#59
(1739018359.998) RX 1DA#C0641800000101AD
(1739018360.002) RX 1D4#F707000087460070
(1739018360.002) RX 1F2#10640000001E020E
(1739018360.002) RX 284#0000000000005AE0
(1739018360.002) RX 50A#8552A00D8020
(1739018360.003) RX 1DB#FE00BF2A000002A3
(1739018360.003) RX 1DC#B40F8FFD0520C64C
(1739018360.004) RX 11A#014000AA800003CE
(1739018360.004) RX 1C2#5A
(1739018360.008) RX 1DA#C0641800000102A7
(1739018360.012) RX 1D4#F7070000C74600B7
(1739018360.012) RX 1F2#10640000001E030F
(1739018360.013) RX 11A#014000AAC0000003
(1739018360.013) RX 1DB#FDE0BF2A0000031D
(1739018360.013) RX 1DC#B40F8FFD08C0CB1B
(1739018360.014) RX 1C2#5B
(1739018360.018) RX 1DA#C064180000010322
(1739018360.022) RX 380#02041021000000AF
(1739018360.022) RX 1D4#F70700000746007B
(1739018360.022) RX 1F2#10640000001E000C
(1739018360.023) RX 284#0000000000005BE1
(1739018360.023) RX 50B#000006C00060
(1739018360.023) RX 1DB#FDC0BF2A00000046
(1739018360.023) RX 5BF#000000002800003C
(1739018360.024) RX 1DC#B40F8FFD0CCCD8E4
(1739018360.024) RX 11A#0140005500000115
(1739018360.024) RX 1C2#5C
(1739018360.028) RX 1DA#C064180000010028
(1739018360.031) RX 54A#9E0070062600002C
(1739018360.032) RX 54B#007898121C000000
(1739018360.033) RX 1D4#F7070000474600BC
(1739018360.033) RX 1F2#10640000001E010D
(1739018360.033) RX 1DB#FDA0BEEA000001E0
(1739018360.033) RX 11A#01400055400002D8
(1739018360.034) RX 1DC#B40F8FFD0130C9CE
(1739018360.034) RX 54C#7066400000505800
(1739018360.034) RX 1C2#5D
(1739018360.035) RX 54F#26010000074C8A60
(1739018360.038) RX 1DA#C0641800000101AD
(1739018360.043) RX 1D4#F707000087460070
(1739018360.043) RX 1F2#10640000001E020E
(1739018360.043) RX 1DB#FD80BEEA000002BB
(1739018360.043) RX 284#0000000000005CE2
(1739018360.044) RX 11A#014000AA800003CE
(1739018360.044) RX 1DC#B40F8FFD0520C64C
(1739018360.044) RX 1C2#5E
(1739018360.048) RX 1DA#C0641800000102A7
(1739018360.048) RX 55A#002F2E005F315B68
(1739018360.053) RX 1D4#F7070000C74600B7
(1739018360.053) RX 11A#014000AAC0000003
(1739018360.053) RX 1DB#FD60BEEA0000030C
(1739018360.054) RX 1F2#10640000001E030F
(1739018360.054) RX 1DC#B40F8FFD08C0CB1B
(1739018360.054) RX 1C2#5F
(1739018360.055) RX 55B#C8005500E480111B
(1739018360.055) RX 5BC#59032C26B3052092
(1739018360.058) RX 1DA#C064180000010322
(1739018360.063) RX 1D4#F70700000746007B
(1739018360.063) RX 1DB#FD40BEEA00000057
(1739018360.064) RX 1F2#10640000001E000C
(1739018360.064) RX 11A#0140005500000115
(1739018360.064) RX 1DC#B40F8FFD0CCCD8E4
(1739018360.064) RX 284#0000000000005DE3
(1739018360.064) RX 1C2#50
(1739018360.068) RX 1DA#C064180000010028
(1739018360.073) RX 1DB#FD40BEEA000001D2
(1739018360.073) RX 1D4#F7070000474600BC
(1739018360.074) RX 11A#01400055400002D8
(1739018360.074) RX 1DC#B40F8FFD0130C9CE
(1739018360.074) RX 1F2#10640000001E010D
(1739018360.074) RX 1C2#51
(1739018360.078) RX 1DA#C0641800000101AD
(1739018360.083) RX 1DB#FD60BEEA00000289
(1739018360.083) RX 1DC#B40F8FFD0520C64C
(1739018360.084) RX 11A#014000AA800003CE
(1739018360.084) RX 1D4#F707000087460070
(1739018360.084) RX 1C2#52
(1739018360.084) RX 1F2#10640000001E020E
(1739018360.085) RX 284#0000000000005EE4
(1739018360.085) RX 50C#00000003B29A
(1739018360.088) RX 1DA#C0641800000102A7
(1739018360.093) RX 11A#014000AAC0000003
(1739018360.093) RX 1DB#FD80BEEA0000033E
(1739018360.094) RX 1D4#F7070000C74600B7
(1739018360.094) RX 1DC#B40F8FFD08C0CB1B
(1739018360.094) RX 1F2#10640000001E030F
(1739018360.094) RX 1C2#53
(1739018360.098) RX 1DA#C064180000010322
(1739018360.103) RX 1DB#FDA0BEEA00000065
(1739018360.104) RX 1DC#B40F8FFD0CCCD8E4
(1739018360.104) RX 11A#0140005500000115
(1739018360.104) RX 1D4#F70700000746007B
(1739018360.104) RX 1C2#54
(1739018360.104) RX 1F2#10640000001E000C
(1739018360.105) RX 284#0000000000005FE5
(1739018360.105) RX 50A#8572A00D8020
(1739018360.108) RX 1DA#C064180000010028
(1739018360.113) RX 11A#01400055400002D8
(1739018360.114) RX 1DB#FDC0BEEA00000113
(1739018360.114) RX 1DC#B40F8FFD0130C9CE
(1739018360.114) RX 1C2#55
(1739018360.114) RX 1D4#F7070000474600BC
(1739018360.114) RX 1F2#10640000001E010D
(1739018360.118) RX 1DA#C0641800000101AD
(1739018360.122) RX 380#02041021000000B0
(1739018360.122) RX 5BF#0000000028000009
(1739018360.123) RX 1DB#FDE0BEEA00000248
(1739018360.124) RX 11A#014000AA800003CE
(1739018360.124) RX 1DC#B40F8FFD0520C64C
(1739018360.124) RX 1C2#56
(1739018360.125) RX 1D4#F707000087460070
(1739018360.125) RX 1F2#10640000001E020E
(1739018360.125) RX 284#00000000000060E6
(1739018360.125) RX 50B#000006C00060
(1739018360.128) RX 1DA#C0641800000102A7
(1739018360.132) RX 54A#100070062600002C
(1739018360.133) RX 11A#014000AAC0000003
(1739018360.133) RX 54B#007898121C000000
(1739018360.134) RX 1DB#FE00BF2A00000326
(1739018360.134) RX 1DC#B40F8FFD08C0CB1B
(1739018360.134) RX 1C2#57
(1739018360.134) RX 54C#7066400000505800
(1739018360.135) RX 1D4#F7070000C74600B7
(1739018360.135) RX 1F2#10640000001E030F
(1739018360.135) RX 54F#26010000078C8A60
(1739018360.138) RX 1DA#C064180000010322
(1739018360.143) RX 1DB#FE20BF2A0000007D
(1739018360.144) RX 11A#0140005500000115
(1739018360.144) RX 1DC#B40F8FFD0CCCD8E4
(1739018360.144) RX 1C2#58
(1739018360.145) RX 1D4#F70700000746007B
(1739018360.145) RX 1F2#10640000001E000C
(1739018360.145) RX 284#00000000000061E7
(1739018360.148) RX 1DA#C064180000010028
(1739018360.148) RX 55A#002F2E005F315B68
(1739018360.153) RX 11A#01400055400002D8
(1739018360.154) RX 1DB#FE20BF2A000001F8
(1739018360.154) RX 1DC#B40F8FFD0130C9CE
(1739018360.154) RX 55B#C800AA00E4801256
(1739018360.154) RX 1C2#59
(1739018360.155) RX 5BC#59032C26B3052092
(1739018360.155) RX 1D4#F7070000474600BC
(1739018360.155) RX 1F2#10640000001E010D
(1739018360.158) RX 1DA#C0641800000101AD
(1739018360.163) RX 1DB#FE40BF2A00000201
(1739018360.164) RX 11A#014000AA800003CE
(1739018360.164) RX 1DC#B40F8FFD0520C64C
(1739018360.164) RX 1C2#5A
(1739018360.166) RX 1D4#F707000087460070
(1739018360.166) RX 1F2#10640000001E020E
(1739018360.166) RX 284#00000000000062E8
(1739018360.168) RX 1DA#C0641800000102A7
(1739018360.173) RX 11A#014000AAC0000003
(1739018360.174) RX 1DB#FE60BF2A000003D5
(1739018360.174) RX 1DC#B40F8FFD08C0CB1B
(1739018360.174) RX 1C2#5B
(1739018360.176) RX 1D4#F7070000C74600B7
(1739018360.176) RX 1F2#10640000001E030F
(1739018360.178) RX 1DA#C064180000010322
(1739018360.183) RX 1DB#FE60BF2A000000DF
(1739018360.184) RX 11A#0140005500000115
(1739018360.184) RX 1DC#B40F8FFD0CCCD8E4
(1739018360.184) RX 1C2#5C
(1739018360.186) RX 1D4#F70700000746007B
(1739018360.186) RX 1F2#10640000001E000C
(1739018360.187) RX 284#00000000000063E9
(1739018360.187) RX 50C#000000005DC8
(1739018360.188) RX 1DA#C064180000010028
(1739018360.194) RX 11A#01400055400002D8
(1739018360.194) RX 1DB#FE60BF2A0000015A
(1739018360.194) RX 1DC#B40F8FFD0130C9CE
(1739018360.194) RX 1C2#5D
(1739018360.196) RX 1D4#F7070000474600BC
(1739018360.196) RX 1F2#10640000001E010D
(1739018360.197) RX 5A9#643BB01304300000
(1739018360.198) RX 1DA#C0641800000101AD
(1739018360.204) RX 1DB#FE60BF2A00000250
(1739018360.204) RX 11A#014000AA800003CE
(1739018360.204) RX 1DC#B40F8FFD0520C64C
(1739018360.204) RX 1C2#5E
(1739018360.206) RX 1D4#F707000087460070
(1739018360.207) RX 1F2#10640000001E020E
(1739018360.207) RX 284#00000000000064EA
(1739018360.207) RX 50A#8512A00D8020
(1739018360.208) RX 1DA#C0641800000102A7
(1739018360.213) RX 11A#014000AAC0000003
(1739018360.214) RX 1DB#FE60BF2A000003D5
(1739018360.214) RX 1DC#B40F8FFD08C0CB1B
(1739018360.214) RX 1C2#5F
(1739018360.217) RX 1D4#F7070000C74600B7
(1739018360.217) RX 1F2#10640000001E030F
(1739018360.218) RX 1DA#C064180000010322
(1739018360.222) RX 380#020410210000008D
(1739018360.222) RX 5BF#000000002800001A
(1739018360.224) RX 11A#0140005500000115
(1739018360.224) RX 1DB#FE60BF2A000000DF
(1739018360.224) RX 1DC#B40F8FFD0CCCD8E4
(1739018360.224) RX 1C2#50
(1739018360.227) RX 1D4#F70700000746007B
(1739018360.227) RX 1F2#10640000001E000C
(1739018360.227) RX 284#00000000000065EB
(1739018360.228) RX 50B#000006C00060
(1739018360.228) RX 1DA#C064180000010028
(1739018360.231) RX 54A#9E0070062600002C
(1739018360.232) RX 54B#007898121C000000
(1739018360.233) RX 54C#7066400000585800
(1739018360.234) RX 11A#01400055400002D8
(1739018360.234) RX 1DB#FE60BF2A0000015A
(1739018360.234) RX 1DC#B40F8FFD0130C9CE
(1739018360.234) RX 54F#2601000007CC8A60
(1739018360.235) RX 1C2#51
(1739018360.237) RX 1D4#F7070000474600BC
(1739018360.238) RX 1F2#10640000001E010D
(1739018360.238) RX 284#00000000000066EC
(1739018360.238) RX 1DA#C0641800000101AD
(1739018360.244) RX 11A#014000AA800003CE
(1739018360.244) RX 1DB#FE60BF2A00000250
(1739018360.244) RX 1DC#B40F8FFD0520C64C
(1739018360.244) RX 1C2#52
(1739018360.247) RX 1D4#F707000087460070
(1739018360.248) RX 1F2#10640000001E020E
(1739018360.248) RX 1DA#C0641800000102A7
(1739018360.248) RX 55A#002F2E005F315B68
(1739018360.253) RX 11A#014000AAC0000003
(1739018360.254) RX 1DB#FE60BF2A000003D5
(1739018360.254) RX 1DC#B40F8FFD08C0CB1B
(1739018360.254) RX 55B#C8005500E4801394
(1739018360.255) RX 5BC#59032026B2054074
(1739018360.255) RX 1C2#53
(1739018360.258) RX 1D4#F7070000C74600B7
(1739018360.258) RX 1F2#10640000001E030F
(1739018360.258) RX 1DA#C064180000010322
(1739018360.258) RX 284#00000000000067ED
(1739018360.264) RX 11A#0140005500000115
(1739018360.264) RX 1DB#FE60BF2A000000DF
(1739018360.264) RX 1DC#B40F8FFD0CCCD8E4
(1739018360.264) RX 1C2#54
(1739018360.265) RX 5C0#804C4C0004A01100
(1739018360.265) RX 5EB#E00FFFFFFFFFFFFF
(1739018360.268) RX 1D4#F70700000746007B
(1739018360.268) RX 1DA#C064180000010028
(1739018360.268) RX 1F2#10640000001E000C
(1739018360.269) RX 5B9#67FF67FF28
(1739018360.273) RX 11A#01400055400002D8
(1739018360.274) RX 1DB#FE60BF2A0000015A
(1739018360.274) RX 1DC#B40F8FFD0130C9CE
(1739018360.274) RX 1C2#55
(1739018360.278) RX 1DA#C0641800000101AD
(1739018360.278) RX 1D4#F7070000474600BC
(1739018360.279) RX 1F2#10640000001E010D
(1739018360.279) RX 284#00000000000068EE
(1739018360.284) RX 11A#014000AA800003CE
(1739018360.284) RX 1DB#FE60BF2A00000250
(1739018360.284) RX 1DC#B40F8FFD0520C64C
(1739018360.284) RX 1C2#56
(1739018360.288) RX 1DA#C0641800000102A7
(1739018360.288) RX 1D4#F707000087460070
(1739018360.289) RX 1F2#10640000001E020E
(1739018360.289) RX 50C#00000001B231
(1739018360.293) RX 11A#014000AAC0000003
(1739018360.294) RX 1DB#FE60BF2A000003D5
(1739018360.294) RX 1DC#B40F8FFD08C0CB1B
(1739018360.294) RX 1C2#57
(1739018360.298) RX 1DA#C064180000010322
(1739018360.299) RX 1D4#F7070000C74600B7
(1739018360.299) RX 1F2#10640000001E030F
(1739018360.299) RX 284#00000000000069EF
(1739018360.304) RX 11A#0140005500000115
(1739018360.304) RX 1DB#FE60BF2A000000DF
(1739018360.304) RX 1DC#B40F8FFD0CCCD8E4
(1739018360.304) RX 1C2#58
(1739018360.308) RX 1DA#C064180000010028
(1739018360.309) RX 1D4#F70700000746007B
(1739018360.309) RX 1F2#10640000001E000C
(1739018360.309) RX 50A#8532A00D8020
(1739018360.314) RX 11A#01400055400002D8
(1739018360.314) RX 1DB#FE60BF2A0000015A
(1739018360.314) RX 1DC#B40F8FFD0130C9CE
(1739018360.315) RX 1C2#59
(1739018360.318) RX 1DA#C0641800000101AD
(1739018360.319) RX 1D4#F7070000474600BC
(1739018360.319) RX 1F2#10640000001E010D
(1739018360.320) RX 284#0000000000006AF0
(1739018360.322) RX 380#020410210000009E
(1739018360.322) RX 5BF#000000002800002B
(1739018360.324) RX 11A#014000AA800003CE
(1739018360.324) RX 1DB#FE60BF2A00000250
(1739018360.324) RX 1DC#B40F8FFD0520C64C
(1739018360.324) RX 1C2#5A
(1739018360.328) RX 1DA#C0641800000102A7
(1739018360.329) RX 1D4#F707000087460070
(1739018360.330) RX 1F2#10640000001E020E
(1739018360.330) RX 50B#000006C00060
(1739018360.332) RX 54A#100070062600002C
(1739018360.332) RX 54B#007898121C000000
(1739018360.333) RX 11A#014000AAC0000003
(1739018360.334) RX 54C#7066400000585800
(1739018360.334) RX 1DB#FE60BF2A000003D5
(1739018360.334) RX 1DC#B40F8FFD08C0CB1B
(1739018360.335) RX 54F#26010000070C8A60
(1739018360.335) RX 1C2#5B
(1739018360.338) RX 1DA#C064180000010322
(1739018360.340) RX 1D4#F7070000C74600B7
(1739018360.340) RX 1F2#10640000001E030F
(1739018360.340) RX 284#0000000000006BF1
(1739018360.344) RX 11A#0140005500000115
(1739018360.344) RX 1DB#FE60BF2A000000DF
(1739018360.344) RX 1DC#B40F8FFD0CCCD8E4
(1739018360.344) RX 1C2#5C
(1739018360.348) RX 1DA#C064180000010028
(1739018360.348) RX 55A#002F2E005F315B68
(1739018360.350) RX 1D4#F70700000746007B
(1739018360.350) RX 1F2#10640000001E000C
(1739018360.353) RX 11A#01400055400002D8
(1739018360.354) RX 1DB#FE60BF2A0000015A
(1739018360.354) RX 1DC#B40F8FFD0130C9CE
(1739018360.355) RX 55B#C800AA00E4001066
(1739018360.355) RX 1C2#5D
(1739018360.355) RX 5BC#59032026B2054074
(1739018360.358) RX 1DA#C0641800000101AD
(1739018360.360) RX 1D4#F7070000474600BC
(1739018360.360) RX 1F2#10640000001E010D
(1739018360.361) RX 284#0000000000006CF2
(1739018360.364) RX 11A#014000AA800003CE
(1739018360.364) RX 1DB#FE60BF2A00000250
(1739018360.364) RX 1DC#B40F8FFD0520C64C
(1739018360.365) RX 1C2#5E
(1739018360.368) RX 1DA#C0641800000102A7
(1739018360.370) RX 1D4#F707000087460070
(1739018360.371) RX 1F2#10640000001E020E
(1739018360.373) RX 11A#014000AAC0000003
(1739018360.374) RX 1DB#FE60BF2A000003D5
(1739018360.374) RX 1DC#B40F8FFD08C0CB1B
(1739018360.375) RX 1C2#5F
(1739018360.378) RX 1DA#C064180000010322
(1739018360.381) RX 1D4#F7070000C74600B7
(1739018360.381) RX 1F2#10640000001E030F
(1739018360.381) RX 284#0000000000006DF3
(1739018360.384) RX 11A#0140005500000115
(1739018360.384) RX 1DB#FE60BF2A000000DF
(1739018360.385) RX 1DC#B40F8FFD0CCCD8E4
(1739018360.385) RX 1C2#50
(1739018360.388) RX 1DA#C064180000010028
(1739018360.391) RX 1D4#F70700000746007B
(1739018360.391) RX 1F2#10640000001E000C
(1739018360.391) RX 50C#000000025D63
(1739018360.393) RX 11A#01400055400002D8
(1739018360.394) RX 1DB#FE60BF2A0000015A
(1739018360.394) RX 1DC#B40F8FFD0130C9CE
(1739018360.395) RX 1C2#51
(1739018360.398) RX 1DA#C0641800000101AD
(1739018360.401) RX 1D4#F7070000474600BC
(1739018360.401) RX 1F2#10640000001E010D
(1739018360.402) RX 284#0000000000006EF4
(1739018360.404) RX 11A#014000AA800003CE
(1739018360.404) RX 1DB#FE60BF2A00000250
(1739018360.405) RX 1DC#B40F8FFD0520C64C
(1739018360.405) RX 1C2#52
(1739018360.408) RX 1DA#C0641800000102A7
(1739018360.411) RX 1D4#F707000087460070
(1739018360.412) RX 1F2#10640000001E020E
(1739018360.412) RX 50A#8552A00D8020
(1739018360.413) RX 11A#014000AAC0000003
(1739018360.414) RX 1DB#FE60BF2A000003D5
(1739018360.414) RX 1DC#B40F8FFD08C0CB1B
(1739018360.415) RX 1C2#53
(1739018360.418) RX 1DA#C064180000010322
(1739018360.422) RX 1D4#F7070000C74600B7
(1739018360.422) RX 1F2#10640000001E030F
(1739018360.422) RX 284#0000000000006FF5
(1739018360.422) RX 380#02041021000000AF
(1739018360.423) RX 5BF#000000002800003C
(1739018360.424) RX 11A#0140005500000115
(1739018360.424) RX 1DB#FE60BF2A000000DF
(1739018360.425) RX 1DC#B40F8FFD0CCCD8E4
(1739018360.425) RX 1C2#54
(1739018360.428) RX 1DA#C064180000010028
(1739018360.432) RX 54A#9E0070062600002C
(1739018360.432) RX 1D4#F70700000746007B
(1739018360.432) RX 1F2#10640000001E000C
(1739018360.432) RX 50B#000006C00060
(1739018360.433) RX 54B#007898121C000000
(1739018360.433) RX 11A#01400055400002D8
(1739018360.434) RX 54C#7066400000585800
(1739018360.434) RX 1DB#FE60BF2A0000015A
(1739018360.435) RX 54F#26010000074C8A60
(1739018360.435) RX 1DC#B40F8FFD0130C9CE
(1739018360.435) RX 1C2#55
(1739018360.438) RX 1DA#C0641800000101AD
(1739018360.442) RX 1D4#F7070000474600BC
(1739018360.442) RX 1F2#10640000001E010D
(1739018360.443) RX 284#00000000000070F6
(1739018360.444) RX 11A#014000AA800003CE
(1739018360.444) RX 1DB#FE60BF2A00000250
(1739018360.445) RX 1DC#B40F8FFD0520C64C
(1739018360.445) RX 1C2#56
(1739018360.448) RX 1DA#C0641800000102A7
(1739018360.448) RX 55A#002F2E005F315B68
(1739018360.452) RX 1D4#F707000087460070
(1739018360.453) RX 1F2#10640000001E020E
(1739018360.453) RX 11A#014000AAC0000003
(1739018360.454) RX 1DB#FE60BF2A000003D5
(1739018360.455) RX 1DC#B40F8FFD08C0CB1B
(1739018360.455) RX 55B#C8005500E40011A4
(1739018360.455) RX 1C2#57
(1739018360.455) RX 5BC#59032026B2054074
(1739018360.458) RX 1DA#C064180000010322
(1739018360.463) RX 1D4#F7070000C74600B7
(1739018360.463) RX 1F2#10640000001E030F
(1739018360.463) RX 284#00000000000071F7
(1739018360.464) RX 11A#0140005500000115
(1739018360.464) RX 1DB#FE60BF2A000000DF
(1739018360.465) RX 1DC#B40F8FFD0CCCD8E4
(1739018360.465) RX 1C2#58
(1739018360.468) RX 1DA#C064180000010028
(1739018360.473) RX 1D4#F70700000746007B
(1739018360.473) RX 1F2#10640000001E000C
(1739018360.474) RX 11A#01400055400002D8
(1739018360.474) RX 1DB#FE60BF2A0000015A
(1739018360.475) RX 1DC#B40F8FFD0130C9CE
(1739018360.475) RX 1C2#59
(1739018360.478) RX 1DA#C0641800000101AD
(1739018360.483) RX 1D4#F7070000474600BC
(1739018360.483) RX 1F2#10640000001E010D
(1739018360.484) RX 11A#014000AA800003CE
(1739018360.484) RX 284#00000000000072F8
(1739018360.485) RX 1DB#FE60BF2A00000250
(1739018360.485) RX 1DC#B40F8FFD0520C64C
(1739018360.485) RX 1C2#5A
(1739018360.488) RX 1DA#C0641800000102A7
(1739018360.493) RX 11A#014000AAC0000003
(1739018360.493) RX 1D4#F707000087460070
(1739018360.494) RX 1F2#10640000001E020E
(1739018360.494) RX 50C#00000003B29A
(1739018360.494) RX 1DB#FE60BF2A000003D5
(1739018360.495) RX 1DC#B40F8FFD08C0CB1B
(1739018360.495) RX 1C2#5B
(1739018360.498) RX 1DA#C064180000010322
(1739018360.504) RX 1D4#F7070000C74600B7
(1739018360.504) RX 11A#0140005500000115
(1739018360.504) RX 1F2#10640000001E030F
(1739018360.504) RX 284#00000000000073F9
(1739018360.504) RX 1DB#FE60BF2A000000DF
(1739018360.505) RX 1DC#B40F8FFD0CCCD8E4
(1739018360.505) RX 1C2#5C
(1739018360.508) RX 1DA#C064180000010028
(1739018360.513) RX 11A#01400055400002D8
(1739018360.514) RX 1D4#F70700000746007B
(1739018360.514) RX 1F2#10640000001E000C
(1739018360.514) RX 50A#8572A00D8020
(1739018360.515) RX 1DB#FE60BF2A0000015A
(1739018360.515) RX 1DC#B40F8FFD0130C9CE
(1739018360.515) RX 1C2#5D
(1739018360.518) RX 1DA#C0641800000101AD
(1739018360.522) RX 380#02041021000000B0
(1739018360.523) RX 5BF#0000000028000009
(1739018360.524) RX 11A#014000AA800003CE
(1739018360.524) RX 1D4#F7070000474600BC
(1739018360.524) RX 1F2#10640000001E010D
(1739018360.524) RX 1DB#FE60BF2A00000250
(1739018360.525) RX 284#00000000000074FA
(1739018360.525) RX 1DC#B40F8FFD0520C64C
(1739018360.525) RX 1C2#5E
(1739018360.528) RX 1DA#C0641800000102A7
(1739018360.532) RX 54A#100070062600002C
(1739018360.533) RX 54B#007898121C000000
(1739018360.533) RX 11A#014000AAC0000003
(1739018360.534) RX 54C#7066400000585800
(1739018360.534) RX 1D4#F707000087460070
(1739018360.535) RX 1DB#FE60BF2A000003D5
(1739018360.535) RX 1F2#10640000001E020E
(1739018360.535) RX 1DC#B40F8FFD08C0CB1B
(1739018360.535) RX 50B#000006C00060
(1739018360.535) RX 1C2#5F
(1739018360.536) RX 54F#26010000078C8A60
(1739018360.538) RX 1DA#C064180000010322
(1739018360.544) RX 11A#0140005500000115
(1739018360.544) RX 1DB#FE60BF2A000000DF
(1739018360.545) RX 1D4#F7070000C74600B7
(1739018360.545) RX 1DC#B40F8FFD0CCCD8E4
(1739018360.545) RX 1F2#10640000001E030F
(1739018360.545) RX 1C2#50
(1739018360.546) RX 284#00000000000075FB
(1739018360.548) RX 1DA#C064180000010028
(1739018360.548) RX 55A#002F2E005F315B68
(1739018360.553) RX 11A#01400055400002D8
(1739018360.555) RX 1DB#FE60BF2A0000015A
(1739018360.555) RX 1D4#F70700000746007B
(1739018360.555) RX 1DC#B40F8FFD0130C9CE
(1739018360.555) RX 1F2#10640000001E000C
(1739018360.556) RX 55B#C800AA00E3C012A5
(1739018360.556) RX 1C2#51
(1739018360.556) RX 5BC#59032026B2054074
(1739018360.558) RX 1DA#C0641800000101AD
(1739018360.564) RX 11A#014000AA800003CE
(1739018360.565) RX 1DB#FE60BF2A00000250
(1739018360.565) RX 1DC#B40F8FFD0520C64C
(1739018360.565) RX 1D4#F7070000474600BC
(1739018360.565) RX 1C2#52
(1739018360.565) RX 1F2#10640000001E010D
(1739018360.566) RX 284#00000000000076FC
(1739018360.568) RX 1DA#C0641800000102A7
(1739018360.573) RX 11A#014000AAC0000003
(1739018360.575) RX 1DB#FE60BF2A000003D5
(1739018360.575) RX 1DC#B40F8FFD08C0CB1B
(1739018360.575) RX 1D4#F707000087460070
(1739018360.575) RX 1C2#53
(1739018360.576) RX 1F2#10640000001E020E
(1739018360.578) RX 1DA#C064180000010322
(1739018360.584) RX 11A#0140005500000115
(1739018360.585) RX 1DB#FE60BF2A000000DF
(1739018360.585) RX 1DC#B40F8FFD0CCCD8E4
(1739018360.585) RX 1C2#54
(1739018360.586) RX 1D4#F7070000C74600B7
(1739018360.586) RX 1F2#10640000001E030F
(1739018360.586) RX 284#00000000000077FD
(1739018360.588) RX 1DA#C064180000010028
(1739018360.593) RX 11A#01400055400002D8
(1739018360.595) RX 1DB#FE60BF2A0000015A
(1739018360.595) RX 1DC#B40F8FFD0130C9CE
(1739018360.595) RX 1C2#55
(1739018360.596) RX 1D4#F70700000746007B
(1739018360.596) RX 1F2#10640000001E000C
(1739018360.596) RX 50C#000000005DC8
(1739018360.598) RX 1DA#C0641800000101AD
(1739018360.604) RX 11A#014000AA800003CE
(1739018360.605) RX 1DB#FE60BF2A00000250
(1739018360.605) RX 1DC#B40F8FFD0520C64C
(1739018360.605) RX 1C2#56
(1739018360.606) RX 1D4#F7070000474600BC
(1739018360.606) RX 1F2#10640000001E010D
(1739018360.606) RX 284#00000000000078FE
(1739018360.608) RX 1DA#C0641800000102A7
(1739018360.613) RX 11A#014000AAC0000003
(1739018360.615) RX 1DB#FE60BF2A000003D5
(1739018360.615) RX 1DC#B40F8FFD08C0CB1B
(1739018360.615) RX 1C2#57
(1739018360.616) RX 1D4#F707000087460070
(1739018360.616) RX 1F2#10640000001E020E
(1739018360.617) RX 50A#8512A00D8020
(1739018360.618) RX 1DA#C064180000010322
(1739018360.622) RX 380#020410210000008D
(1739018360.623) RX 5BF#000000002800001A
(1739018360.624) RX 11A#0140005500000115
(1739018360.625) RX 1DB#FE60BF2A000000DF
(1739018360.625) RX 1DC#B40F8FFD0CCCD8E4
(1739018360.625) RX 1C2#58
(1739018360.626) RX 1D4#F7070000C74600B7
(1739018360.627) RX 1F2#10640000001E030F
(1739018360.627) RX 284#00000000000079FF
(1739018360.628) RX 1DA#C064180000010028
(1739018360.633) RX 54A#9E0070062600002C
(1739018360.633) RX 11A#01400055400002D8
(1739018360.634) RX 54B#007898121C000000
(1739018360.635) RX 1DB#FE60BF2A0000015A
(1739018360.635) RX 54C#7066400000585800
(1739018360.635) RX 1DC#B40F8FFD0130C9CE
(1739018360.635) RX 1C2#59
(1739018360.636) RX 54F#2601000007CC8A60
(1739018360.637) RX 1D4#F70700000746007B
(1739018360.637) RX 1F2#10640000001E000C
(1739018360.637) RX 50B#000006C00060
(1739018360.638) RX 1DA#C0641800000101AD
(1739018360.644) RX 11A#014000AA800003CE
(1739018360.645) RX 1DB#FE60BF2A00000250
(1739018360.645) RX 1DC#B40F8FFD0520C64C
(1739018360.645) RX 1C2#5A
(1739018360.647) RX 1D4#F7070000474600BC
(1739018360.647) RX 1F2#10640000001E010D
(1739018360.647) RX 284#0000000000007A00
(1739018360.648) RX 1DA#C0641800000102A7
(1739018360.648) RX 55A#002F2E005F315B68
(1739018360.653) RX 11A#014000AAC0000003
(1739018360.655) RX 1DB#FE60BF2A000003D5
(1739018360.655) RX 1DC#B40F8FFD08C0CB1B
(1739018360.656) RX 55B#C8005500E3C01367
(1739018360.656) RX 1C2#5B
(1739018360.656) RX 5BC#59032026B2054074
(1739018360.657) RX 1D4#F707000087460070
(1739018360.657) RX 1F2#10640000001E020E
(1739018360.658) RX 284#0000000000007B01
(1739018360.658) RX 1DA#C064180000010322
(1739018360.664) RX 11A#0140005500000115
(1739018360.665) RX 1DB#FE60BF2A000000DF
(1739018360.665) RX 1DC#B40F8FFD0CCCD8E4
(1739018360.665) RX 1C2#5C
(1739018360.667) RX 1D4#F7070000C74600B7
(1739018360.668) RX 1F2#10640000001E030F
(1739018360.668) RX 1DA#C064180000010028
(1739018360.673) RX 11A#01400055400002D8
(1739018360.675) RX 1DB#FE60BF2A0000015A
(1739018360.675) RX 1DC#B40F8FFD0130C9CE
(1739018360.675) RX 1C2#5D
(1739018360.678) RX 1D4#F70700000746007B
(1739018360.678) RX 1F2#10640000001E000C
(1739018360.678) RX 1DA#C0641800000101AD
(1739018360.678) RX 284#0000000000007C02
(1739018360.684) RX 11A#014000AA800003CE
(1739018360.685) RX 1DB#FE60BF2A00000250
(1739018360.685) RX 1DC#B40F8FFD0520C64C
(1739018360.685) RX 1C2#5E
(1739018360.688) RX 1D4#F7070000474600BC
(1739018360.688) RX 1DA#C0641800000102A7
(1739018360.688) RX 1F2#10640000001E010D
(1739018360.693) RX 11A#014000AAC0000003
(1739018360.695) RX 1DB#FE60BF2A000003D5
(1739018360.695) RX 1DC#B40F8FFD08C0CB1B
(1739018360.695) RX 1C2#5F
(1739018360.698) RX 1DA#C064180000010322
(1739018360.698) RX 1D4#F707000087460070
(1739018360.699) RX 1F2#10640000001E020E
(1739018360.699) RX 284#0000000000007D03
(1739018360.699) RX 50C#00000001B231
(1739018360.704) RX 11A#0140005500000115
(1739018360.705) RX 1DB#FE60BF2A000000DF
(1739018360.705) RX 1DC#B40F8FFD0CCCD8E4
(1739018360.705) RX 1C2#50
(1739018360.708) RX 1DA#C064180000010028
(1739018360.708) RX 1D4#F7070000C74600B7
(1739018360.709) RX 1F2#10640000001E030F
(1739018360.709) RX 5A9#643BB01304300000
(1739018360.713) RX 11A#01400055400002D8
(1739018360.715) RX 1DB#FE60BF2A0000015A
(1739018360.715) RX 1DC#B40F8FFD0130C9CE
(1739018360.716) RX 1C2#51
(1739018360.718) RX 1DA#C0641800000101AD
(1739018360.719) RX 1D4#F70700000746007B
(1739018360.719) RX 1F2#10640000001E000C
(1739018360.719) RX 284#0000000000007E04
(1739018360.719) RX 50A#8532A00C8020
(1739018360.723) RX 380#020410210000009E
(1739018360.723) RX 5BF#000000002800002B
(1739018360.724) RX 11A#014000AA800003CE
(1739018360.725) RX 1DB#FE60BF2A00000250
(1739018360.725) RX 1DC#B40F8FFD0520C64C
(1739018360.725) RX 1C2#52
(1739018360.728) RX 1DA#C0641800000102A7
(1739018360.729) RX 1D4#F7070000474600BC
(1739018360.729) RX 1F2#10640000001E010D
(1739018360.732) RX 54A#100070062600002C
(1739018360.733) RX 11A#014000AAC0000003
(1739018360.733) RX 54B#007898121C000000
(1739018360.734) RX 54C#7066400000605800
(1739018360.735) RX 54F#26010000070C8A60
