(1739018529.736) RX 1D4#F70700000746007B
(1739018529.737) RX 1F2#10640000001E000C
(1739018529.737) RX 284#0000000000008107
(1739018529.737) RX 50A#8572A00D8020
(1739018529.737) RX 1DA#C0641800000102A7
(1739018529.738) RX 1C2#50
(1739018529.744) RX 11A#01400055400002D8
(1739018529.744) RX 1DB#FFE0BF6A00000102
(1739018529.745) RX 1DC#B40F8FFD0130C9CE
(1739018529.746) RX 1D4#F7070000474600BC
(1739018529.747) RX 1F2#10640000001E010D
(1739018529.747) RX 1DA#C064180000010322
(1739018529.747) RX 1C2#51
(1739018529.750) RX 11A#014000AA800003CE
(1739018529.754) RX 1DB#FFE0BF6A00000208
(1739018529.755) RX 1DC#B40F8FFD0520C64C
(1739018529.757) RX 1D4#F707000087460070
(1739018529.757) RX 1F2#10640000001E020E
(1739018529.757) RX 1DA#C064180000010028
(1739018529.757) RX 284#0000000000008208
(1739018529.758) RX 50B#000006C00060
(1739018529.758) RX 1C2#52
(1739018529.759) RX 11A#014000AAC0000003
(1739018529.763) RX 54A#9E0070020000002C
(1739018529.764) RX 54B#0108800904000000
(1739018529.764) RX 1DB#FFE0BF6A0000038D
(1739018529.765) RX 1DC#B40F8FFD08C0CB1B
(1739018529.765) RX 54C#7666000000005800
(1739018529.766) RX 54F#2A01000007408A60
(1739018529.767) RX 1D4#F7070000C74600B7
(1739018529.767) RX 1DA#C0641800000101AD
(1739018529.767) RX 1F2#10640000001E030F
(1739018529.768) RX 1C2#53
(1739018529.770) RX 11A#0140005500000115
(1739018529.774) RX 1DB#FFE0BF6A00000087
(1739018529.775) RX 1DC#B40F8FFD0CCCD8E4
(1739018529.777) RX 1DA#C0641800000102A7
(1739018529.777) RX 1D4#F70700000746007B
(1739018529.778) RX 1F2#10640000001E000C
(1739018529.778) RX 1C2#54
(1739018529.778) RX 284#0000000000008309
(1739018529.780) RX 11A#01400055400002D8
(1739018529.784) RX 1DB#FFE0BF6A00000102
(1739018529.785) RX 1DC#B40F8FFD0130C9CE
(1739018529.787) RX 1DA#C064180000010322
(1739018529.787) RX 1D4#F7070000474600BC
(1739018529.788) RX 1F2#10640000001E010D
(1739018529.788) RX 1C2#55
(1739018529.789) RX 380#02041021000000AF
(1739018529.790) RX 5BF#000000002800003C
(1739018529.790) RX 11A#014000AA800003CE
(1739018529.794) RX 1DB#FFE0BF6A00000208
(1739018529.795) RX 1DC#B40F8FFD0520C64C
(1739018529.797) RX 1DA#C064180000010028
(1739018529.798) RX 1D4#F707000087460070
(1739018529.798) RX 1C2#56
(1739018529.798) RX 1F2#10640000001E020E
(1739018529.798) RX 284#000000000000840A
(1739018529.799) RX 5B9#67FF67FF28
(1739018529.799) RX 11A#014000AAC0000003
(1739018529.805) RX 1DB#FFE0BF6A0000038D
(1739018529.805) RX 1DC#B40F8FFD08C0CB1B
(1739018529.807) RX 1DA#C0641800000101AD
(1739018529.808) RX 1C2#57
(1739018529.808) RX 1D4#F7070000C74600B7
(1739018529.808) RX 1F2#10640000001E030F
(1739018529.810) RX 11A#0140005500000115
(1739018529.814) RX 1DB#FFE0BF6A00000087
(1739018529.815) RX 1DC#B40F8FFD0CCCD8E4
(1739018529.817) RX 1DA#C0641800000102A7
(1739018529.817) RX 55A#00302F005F315B68
(1739018529.818) RX 1C2#58
(1739018529.818) RX 1D4#F70700000746007B
(1739018529.818) RX 1F2#10640000001E000C
(1739018529.819) RX 284#000000000000850B
(1739018529.819) RX 50C#00000000B2A6
(1739018529.820) RX 11A#01400055400002D8
(1739018529.825) RX 1DB#FFE0BF6A00000102
(1739018529.825) RX 1DC#B40F8FFD0130C9CE
(1739018529.825) RX 55B#C780AA00E50012FE
(1739018529.826) RX 5BC#59032026B2040087
(1739018529.827) RX 1DA#C064180000010322
(1739018529.828) RX 1C2#59
(1739018529.828) RX 1D4#F7070000474600BC
(1739018529.829) RX 1F2#10640000001E010D
(1739018529.830) RX 11A#014000AA800003CE
(1739018529.835) RX 1DB#FFE0BF6A00000208
(1739018529.835) RX 1DC#B40F8FFD0520C64C
(1739018529.837) RX 1DA#C064180000010028
(1739018529.838) RX 1C2#5A
(1739018529.839) RX 1D4#F707000087460070
(1739018529.839) RX 1F2#10640000001E020E
(1739018529.839) RX 284#000000000000860C
(1739018529.839) RX 11A#014000AAC0000003
(1739018529.840) RX 50A#8512A00D8020
(1739018529.848) RX 1DB#FFE0BF6A0000038D
(1739018529.849) RX 1DC#B40F8FFD08C0CB1B
(1739018529.849) RX 1DA#C0641800000101AD
(1739018529.849) RX 1C2#5B
(1739018529.849) RX 1D4#F7070000C74600B7
(1739018529.849) RX 1F2#10640000001E030F
(1739018529.850) RX 11A#0140005500000115
(1739018529.855) RX 1DB#FFE0BF6A00000087
(1739018529.855) RX 1DC#B40F8FFD0CCCD8E4
(1739018529.857) RX 1DA#C0641800000102A7
(1739018529.858) RX 1C2#5C
(1739018529.859) RX 1D4#F70700000746007B
(1739018529.859) RX 1F2#10640000001E000C
(1739018529.860) RX 284#000000000000870D
(1739018529.860) RX 50B#000006C00060
(1739018529.860) RX 11A#01400055400002D8
(1739018529.863) RX 54A#100070020000002C
(1739018529.864) RX 54B#0108800904000000
(1739018529.865) RX 1DB#FFE0BF6A00000102
(1739018529.865) RX 54C#7666000000005800
(1739018529.865) RX 1DC#B40F8FFD0130C9CE
(1739018529.866) RX 54F#2A01000007808A60
(1739018529.867) RX 1DA#C064180000010322
(1739018529.868) RX 1C2#5D
(1739018529.869) RX 1D4#F7070000474600BC
(1739018529.870) RX 1F2#10640000001E010D
(1739018529.870) RX 11A#014000AA800003CE
(1739018529.875) RX 1DB#FFE0BF6A00000208
(1739018529.875) RX 1DC#B40F8FFD0520C64C
(1739018529.877) RX 1DA#C064180000010028
(1739018529.878) RX 1C2#5E
(1739018529.879) RX 11A#014000AAC0000003
(1739018529.880) RX 1D4#F707000087460070
(1739018529.880) RX 1F2#10640000001E020E
(1739018529.880) RX 284#000000000000880E
(1739018529.885) RX 1DB#FFE0BF6A0000038D
(1739018529.885) RX 1DC#B40F8FFD08C0CB1B
(1739018529.887) RX 1DA#C0641800000101AD
(1739018529.888) RX 1C2#5F
(1739018529.889) RX 380#02041021000000B0
(1739018529.890) RX 5BF#0000000028000009
(1739018529.890) RX 1D4#F7070000C74600B7
(1739018529.890) RX 11A#0140005500000115
(1739018529.890) RX 1F2#10640000001E030F
(1739018529.895) RX 1DB#FFE0BF6A00000087
(1739018529.895) RX 1DC#B40F8FFD0CCCD8E4
(1739018529.897) RX 1DA#C0641800000102A7
(1739018529.898) RX 1C2#50
(1739018529.900) RX 11A#01400055400002D8
(1739018529.900) RX 1D4#F70700000746007B
(1739018529.900) RX 1F2#10640000001E000C
(1739018529.901) RX 284#000000000000890F
(1739018529.905) RX 1DB#FFE0BF6A00000102
(1739018529.905) RX 1DC#B40F8FFD0130C9CE
(1739018529.907) RX 1DA#C064180000010322
(1739018529.908) RX 1C2#51
(1739018529.910) RX 11A#014000AA800003CE
(1739018529.910) RX 1D4#F7070000474600BC
(1739018529.911) RX 1F2#10640000001E010D
(1739018529.915) RX 1DB#FFE0BF6A00000208
(1739018529.915) RX 1DC#B40F8FFD0520C64C
(1739018529.917) RX 1DA#C064180000010028
(1739018529.917) RX 55A#00302F005F315B68
(1739018529.918) RX 1C2#52
(1739018529.919) RX 11A#014000AAC0000003
(1739018529.921) RX 1D4#F707000087460070
(1739018529.921) RX 1F2#10640000001E020E
(1739018529.921) RX 284#0000000000008A10
(1739018529.921) RX 50C#000000015D5F
(1739018529.925) RX 1DB#FFE0BF6A0000038D
(1739018529.925) RX 1DC#B40F8FFD08C0CB1B
(1739018529.926) RX 55B#C7805500E500133C
(1739018529.926) RX 5BC#59032026B2040087
(1739018529.927) RX 1DA#C0641800000101AD
(1739018529.928) RX 1C2#53
(1739018529.930) RX 11A#0140005500000115
(1739018529.931) RX 1D4#F7070000C74600B7
(1739018529.931) RX 1F2#10640000001E030F
(1739018529.935) RX 1DB#FFE0BF6A00000087
(1739018529.935) RX 1DC#B40F8FFD0CCCD8E4
(1739018529.937) RX 1DA#C0641800000102A7
(1739018529.938) RX 1C2#54
(1739018529.940) RX 11A#01400055400002D8
(1739018529.941) RX 1D4#F70700000746007B
(1739018529.941) RX 1F2#10640000001E000C
(1739018529.942) RX 284#0000000000008B11
(1739018529.942) RX 50A#8532A00D8020
(1739018529.945) RX 1DB#FFE0BF6A00000102
(1739018529.945) RX 1DC#B40F8FFD0130C9CE
(1739018529.947) RX 1DA#C064180000010322
(1739018529.948) RX 1C2#55
(1739018529.950) RX 11A#014000AA800003CE
(1739018529.951) RX 1D4#F7070000474600BC
(1739018529.952) RX 1F2#10640000001E010D
(1739018529.955) RX 1DB#FFE0BF6A00000208
(1739018529.955) RX 1DC#B40F8FFD0520C64C
(1739018529.957) RX 1DA#C064180000010028
(1739018529.958) RX 1C2#56
(1739018529.959) RX 11A#014000AAC0000003
(1739018529.962) RX 1D4#F707000087460070
(1739018529.962) RX 1F2#10640000001E020E
(1739018529.962) RX 284#0000000000008C12
(1739018529.962) RX 50B#000006C00060
(1739018529.963) RX 54A#9E0070020000002C
(1739018529.963) RX 54B#0108800904000000
(1739018529.964) RX 54C#7666000000005800
(1739018529.965) RX 1DB#FFE0BF6A0000038D
(1739018529.965) RX 54F#2A01000007C08A60
(1739018529.965) RX 1DC#B40F8FFD08C0CB1B
(1739018529.967) RX 1DA#C0641800000101AD
(1739018529.968) RX 1C2#57
(1739018529.970) RX 11A#0140005500000115
(1739018529.972) RX 1D4#F7070000C74600B7
(1739018529.972) RX 1F2#10640000001E030F
(1739018529.975) RX 1DB#FFE0BF6A00000087
(1739018529.975) RX 1DC#B40F8FFD0CCCD8E4
(1739018529.977) RX 1DA#C0641800000102A7
(1739018529.978) RX 1C2#58
(1739018529.980) RX 11A#01400055400002D8
(1739018529.982) RX 1D4#F70700000746007B
(1739018529.982) RX 1F2#10640000001E000C
(1739018529.983) RX 284#0000000000008D13
(1739018529.985) RX 1DB#FFE0BF6A00000102
(1739018529.985) RX 1DC#B40F8FFD0130C9CE
(1739018529.987) RX 1DA#C064180000010322
(1739018529.988) RX 1C2#59
(1739018529.990) RX 380#020410210000008D
(1739018529.990) RX 5BF#000000002800001A
(1739018529.990) RX 11A#014000AA800003CE
(1739018529.992) RX 1D4#F7070000474600BC
(1739018529.993) RX 1F2#10640000001E010D
(1739018529.995) RX 1DB#FFE0BF6A00000208
(1739018529.995) RX 1DC#B40F8FFD0520C64C
(1739018529.997) RX 1DA#C064180000010028
(1739018529.998) RX 1C2#5A
(1739018529.999) RX 11A#014000AAC0000003
(1739018530.003) RX 1D4#F707000087460070
(1739018530.003) RX 1F2#10640000001E020E
(1739018530.003) RX 284#0000000000008E14
(1739018530.005) RX 1DB#FFE0BF6A0000038D
(1739018530.005) RX 1DC#B40F8FFD08C0CB1B
(1739018530.007) RX 1DA#C0641800000101AD
(1739018530.008) RX 1C2#5B
(1739018530.010) RX 11A#0140005500000115
(1739018530.013) RX 1D4#F7070000C74600B7
(1739018530.013) RX 1F2#10640000001E030F
(1739018530.015) RX 1DB#FFE0BF6A00000087
(1739018530.015) RX 1DC#B40F8FFD0CCCD8E4
(1739018530.017) RX 1DA#C0641800000102A7
(1739018530.017) RX 55A#00302F005F315B68
(1739018530.018) RX 1C2#5C
(1739018530.020) RX 11A#01400055400002D8
(1739018530.023) RX 1D4#F70700000746007B
(1739018530.023) RX 1F2#10640000001E000C
(1739018530.024) RX 284#0000000000008F15
(1739018530.024) RX 50C#00000002B20D
(1739018530.025) RX 1DB#FFE0BF6A00000102
(1739018530.026) RX 1DC#B40F8FFD0130C9CE
(1739018530.026) RX 55B#C780AA00E5001071
(1739018530.026) RX 5BC#59032026B2040087
(1739018530.027) RX 1DA#C064180000010322
(1739018530.028) RX 1C2#5D
(1739018530.030) RX 11A#014000AA800003CE
(1739018530.033) RX 1D4#F7070000474600BC
(1739018530.034) RX 1F2#10640000001E010D
(1739018530.035) RX 1DB#FFE0BF6A00000208
(1739018530.035) RX 1DC#B40F8FFD0520C64C
(1739018530.037) RX 1DA#C064180000010028
(1739018530.038) RX 1C2#5E
(1739018530.039) RX 11A#014000AAC0000003
(1739018530.044) RX 1D4#F707000087460070
(1739018530.044) RX 1F2#10640000001E020E
(1739018530.044) RX 284#0000000000009016
(1739018530.044) RX 50A#8552A00D8020
(1739018530.045) RX 1DB#FFE0BF6A0000038D
(1739018530.046) RX 1DC#B40F8FFD08C0CB1B
(1739018530.047) RX 1DA#C0641800000101AD
(1739018530.048) RX 1C2#5F
(1739018530.050) RX 11A#0140005500000115
(1739018530.054) RX 1D4#F7070000C74600B7
(1739018530.054) RX 1F2#10640000001E030F
(1739018530.054) RX 284#0000000000009117
(1739018530.055) RX 1DB#FFE0BF6A00000087
(1739018530.056) RX 1DC#B40F8FFD0CCCD8E4
(1739018530.057) RX 1DA#C0641800000102A7
(1739018530.058) RX 1C2#50
(1739018530.060) RX 11A#01400055400002D8
(1739018530.062) RX 54A#100070020000002C
(1739018530.063) RX 54B#0108800904000000
(1739018530.064) RX 1D4#F70700000746007B
(1739018530.064) RX 1F2#10640000001E000C
(1739018530.064) RX 50B#000006C00060
(1739018530.065) RX 54C#7666000000005800
(1739018530.065) RX 1DB#FFE0BF6A00000102
(1739018530.066) RX 1DC#B40F8FFD0130C9CE
(1739018530.066) RX 54F#2A01000007008A60
(1739018530.067) RX 1DA#C064180000010322
(1739018530.068) RX 1C2#51
(1739018530.070) RX 11A#014000AA800003CE
(1739018530.074) RX 1D4#F7070000474600BC
(1739018530.075) RX 1F2#10640000001E010D
(1739018530.075) RX 284#0000000000009218
(1739018530.075) RX 1DB#FFE0BF6A00000208
(1739018530.075) RX 1DC#B40F8FFD0520C64C
(1739018530.077) RX 1DA#C064180000010028
(1739018530.078) RX 1C2#52
(1739018530.079) RX 11A#014000AAC0000003
(1739018530.084) RX 1D4#F707000087460070
(1739018530.085) RX 1F2#10640000001E020E
(1739018530.085) RX 1DB#FFE0BF6A0000038D
(1739018530.086) RX 1DC#B40F8FFD08C0CB1B
(1739018530.087) RX 1DA#C0641800000101AD
(1739018530.088) RX 1C2#53
(1739018530.090) RX 380#020410210000009E
(1739018530.090) RX 5BF#000000002800002B
(1739018530.090) RX 11A#0140005500000115
(1739018530.095) RX 1D4#F7070000C74600B7
(1739018530.095) RX 1F2#10640000001E030F
(1739018530.095) RX 284#0000000000009319
(1739018530.096) RX 1DB#FFE0BF6A00000087
(1739018530.096) RX 1DC#B40F8FFD0CCCD8E4
(1739018530.097) RX 1DA#C0641800000102A7
(1739018530.098) RX 1C2#54
(1739018530.100) RX 11A#01400055400002D8
(1739018530.105) RX 1D4#F70700000746007B
(1739018530.105) RX 1F2#10640000001E000C
(1739018530.105) RX 1DB#FFE0BF6A00000102
(1739018530.106) RX 1DC#B40F8FFD0130C9CE
(1739018530.107) RX 1DA#C064180000010322
(1739018530.108) RX 1C2#55
(1739018530.110) RX 11A#014000AA800003CE
(1739018530.115) RX 1D4#F7070000474600BC
(1739018530.116) RX 1DB#FFE0BF6A00000208
(1739018530.116) RX 1F2#10640000001E010D
(1739018530.116) RX 1DC#B40F8FFD0520C64C
(1739018530.116) RX 284#000000000000941A
(1739018530.117) RX 1DA#C064180000010028
(1739018530.117) RX 55A#00302F005F315B68
(1739018530.118) RX 1C2#56
(1739018530.119) RX 11A#014000AAC0000003
(1739018530.126) RX 1D4#F707000087460070
(1739018530.126) RX 1DB#FFE0BF6A0000038D
(1739018530.126) RX 1F2#10640000001E020E
(1739018530.126) RX 1DC#B40F8FFD08C0CB1B
(1739018530.126) RX 50C#000000035DF4
(1739018530.127) RX 55B#C780AA00E50011F4
(1739018530.127) RX 5BC#59032026B2040087
(1739018530.127) RX 1DA#C0641800000101AD
(1739018530.128) RX 1C2#57
(1739018530.130) RX 11A#0140005500000115
(1739018530.135) RX 1DB#FFE0BF6A00000087
(1739018530.136) RX 1DC#B40F8FFD0CCCD8E4
(1739018530.136) RX 1D4#F7070000C74600B7
(1739018530.136) RX 1F2#10640000001E030F
(1739018530.136) RX 284#000000000000951B
(1739018530.137) RX 1DA#C0641800000102A7
(1739018530.138) RX 1C2#58
(1739018530.140) RX 11A#01400055400002D8
(1739018530.146) RX 1DB#FFE0BF6A00000102
(1739018530.146) RX 1DC#B40F8FFD0130C9CE
(1739018530.146) RX 1D4#F70700000746007B
(1739018530.146) RX 1F2#10640000001E000C
(1739018530.146) RX 50A#8572A00D8020
(1739018530.147) RX 1DA#C064180000010322
(1739018530.148) RX 1C2#59
(1739018530.150) RX 11A#014000AA800003CE
(1739018530.155) RX 1DB#FFE0BF6A00000208
(1739018530.156) RX 1DC#B40F8FFD0520C64C
(1739018530.156) RX 1D4#F7070000474600BC
(1739018530.156) RX 1F2#10640000001E010D
(1739018530.157) RX 284#000000000000961C
(1739018530.157) RX 1DA#C064180000010028
(1739018530.158) RX 1C2#5A
(1739018530.159) RX 11A#014000AAC0000003
(1739018530.163) RX 54A#9E0070020000002C
(1739018530.164) RX 54B#0108800904000000
(1739018530.165) RX 54C#7666000000005800
(1739018530.166) RX 1DB#FFE0BF6A0000038D
(1739018530.166) RX 1DC#B40F8FFD08C0CB1B
(1739018530.166) RX 54F#2A01000007408A60
(1739018530.166) RX 1D4#F707000087460070
(1739018530.167) RX 1F2#10640000001E020E
(1739018530.167) RX 50B#000006C00060
(1739018530.167) RX 1DA#C0641800000101AD
(1739018530.168) RX 1C2#5B
(1739018530.170) RX 11A#0140005500000115
(1739018530.175) RX 1DB#FFE0BF6A00000087
(1739018530.176) RX 1DC#B40F8FFD0CCCD8E4
(1739018530.177) RX 1D4#F7070000C74600B7
(1739018530.177) RX 1F2#10640000001E030F
(1739018530.177) RX 1DA#C0641800000102A7
(1739018530.177) RX 284#000000000000971D
(1739018530.178) RX 1C2#5C
(1739018530.180) RX 11A#01400055400002D8
(1739018530.186) RX 1DB#FFE0BF6A00000102
(1739018530.186) RX 1DC#B40F8FFD0130C9CE
(1739018530.187) RX 1D4#F70700000746007B
(1739018530.187) RX 1DA#C064180000010322
(1739018530.187) RX 1F2#10640000001E000C
(1739018530.188) RX 1C2#5D
(1739018530.190) RX 380#02041021000000AF
(1739018530.190) RX 5BF#000000002800003C
(1739018530.190) RX 11A#014000AA800003CE
(1739018530.196) RX 1DB#FFE0BF6A00000208
(1739018530.196) RX 1DC#B40F8FFD0520C64C
(1739018530.197) RX 1DA#C064180000010028
(1739018530.197) RX 1D4#F7070000474600BC
(1739018530.198) RX 1F2#10640000001E010D
(1739018530.198) RX 284#000000000000981E
(1739018530.199) RX 1C2#5E
(1739018530.199) RX 11A#014000AAC0000003
(1739018530.206) RX 1DB#FFE0BF6A0000038D
(1739018530.206) RX 1DC#B40F8FFD08C0CB1B
(1739018530.207) RX 1DA#C0641800000101AD
(1739018530.207) RX 1D4#F707000087460070
(1739018530.208) RX 1F2#10640000001E020E
(1739018530.209) RX 1C2#5F
(1739018530.210) RX 11A#0140005500000115
(1739018530.216) RX 1DB#FFE0BF6A00000087
(1739018530.216) RX 1DC#B40F8FFD0CCCD8E4
(1739018530.217) RX 1DA#C0641800000102A7
(1739018530.217) RX 55A#00302F005F315B68
(1739018530.218) RX 1D4#F7070000C74600B7
(1739018530.218) RX 1F2#10640000001E030F
(1739018530.218) RX 284#000000000000991F
(1739018530.219) RX 1C2#50
(1739018530.220) RX 11A#01400055400002D8
(1739018530.226) RX 1DB#FFE0BF6A00000102
(1739018530.226) RX 1DC#B40F8FFD0130C9CE
(1739018530.226) RX 55B#C7805500E50012B9
(1739018530.227) RX 5BC#59032C26B305209A
(1739018530.227) RX 1DA#C064180000010322
(1739018530.228) RX 1D4#F70700000746007B
(1739018530.228) RX 1F2#10640000001E000C
(1739018530.228) RX 50C#000000005DC8
(1739018530.229) RX 1C2#51
(1739018530.230) RX 11A#014000AA800003CE
(1739018530.236) RX 1DB#FFE0BF6A00000208
(1739018530.236) RX 1DC#B40F8FFD0520C64C
(1739018530.236) RX 5C0#804C4C0004A01100
(1739018530.237) RX 5EB#E00FFFFFFFFFFFFF
(1739018530.237) RX 1DA#C064180000010028
(1739018530.238) RX 1D4#F7070000474600BC
(1739018530.238) RX 1F2#10640000001E010D
(1739018530.239) RX 284#0000000000009A20
(1739018530.239) RX 1C2#52
(1739018530.239) RX 5A9#9A44201304300000
(1739018530.239) RX 11A#014000AAC0000003
(1739018530.246) RX 1DB#FFE0BF6A0000038D
(1739018530.246) RX 1DC#B40F8FFD08C0CB1B
(1739018530.247) RX 1DA#C0641800000101AD
(1739018530.248) RX 1D4#F707000087460070
(1739018530.249) RX 1F2#10640000001E020E
(1739018530.249) RX 1C2#53
(1739018530.249) RX 50A#8512A00D8020
(1739018530.250) RX 11A#0140005500000115
(1739018530.256) RX 1DB#FFE0BF6A00000087
(1739018530.256) RX 1DC#B40F8FFD0CCCD8E4
(1739018530.257) RX 1DA#C0641800000102A7
(1739018530.259) RX 1D4#F7070000C74600B7
(1739018530.259) RX 1C2#54
(1739018530.259) RX 1F2#10640000001E030F
(1739018530.259) RX 284#0000000000009B21
(1739018530.260) RX 11A#01400055400002D8
(1739018530.262) RX 54A#100070020000002C
(1739018530.263) RX 54B#0108800904000000
(1739018530.264) RX 54C#7666000000005800
(1739018530.265) RX 54F#2A01000007808A60
(1739018530.266) RX 1DB#FFE0BF6A00000102
(1739018530.266) RX 1DC#B40F8FFD0130C9CE
(1739018530.267) RX 1DA#C064180000010322
(1739018530.269) RX 1C2#55
(1739018530.269) RX 1D4#F70700000746007B
(1739018530.269) RX 1F2#10640000001E000C
(1739018530.269) RX 50B#000006C00060
(1739018530.270) RX 11A#014000AA800003CE
(1739018530.276) RX 1DB#FFE0BF6A00000208
(1739018530.276) RX 1DC#B40F8FFD0520C64C
(1739018530.277) RX 1DA#C064180000010028
(1739018530.279) RX 1C2#56
(1739018530.279) RX 1D4#F7070000474600BC
(1739018530.279) RX 11A#014000AAC0000003
(1739018530.280) RX 1F2#10640000001E010D
(1739018530.280) RX 284#0000000000009C22
(1739018530.286) RX 1DB#FFE0BF6A0000038D
(1739018530.286) RX 1DC#B40F8FFD08C0CB1B
(1739018530.287) RX 1DA#C0641800000101AD
(1739018530.289) RX 1C2#57
(1739018530.289) RX 1D4#F707000087460070
(1739018530.290) RX 1F2#10640000001E020E
(1739018530.290) RX 380#02041021000000B0
(1739018530.290) RX 11A#0140005500000115
(1739018530.290) RX 5BF#0000000028000009
(1739018530.296) RX 1DB#FFE0BF6A00000087
(1739018530.296) RX 1DC#B40F8FFD0CCCD8E4
(1739018530.297) RX 1DA#C0641800000102A7
(1739018530.299) RX 1C2#58
(1739018530.300) RX 1D4#F7070000C74600B7
(1739018530.300) RX 11A#01400055400002D8
(1739018530.300) RX 1F2#10640000001E030F
(1739018530.300) RX 284#0000000000009D23
(1739018530.306) RX 1DB#FFE0BF6A00000102
(1739018530.306) RX 1DC#B40F8FFD0130C9CE
(1739018530.307) RX 1DA#C064180000010322
(1739018530.309) RX 1C2#59
(1739018530.310) RX 1D4#F70700000746007B
(1739018530.310) RX 11A#014000AA800003CE
(1739018530.310) RX 1F2#10640000001E000C
(1739018530.311) RX 5B9#67FF67FF28
(1739018530.316) RX 1DB#FFE0BF6A00000208
(1739018530.316) RX 1DC#B40F8FFD0520C64C
(1739018530.317) RX 1DA#C064180000010028
(1739018530.317) RX 55A#00302F005F315B68
(1739018530.319) RX 1C2#5A
(1739018530.319) RX 11A#014000AAC0000003
(1739018530.320) RX 1D4#F7070000474600BC
(1739018530.320) RX 1F2#10640000001E010D
(1739018530.321) RX 284#0000000000009E24
(1739018530.326) RX 1DB#FFE0BF6A0000038D
(1739018530.326) RX 1DC#B40F8FFD08C0CB1B
(1739018530.327) RX 55B#C7805500E500133C
(1739018530.327) RX 5BC#59032C26B305209A
(1739018530.327) RX 1DA#C0641800000101AD
(1739018530.329) RX 1C2#5B
(1739018530.330) RX 11A#0140005500000115
(1739018530.330) RX 1D4#F707000087460070
(1739018530.331) RX 1F2#10640000001E020E
(1739018530.331) RX 50C#00000001B231
(1739018530.336) RX 1DB#FFE0BF6A00000087
(1739018530.336) RX 1DC#B40F8FFD0CCCD8E4
(1739018530.337) RX 1DA#C0641800000102A7
(1739018530.339) RX 1C2#5C
(1739018530.340) RX 11A#01400055400002D8
(1739018530.341) RX 1D4#F7070000C74600B7
(1739018530.341) RX 1F2#10640000001E030F
(1739018530.341) RX 284#0000000000009F25
(1739018530.346) RX 1DB#FFE0BF6A00000102
(1739018530.346) RX 1DC#B40F8FFD0130C9CE
(1739018530.347) RX 1DA#C064180000010322
(1739018530.349) RX 1C2#5D
(1739018530.350) RX 11A#014000AA800003CE
(1739018530.351) RX 1D4#F70700000746007B
(1739018530.351) RX 1F2#10640000001E000C
(1739018530.351) RX 50A#8532A00D8020
(1739018530.356) RX 1DB#FFE0BF6A00000208
(1739018530.356) RX 1DC#B40F8FFD0520C64C
(1739018530.357) RX 1DA#C064180000010028
(1739018530.359) RX 1C2#5E
(1739018530.359) RX 11A#014000AAC0000003
(1739018530.361) RX 1D4#F7070000474600BC
(1739018530.361) RX 1F2#10640000001E010D
(1739018530.362) RX 284#000000000000A026
(1739018530.362) RX 54A#9E0070020000002C
(1739018530.363) RX 54B#0108800904000000
(1739018530.364) RX 54C#7666000000005800
(1739018530.365) RX 54F#2A01000007C08A60
(1739018530.366) RX 1DB#FFE0BF6A0000038D
(1739018530.367) RX 1DC#B40F8FFD08C0CB1B
(1739018530.367) RX 1DA#C0641800000101AD
(1739018530.369) RX 1C2#5F
(1739018530.370) RX 11A#0140005500000115
(1739018530.371) RX 1D4#F707000087460070
(1739018530.372) RX 1F2#10640000001E020E
(1739018530.372) RX 50B#000006C00060
(1739018530.376) RX 1DB#FFE0BF6A00000087
(1739018530.376) RX 1DC#B40F8FFD0CCCD8E4
(1739018530.377) RX 1DA#C0641800000102A7
(1739018530.379) RX 1C2#50
(1739018530.380) RX 11A#01400055400002D8
(1739018530.382) RX 1D4#F7070000C74600B7
(1739018530.382) RX 1F2#10640000001E030F
(1739018530.382) RX 284#000000000000A127
(1739018530.386) RX 1DB#FFE0BF6A00000102
(1739018530.386) RX 1DC#B40F8FFD0130C9CE
(1739018530.387) RX 1DA#C064180000010322
(1739018530.389) RX 1C2#51
(1739018530.390) RX 380#020410210000008D
(1739018530.390) RX 11A#014000AA800003CE
(1739018530.390) RX 5BF#000000002800001A
(1739018530.392) RX 1D4#F70700000746007B
(1739018530.392) RX 1F2#10640000001E000C
(1739018530.396) RX 1DB#FFE0BF6A00000208
(1739018530.396) RX 1DC#B40F8FFD0520C64C
(1739018530.397) RX 1DA#C064180000010028
(1739018530.399) RX 1C2#52
(1739018530.399) RX 11A#014000AAC0000003
(1739018530.402) RX 1D4#F7070000474600BC
(1739018530.402) RX 1F2#10640000001E010D
(1739018530.403) RX 284#000000000000A228
(1739018530.406) RX 1DB#FFE0BF6A0000038D
(1739018530.407) RX 1DC#B40F8FFD08C0CB1B
(1739018530.407) RX 1DA#C0641800000101AD
(1739018530.409) RX 1C2#53
(1739018530.410) RX 11A#0140005500000115
(1739018530.412) RX 1D4#F707000087460070
(1739018530.413) RX 1F2#10640000001E020E
(1739018530.416) RX 1DB#FFE0BF6A00000087
(1739018530.417) RX 1DC#B40F8FFD0CCCD8E4
(1739018530.417) RX 1DA#C0641800000102A7
(1739018530.417) RX 55A#00302F005F315B68
(1739018530.419) RX 1C2#54
(1739018530.420) RX 11A#01400055400002D8
(1739018530.423) RX 1D4#F7070000C74600B7
(1739018530.423) RX 1F2#10640000001E030F
(1739018530.423) RX 284#000000000000A329
(1739018530.426) RX 1DB#FFE0BF6A00000102
(1739018530.427) RX 1DC#B40F8FFD0130C9CE
(1739018530.427) RX 1DA#C064180000010322
(1739018530.427) RX 55B#C780AA00E5001071
(1739018530.428) RX 5BC#59032C26B305209A
(1739018530.429) RX 1C2#55
(1739018530.430) RX 11A#014000AA800003CE
(1739018530.433) RX 1D4#F70700000746007B
(1739018530.433) RX 1F2#10640000001E000C
(1739018530.433) RX 50C#00000002B20D
(1739018530.436) RX 1DB#FFE0BF6A00000208
(1739018530.437) RX 1DC#B40F8FFD0520C64C
(1739018530.437) RX 1DA#C064180000010028
(1739018530.439) RX 1C2#56
(1739018530.439) RX 11A#014000AAC0000003
(1739018530.443) RX 1D4#F7070000474600BC
 0F
(1739018530.423) RX 284#000000000000A329
(1739018530.426) RX 1DB#FFE0BF6A00000102
(1739018530.427) RX 1DC#B40F8FFD0130C9CE
(1739018530.427) RX 1DA#C064180000010322
(1739018530.427) RX 55B#C780AA00E5001071
(1739018530.428) RX 5BC#59032C26B305209A
(1739018530.429) RX 1C2#55
(1739018530.430) RX 11A#014000AA80000(1739018530.443) RX 1F2#10640000001E010D
(1739018530.444) RX 284#000000000000A42A
(1739018530.446) RX 1DB#FFE0BF6A0000038D
(1739018530.447) RX 1DC#B40F8FFD08C0CB1B
(1739018530.447) RX 1DA#C0641800000101AD
(1739018530.449) RX 1C2#57
(1739018530.450) RX 11A#0140005500000115
(1739018530.453) RX 1D4#F707000087460070
(1739018530.454) RX 1F2#10640000001E020E
(1739018530.454) RX 50A#8552A00D8020
(1739018530.456) RX 1DB#FFE0BF6A00000087
(1739018530.457) RX 1DC#B40F8FFD0CCCD8E4
(1739018530.457) RX 1DA#C0641800000102A7
(1739018530.459) RX 1C2#58
(1739018530.460) RX 11A#01400055400002D8
(1739018530.463) RX 54A#100070020000002C
(1739018530.464) RX 1D4#F7070000C74600B7
(1739018530.464) RX 1F2#10640000001E030F
(1739018530.464) RX 284#000000000000A52B
(1739018530.464) RX 54B#0108800904000000
(1739018530.465) RX 54C#7666000000005800
(1739018530.466) RX 1DB#FFE0BF6A00000102
(1739018530.467) RX 54F#2A01000007008A60
(1739018530.467) RX 1DC#B40F8FFD0130C9CE
(1739018530.467) RX 1DA#C064180000010322
(1739018530.469) RX 1C2#59
(1739018530.470) RX 11A#014000AA800003CE
(1739018530.474) RX 1D4#F70700000746007B
(1739018530.474) RX 1F2#10640000001E000C
(1739018530.474) RX 284#000000000000A62C
(1739018530.475) RX 50B#000006C00060
(1739018530.476) RX 1DB#FFE0BF6A00000208
(1739018530.477) RX 1DC#B40F8FFD0520C64C
(1739018530.477) RX 1DA#C064180000010028
(1739018530.479) RX 11A#014000AAC0000003
(1739018530.479) RX 1C2#5A
(1739018530.484) RX 1D4#F7070000474600BC
(1739018530.484) RX 1F2#10640000001E010D
(1739018530.486) RX 1DB#FFE0BF6A0000038D
(1739018530.487) RX 1DC#B40F8FFD08C0CB1B
(1739018530.487) RX 1DA#C0641800000101AD
(1739018530.489) RX 1C2#5B
(1739018530.490) RX 11A#0140005500000115
(1739018530.490) RX 380#020410210000009E
(1739018530.490) RX 5BF#000000002800002B
(1739018530.494) RX 1D4#F707000087460070
(1739018530.495) RX 1F2#10640000001E020E
(1739018530.495) RX 284#000000000000A72D
(1739018530.496) RX 1DB#FFE0BF6A00000087
(1739018530.497) RX 1DC#B40F8FFD0CCCD8E4
(1739018530.497) RX 1DA#C0641800000102A7
(1739018530.499) RX 1C2#5C
(1739018530.500) RX 11A#01400055400002D8
(1739018530.504) RX 1D4#F7070000C74600B7
(1739018530.505) RX 1F2#10640000001E030F
(1739018530.506) RX 1DB#FFE0BF6A00000102
(1739018530.507) RX 1DC#B40F8FFD0130C9CE
(1739018530.507) RX 1DA#C064180000010322
(1739018530.509) RX 1C2#5D
(1739018530.510) RX 11A#014000AA800003CE
(1739018530.515) RX 1D4#F70700000746007B
(1739018530.515) RX 1F2#10640000001E000C
(1739018530.515) RX 284#000000000000A82E
(1739018530.517) RX 1DB#FFE0BF6A00000208
(1739018530.517) RX 1DC#B40F8FFD0520C64C
(1739018530.517) RX 1DA#C064180000010028
(1739018530.517) RX 55A#00302F005F315B68
(1739018530.519) RX 11A#014000AAC0000003
(1739018530.519) RX 1C2#5E
(1739018530.525) RX 1D4#F7070000474600BC
(1739018530.525) RX 1F2#10640000001E010D
(1739018530.527) RX 1DB#FFE0BF6A0000038D
(1739018530.527) RX 1DA#C0641800000101AD
(1739018530.527) RX 1DC#B40F8FFD08C0CB1B
(1739018530.528) RX 55B#C780AA00E50011F4
(1739018530.528) RX 5BC#59032C26B305209A
(1739018530.529) RX 1C2#5F
(1739018530.530) RX 11A#0140005500000115
(1739018530.535) RX 1D4#F707000087460070
(1739018530.536) RX 1F2#10640000001E020E
(1739018530.536) RX 284#000000000000A92F
(1739018530.536) RX 50C#000000035DF4
(1739018530.537) RX 1DB#FFE0BF6A00000087
(1739018530.537) RX 1DC#B40F8FFD0CCCD8E4
(1739018530.537) RX 1DA#C0641800000102A7
(1739018530.539) RX 1C2#50
(1739018530.540) RX 11A#01400055400002D8
(1739018530.545) RX 1D4#F7070000C74600B7
(1739018530.546) RX 1F2#10640000001E030F
(1739018530.547) RX 1DB#FFE0BF6A00000102
(1739018530.547) RX 1DC#B40F8FFD0130C9CE
(1739018530.547) RX 1DA#C064180000010322
(1739018530.549) RX 1C2#51
(1739018530.550) RX 11A#014000AA800003CE
(1739018530.556) RX 1D4#F70700000746007B
(1739018530.556) RX 1F2#10640000001E000C
(1739018530.556) RX 284#000000000000AA30
(1739018530.556) RX 50A#8572A00D8020
(1739018530.557) RX 1DB#FFE0BF6A00000208
(1739018530.557) RX 1DC#B40F8FFD0520C64C
(1739018530.557) RX 1DA#C064180000010028
(1739018530.559) RX 11A#014000AAC0000003
(1739018530.559) RX 1C2#52
(1739018530.563) RX 54A#9E0070020000002C
(1739018530.564) RX 54B#0108800904000000
(1739018530.565) RX 54C#7666000000005800
(1739018530.566) RX 54F#2A01000007408A60
(1739018530.566) RX 1D4#F7070000474600BC
(1739018530.566) RX 1F2#10640000001E010D
(1739018530.567) RX 1DB#FFE0BF6A0000038D
(1739018530.567) RX 1DA#C0641800000101AD
(1739018530.567) RX 1DC#B40F8FFD08C0CB1B
(1739018530.569) RX 1C2#53
(1739018530.570) RX 11A#0140005500000115
(1739018530.576) RX 1D4#F707000087460070
(1739018530.576) RX 1F2#10640000001E020E
(1739018530.577) RX 1DB#FFE0BF6A00000087
(1739018530.577) RX 284#000000000000AB31
(1739018530.577) RX 1DA#C0641800000102A7
(1739018530.577) RX 1DC#B40F8FFD0CCCD8E4
(1739018530.578) RX 50B#000006C00060
(1739018530.579) RX 1C2#54
(1739018530.580) RX 11A#01400055400002D8
(1739018530.586) RX 1D4#F7070000C74600B7
(1739018530.587) RX 1F2#10640000001E030F
(1739018530.587) RX 1DB#FFE0BF6A00000102
(1739018530.587) RX 1DA#C064180000010322
(1739018530.587) RX 1DC#B40F8FFD0130C9CE
(1739018530.589) RX 1C2#55
(1739018530.590) RX 11A#014000AA800003CE
(1739018530.590) RX 380#02041021000000AF
(1739018530.590) RX 5BF#000000002800003C
(1739018530.597) RX 1DB#FFE0BF6A00000208
(1739018530.597) RX 1D4#F70700000746007B
(1739018530.597) RX 1DA#C064180000010028
(1739018530.597) RX 1DC#B40F8FFD0520C64C
(1739018530.598) RX 1F2#10640000001E000C
(1739018530.598) RX 284#000000000000AC32
(1739018530.599) RX 11A#014000AAC0000003
(1739018530.599) RX 1C2#56
(1739018530.607) RX 1DB#FFE0BF6A0000038D
(1739018530.607) RX 1D4#F7070000474600BC
(1739018530.607) RX 1DA#C0641800000101AD
(1739018530.607) RX 1DC#B40F8FFD08C0CB1B
(1739018530.608) RX 1F2#10640000001E010D
(1739018530.609) RX 1C2#57
(1739018530.610) RX 11A#0140005500000115
(1739018530.617) RX 1DB#FFE0BF6A00000087
(1739018530.617) RX 1DA#C0641800000102A7
(1739018530.617) RX 1D4#F707000087460070
(1739018530.617) RX 1DC#B40F8FFD0CCCD8E4
(1739018530.618) RX 1F2#10640000001E020E
(1739018530.618) RX 284#000000000000AD33
(1739018530.618) RX 55A#00302F005F315B68
(1739018530.619) RX 1C2#58
(1739018530.620) RX 11A#01400055400002D8
(1739018530.627) RX 1DB#FFE0BF6A00000102
(1739018530.627) RX 1DA#C064180000010322
(1739018530.627) RX 1DC#B40F8FFD0130C9CE
(1739018530.628) RX 1D4#F7070000C74600B7
(1739018530.628) RX 1F2#10640000001E030F
(1739018530.628) RX 55B#C7805500E50012B9
(1739018530.628) RX 5BC#59032C26B305209A
(1739018530.629) RX 1C2#59
(1739018530.630) RX 11A#014000AA800003CE
(1739018530.637) RX 1DB#FFE0BF6A00000208
(1739018530.637) RX 1DA#C064180000010028
(1739018530.637) RX 1DC#B40F8FFD0520C64C
(1739018530.638) RX 1D4#F70700000746007B
(1739018530.638) RX 1F2#10640000001E000C
(1739018530.638) RX 284#000000000000AE34
(1739018530.638) RX 50C#000000005DC8
(1739018530.639) RX 11A#014000AAC0000003
(1739018530.640) RX 1C2#5A
(1739018530.647) RX 1DB#FFE0BF6A0000038D
(1739018530.647) RX 1DA#C0641800000101AD
(1739018530.647) RX 1DC#B40F8FFD08C0CB1B
(1739018530.648) RX 1D4#F7070000474600BC
(1739018530.648) RX 1F2#10640000001E010D
(1739018530.650) RX 1C2#5B
(1739018530.650) RX 11A#0140005500000115
(1739018530.657) RX 1DB#FFE0BF6A00000087
(1739018530.657) RX 1DA#C0641800000102A7
(1739018530.657) RX 1DC#B40F8FFD0CCCD8E4
(1739018530.658) RX 1D4#F707000087460070
(1739018530.658) RX 1F2#10640000001E020E
(1739018530.659) RX 284#000000000000AF35
(1739018530.659) RX 50A#8512A00D8020
(1739018530.660) RX 11A#01400055400002D8
(1739018530.660) RX 1C2#5C
(1739018530.663) RX 54A#100070020000002C
(1739018530.664) RX 54B#0108800904000000
(1739018530.665) RX 54C#7666000000005800
(1739018530.666) RX 54F#2A01000007808A60
(1739018530.667) RX 1DB#FFE0BF6A00000102
(1739018530.667) RX 1DA#C064180000010322
(1739018530.667) RX 1DC#B40F8FFD0130C9CE
(1739018530.668) RX 1D4#F7070000C74600B7
(1739018530.669) RX 1F2#10640000001E030F
(1739018530.670) RX 1C2#5D
(1739018530.670) RX 11A#014000AA800003CE
(1739018530.677) RX 1DB#FFE0BF6A00000208
(1739018530.677) RX 1DA#C064180000010028
(1739018530.677) RX 1DC#B40F8FFD0520C64C
(1739018530.679) RX 1D4#F70700000746007B
(1739018530.679) RX 1F2#10640000001E000C
(1739018530.679) RX 11A#014000AAC0000003
(1739018530.679) RX 284#000000000000B036
(1739018530.680) RX 50B#000006C00060
(1739018530.680) RX 1C2#5E
(1739018530.687) RX 1DA#C0641800000101AD
(1739018530.687) RX 1DB#FFE0BF6A0000038D
(1739018530.688) RX 1DC#B40F8FFD08C0CB1B
(1739018530.689) RX 1D4#F7070000474600BC
(1739018530.689) RX 1F2#10640000001E010D
(1739018530.690) RX 1C2#5F
(1739018530.690) RX 11A#0140005500000115
(1739018530.690) RX 380#02041021000000B0
(1739018530.691) RX 5BF#0000000028000009
(1739018530.697) RX 1DB#FFE0BF6A00000087
(1739018530.697) RX 1DA#C0641800000102A7
(1739018530.697) RX 1DC#B40F8FFD0CCCD8E4
(1739018530.699) RX 1D4#F707000087460070
(1739018530.699) RX 1F2#10640000001E020E
(1739018530.700) RX 284#000000000000B137
(1739018530.700) RX 11A#01400055400002D8
(1739018530.700) RX 1C2#50
(1739018530.707) RX 1DA#C064180000010322
(1739018530.707) RX 1DB#FFE0BF6A00000102
(1739018530.708) RX 1DC#B40F8FFD0130C9CE
(1739018530.709) RX 1D4#F7070000C74600B7
(1739018530.710) RX 1F2#10640000001E030F
(1739018530.710) RX 1C2#51
(1739018530.710) RX 11A#014000AA800003CE
(1739018530.717) RX 1DA#C064180000010028
(1739018530.717) RX 1DB#FFE0BF6A00000208
(1739018530.717) RX 55A#00302F005F315B68
(1739018530.718) RX 1DC#B40F8FFD0520C64C
(1739018530.719) RX 11A#014000AAC0000003
(1739018530.720) RX 1D4#F70700000746007B
(1739018530.720) RX 1F2#10640000001E000C
(1739018530.720) RX 1C2#52
(1739018530.720) RX 284#000000000000B238
(1739018530.727) RX 1DA#C0641800000101AD
(1739018530.727) RX 1DB#FFE0BF6A0000038D
(1739018530.728) RX 1DC#B40F8FFD08C0CB1B
(1739018530.728) RX 55B#C7805500E500133C
(1739018530.728) RX 5BC#59032026B205407A
(1739018530.730) RX 1C2#53
(1739018530.730) RX 11A#0140005500000115
(1739018530.730) RX 1D4#F7070000474600BC
(1739018530.730) RX 1F2#10640000001E010D
(1739018530.737) RX 1DA#C0641800000102A7
(1739018530.737) RX 1DB#FFE0BF6A00000087
(1739018530.738) RX 1DC#B40F8FFD0CCCD8E4
(1739018530.738) RX 5C0#404C4C0004E41100
(1739018530.738) RX 5EB#E00FFFFFFFFFFFFF
(1739018530.740) RX 1C2#54
(1739018530.740) RX 11A#01400055400002D8
(1739018530.740) RX 1D4#F707000087460070
(1739018530.740) RX 1F2#10640000001E020E
(1739018530.741) RX 284#000000000000B339
(1739018530.741) RX 50C#00000001B231
(1739018530.747) RX 1DA#C064180000010322
(1739018530.747) RX 1DB#FFE0BF6A00000102
(1739018530.748) RX 1DC#B40F8FFD0130C9CE
(1739018530.750) RX 1C2#55
(1739018530.750) RX 11A#014000AA800003CE
(1739018530.750) RX 1D4#F7070000C74600B7
(1739018530.751) RX 1F2#10640000001E030F
(1739018530.751) RX 5A9#9A44201304300000
(1739018530.757) RX 1DA#C064180000010028
(1739018530.757) RX 1DB#FFE0BF6A00000208
(1739018530.758) RX 1DC#B40F8FFD0520C64C
(1739018530.759) RX 11A#014000AAC0000003
(1739018530.760) RX 1C2#56
(1739018530.761) RX 1D4#F70700000746007B
(1739018530.761) RX 1F2#10640000001E000C
(1739018530.761) RX 284#000000000000B43A
(1739018530.761) RX 50A#8532A00D8020
(1739018530.763) RX 54A#9E0070020000002C
(1739018530.764) RX 54B#0108800904000000
(1739018530.765) RX 54C#7666000000005800
(1739018530.766) RX 54F#2A01000007C08A60
(1739018530.767) RX 1DA#C0641800000101AD
(1739018530.767) RX 1DB#FFE0BF6A0000038D
(1739018530.768) RX 1DC#B40F8FFD08C0CB1B
(1739018530.770) RX 11A#0140005500000115
(1739018530.770) RX 1C2#57
(1739018530.771) RX 1D4#F7070000474600BC
(1739018530.771) RX 1F2#10640000001E010D
(1739018530.777) RX 1DA#C0641800000102A7
(1739018530.777) RX 1DB#FFE0BF6A00000087
(1739018530.778) RX 1DC#B40F8FFD0CCCD8E4
(1739018530.780) RX 11A#01400055400002D8
(1739018530.780) RX 1C2#58
(1739018530.781) RX 1D4#F707000087460070
(1739018530.781) RX 1F2#10640000001E020E
(1739018530.782) RX 284#000000000000B53B
(1739018530.782) RX 50B#000006C00060
(1739018530.787) RX 1DA#C064180000010322
(1739018530.787) RX 1DB#FFE0BF6A00000102
(1739018530.788) RX 1DC#B40F8FFD0130C9CE
(1739018530.790) RX 11A#014000AA800003CE
(1739018530.790) RX 1C2#59
(1739018530.790) RX 380#020410210000008D
(1739018530.791) RX 5BF#000000002800001A
(1739018530.791) RX 1D4#F7070000C74600B7
(1739018530.792) RX 1F2#10640000001E030F
(1739018530.797) RX 1DA#C064180000010028
(1739018530.797) RX 1DB#FFE0BF6A00000208
(1739018530.798) RX 1DC#B40F8FFD0520C64C
(1739018530.799) RX 11A#014000AAC0000003
(1739018530.800) RX 1C2#5A
(1739018530.802) RX 1D4#F70700000746007B
(1739018530.802) RX 1F2#10640000001E000C
(1739018530.802) RX 284#000000000000B63C
(1739018530.807) RX 1DA#C0641800000101AD
(1739018530.807) RX 1DB#FFE0BF6A0000038D
(1739018530.808) RX 1DC#B40F8FFD08C0CB1B
(1739018530.810) RX 11A#0140005500000115
(1739018530.810) RX 1C2#5B
(1739018530.812) RX 1D4#F7070000474600BC
(1739018530.812) RX 1F2#10640000001E010D
(1739018530.817) RX 1DA#C0641800000102A7
(1739018530.817) RX 55A#00302F005F315B68
(1739018530.817) RX 1DB#FFE0BF6A00000087
(1739018530.818) RX 1DC#B40F8FFD0CCCD8E4
(1739018530.820) RX 11A#01400055400002D8
(1739018530.820) RX 1C2#5C
(1739018530.822) RX 1D4#F707000087460070
(1739018530.822) RX 1F2#10640000001E020E
(1739018530.823) RX 284#000000000000B73D
(1739018530.823) RX 5B9#67FF67FF28
(1739018530.827) RX 1DA#C064180000010322
(1739018530.827) RX 1DB#FFE0BF6A00000102
(1739018530.828) RX 1DC#B40F8FFD0130C9CE
(1739018530.828) RX 55B#C780AA00E5001071
(1739018530.829) RX 5BC#59032026B205407A
(1739018530.830) RX 11A#014000AA800003CE
(1739018530.830) RX 1C2#5D
(1739018530.832) RX 1D4#F7070000C74600B7
(1739018530.833) RX 1F2#10640000001E030F
(1739018530.837) RX 1DA#C064180000010028
(1739018530.837) RX 1DB#FFE0BF6A00000208
(1739018530.838) RX 1DC#B40F8FFD0520C64C
(1739018530.839) RX 11A#014000AAC0000003
(1739018530.840) RX 1C2#5E
(1739018530.843) RX 1D4#F70700000746007B
(1739018530.843) RX 1F2#10640000001E000C
(1739018530.843) RX 284#000000000000B83E
(1739018530.843) RX 50C#000000025D63
(1739018530.847) RX 1DA#C0641800000101AD
(1739018530.847) RX 1DB#FFE0BF6A0000038D
(1739018530.848) RX 1DC#B40F8FFD08C0CB1B
(1739018530.850) RX 11A#0140005500000115
(1739018530.850) RX 1C2#5F
(1739018530.853) RX 1D4#F7070000474600BC
(1739018530.853) RX 1F2#10640000001E010D
(1739018530.857) RX 1DA#C0641800000102A7
(1739018530.857) RX 1DB#FFE0BF6A00000087
(1739018530.858) RX 1DC#B40F8FFD0CCCD8E4
(1739018530.860) RX 11A#01400055400002D8
(1739018530.860) RX 1C2#50
(1739018530.863) RX 54A#100070020000002C
(1739018530.863) RX 1D4#F707000087460070
(1739018530.863) RX 1F2#10640000001E020E
(1739018530.864) RX 284#000000000000B93F
(1739018530.864) RX 50A#8552A00D8020
(1739018530.864) RX 54B#0108800904000000
(1739018530.865) RX 54C#7666000000005800
(1739018530.866) RX 54F#2A01000007008A60
(1739018530.867) RX 1DA#C064180000010322
(1739018530.867) RX 1DB#FFE0BF6A00000102
(1739018530.868) RX 1DC#B40F8FFD0130C9CE
(1739018530.870) RX 11A#014000AA800003CE
(1739018530.870) RX 1C2#51
(1739018530.873) RX 1D4#F7070000C74600B7
(1739018530.874) RX 1F2#10640000001E030F
(1739018530.877) RX 1DA#C064180000010028
(1739018530.877) RX 1DB#FFE0BF6A00000208
(1739018530.878) RX 1DC#B40F8FFD0520C64C
(1739018530.879) RX 11A#014000AAC0000003
(1739018530.880) RX 1C2#52
(1739018530.884) RX 1D4#F70700000746007B
(1739018530.884) RX 1F2#10640000001E000C
(1739018530.884) RX 284#000000000000BA40
(1739018530.884) RX 50B#000006C00060
(1739018530.887) RX 1DA#C0641800000101AD
(1739018530.888) RX 1DB#FFE0BF6A0000038D
(1739018530.888) RX 1DC#B40F8FFD08C0CB1B
(1739018530.890) RX 11A#0140005500000115
(1739018530.890) RX 1C2#53
(1739018530.890) RX 380#020410210000009E
(1739018530.891) RX 5BF#000000002800002B
(1739018530.894) RX 1D4#F7070000474600BC
(1739018530.894) RX 1F2#10640000001E010D
 15
(1739018530.877) RX 1DA#C064180000010028
(1739018530.877) RX 1DB#FFE0BF6A00000208
(1739018530.878) RX 1DC#B40F8FFD0520C64C
(1739018530.879) RX 11A#014000AAC0000003
(1739018530.880) RX 1C2#52
(1739018530.884) RX 1D4#F70700000746007B
(1739018530.884) RX 1F2#10640000001E000C
(1739018530.884) RX 284#000000000000BA40
(1739018530.904) RX 1F2#10640000001E020E
(1739018530.907) RX 1DA#C064180000010322
(1739018530.908) RX 1DB#FFE0BF6A00000102
(1739018530.908) RX 1DC#B40F8FFD0130C9CE
(1739018530.910) RX 11A#014000AA800003CE
(1739018530.910) RX 1C2#55
(1739018530.914) RX 1D4#F7070000C74600B7
(1739018530.914) RX 1F2#10640000001E030F
(1739018530.915) RX 284#000000000000BC42
(1739018530.917) RX 1DA#C064180000010028
(1739018530.917) RX 55A#00302F005F315B68
(1739018530.918) RX 1DB#FFE0BF6A00000208
(1739018530.918) RX 1DC#B40F8FFD0520C64C
(1739018530.919) RX 11A#014000AAC0000003
(1739018530.920) RX 1C2#56
(1739018530.924) RX 1D4#F70700000746007B
(1739018530.925) RX 1F2#10640000001E000C
(1739018530.927) RX 1DA#C0641800000101AD
(1739018530.928) RX 1DB#FFE0BF6A0000038D
(1739018530.928) RX 1DC#B40F8FFD08C0CB1B
(1739018530.928) RX 55B#C7805500E50011B3
(1739018530.929) RX 5BC#59032026B205407A
(1739018530.930) RX 11A#0140005500000115
(1739018530.930) RX 1C2#57
(1739018530.935) RX 1D4#F7070000474600BC
(1739018530.935) RX 1F2#10640000001E010D
(1739018530.935) RX 284#000000000000BD43
(1739018530.937) RX 1DA#C0641800000102A7
(1739018530.938) RX 1DB#FFE0BF6A00000087
(1739018530.938) RX 1DC#B40F8FFD0CCCD8E4
(1739018530.940) RX 11A#01400055400002D8
(1739018530.940) RX 1C2#58
(1739018530.945) RX 1D4#F707000087460070
(1739018530.945) RX 1F2#10640000001E020E
(1739018530.945) RX 50C#00000003B29A
(1739018530.947) RX 1DA#C064180000010322
(1739018530.948) RX 1DB#FFE0BF6A00000102
(1739018530.948) RX 1DC#B40F8FFD0130C9CE
(1739018530.950) RX 11A#014000AA800003CE
(1739018530.950) RX 1C2#59
(1739018530.955) RX 1D4#F7070000C74600B7
(1739018530.955) RX 1F2#10640000001E030F
(1739018530.956) RX 284#000000000000BE44
(1739018530.957) RX 1DA#C064180000010028
(1739018530.958) RX 1DB#FFE0BF6A00000208
(1739018530.958) RX 1DC#B40F8FFD0520C64C
(1739018530.959) RX 11A#014000AAC0000003
(1739018530.960) RX 1C2#5A
(1739018530.963) RX 54A#9E0070020000002C
(1739018530.964) RX 54B#0108800904000000
(1739018530.965) RX 54C#7666000000005800
(1739018530.965) RX 1D4#F70700000746007B
(1739018530.966) RX 1F2#10640000001E000C
(1739018530.966) RX 50A#8572A00D8020
(1739018530.966) RX 54F#2A01000007408A60
(1739018530.967) RX 1DA#C0641800000101AD
(1739018530.968) RX 1DB#FFE0BF6A0000038D
(1739018530.968) RX 1DC#B40F8FFD08C0CB1B
(1739018530.970) RX 11A#0140005500000115
(1739018530.970) RX 1C2#5B
(1739018530.976) RX 1D4#F7070000474600BC
(1739018530.976) RX 1F2#10640000001E010D
(1739018530.976) RX 284#000000000000BF45
(1739018530.977) RX 1DA#C0641800000102A7
(1739018530.978) RX 1DB#FFE0BF6A00000087
(1739018530.978) RX 1DC#B40F8FFD0CCCD8E4
(1739018530.980) RX 11A#01400055400002D8
(1739018530.980) RX 1C2#5C
(1739018530.986) RX 1D4#F707000087460070
(1739018530.986) RX 1F2#10640000001E020E
(1739018530.986) RX 50B#000006C00060
(1739018530.987) RX 1DA#C064180000010322
(1739018530.988) RX 1DB#FFE0BF6A00000102
(1739018530.988) RX 1DC#B40F8FFD0130C9CE
(1739018530.990) RX 11A#014000AA800003CE
(1739018530.990) RX 380#02041021000000AF
(1739018530.991) RX 1C2#5D
(1739018530.991) RX 5BF#000000002800003C
(1739018530.996) RX 1D4#F7070000C74600B7
(1739018530.996) RX 1F2#10640000001E030F
(1739018530.997) RX 284#000000000000C046
(1739018530.997) RX 1DA#C064180000010028
(1739018530.998) RX 1DB#FFE0BF6A00000208
(1739018530.998) RX 1DC#B40F8FFD0520C64C
(1739018530.999) RX 11A#014000AAC0000003
(1739018531.000) RX 1C2#5E
(1739018531.006) RX 1D4#F70700000746007B
(1739018531.007) RX 1F2#10640000001E000C
(1739018531.007) RX 1DA#C0641800000101AD
(1739018531.008) RX 1DB#FFE0BF6A0000038D
(1739018531.008) RX 1DC#B40F8FFD08C0CB1B
(1739018531.010) RX 11A#0140005500000115
(1739018531.010) RX 1C2#5F
(1739018531.017) RX 1D4#F7070000474600BC
(1739018531.017) RX 1F2#10640000001E010D
(1739018531.017) RX 1DA#C0641800000102A7
(1739018531.017) RX 284#000000000000C147
(1739018531.018) RX 55A#00302F005F315B68
(1739018531.018) RX 1DB#FFE0BF6A00000087
(1739018531.018) RX 1DC#B40F8FFD0CCCD8E4
(1739018531.020) RX 11A#01400055400002D8
(1739018531.020) RX 1C2#50
(1739018531.027) RX 1D4#F707000087460070
(1739018531.027) RX 1DA#C064180000010322
(1739018531.027) RX 1F2#10640000001E020E
(1739018531.028) RX 1DB#FFE0BF6A00000102
(1739018531.028) RX 1DC#B40F8FFD0130C9CE
(1739018531.029) RX 55B#C780AA00E50012FE
(1739018531.029) RX 5BC#59032026B205407A
(1739018531.030) RX 11A#014000AA800003CE
(1739018531.030) RX 1C2#51
(1739018531.037) RX 1DA#C064180000010028
(1739018531.037) RX 1D4#F7070000C74600B7
(1739018531.037) RX 1F2#10640000001E030F
(1739018531.038) RX 284#000000000000C248
(1739018531.038) RX 1DB#FFE0BF6A00000208
(1739018531.038) RX 1DC#B40F8FFD0520C64C
(1739018531.039) RX 11A#014000AAC0000003
(1739018531.040) RX 1C2#52
(1739018531.047) RX 1DA#C0641800000101AD
(1739018531.047) RX 1D4#F70700000746007B
(1739018531.048) RX 1F2#10640000001E000C
(1739018531.048) RX 50C#000000005DC8
(1739018531.048) RX 1DB#FFE0BF6A0000038D
(1739018531.048) RX 1DC#B40F8FFD08C0CB1B
(1739018531.050) RX 11A#0140005500000115
(1739018531.050) RX 1C2#53
(1739018531.057) RX 1DA#C0641800000102A7
(1739018531.058) RX 1D4#F7070000474600BC
(1739018531.058) RX 1F2#10640000001E010D
(1739018531.058) RX 1DB#FFE0BF6A00000087
(1739018531.058) RX 284#000000000000C349
(1739018531.059) RX 1DC#B40F8FFD0CCCD8E4
(1739018531.060) RX 11A#01400055400002D8
(1739018531.060) RX 1C2#54
(1739018531.063) RX 54A#100070020000002C
(1739018531.064) RX 54B#0108800904000000
(1739018531.065) RX 54C#7666000000005800
(1739018531.066) RX 54F#2A01000007808A60
(1739018531.067) RX 1DA#C064180000010322
(1739018531.068) RX 1D4#F707000087460070
(1739018531.068) RX 1DB#FFE0BF6A00000102
(1739018531.068) RX 1F2#10640000001E020E
(1739018531.069) RX 1DC#B40F8FFD0130C9CE
(1739018531.069) RX 50A#8512A00D8020
(1739018531.070) RX 11A#014000AA800003CE
(1739018531.071) RX 1C2#55
(1739018531.077) RX 1DA#C064180000010028
(1739018531.078) RX 1DB#FFE0BF6A00000208
(1739018531.078) RX 1D4#F7070000C74600B7
(1739018531.078) RX 1DC#B40F8FFD0520C64C
(1739018531.079) RX 1F2#10640000001E030F
(1739018531.079) RX 284#000000000000C44A
(1739018531.079) RX 11A#014000AAC0000003
(1739018531.081) RX 1C2#56
(1739018531.087) RX 1DA#C0641800000101AD
(1739018531.088) RX 1DB#FFE0BF6A0000038D
(1739018531.088) RX 1D4#F70700000746007B
(1739018531.089) RX 1DC#B40F8FFD08C0CB1B
(1739018531.089) RX 1F2#10640000001E000C
(1739018531.089) RX 50B#000006C00060
(1739018531.090) RX 11A#0140005500000115
(1739018531.091) RX 380#02041021000000B0
(1739018531.091) RX 1C2#57
(1739018531.091) RX 5BF#0000000028000009
(1739018531.097) RX 1DA#C0641800000102A7
(1739018531.098) RX 1DB#FFE0BF6A00000087
(1739018531.098) RX 1DC#B40F8FFD0CCCD8E4
(1739018531.099) RX 1D4#F7070000474600BC
(1739018531.099) RX 1F2#10640000001E010D
(1739018531.099) RX 284#000000000000C54B
(1739018531.100) RX 11A#01400055400002D8
(1739018531.101) RX 1C2#58
(1739018531.107) RX 1DA#C064180000010322
(1739018531.108) RX 1DB#FFE0BF6A00000102
(1739018531.108) RX 1DC#B40F8FFD0130C9CE
(1739018531.109) RX 1D4#F707000087460070
(1739018531.109) RX 1F2#10640000001E020E
(1739018531.110) RX 11A#014000AA800003CE
(1739018531.111) RX 1C2#59
(1739018531.117) RX 1DA#C064180000010028
(1739018531.117) RX 55A#00302F005F315B68
(1739018531.118) RX 1DB#FFE0BF6A00000208
(1739018531.118) RX 1DC#B40F8FFD0520C64C
(1739018531.119) RX 1D4#F7070000C74600B7
(1739018531.119) RX 11A#014000AAC0000003
(1739018531.120) RX 1F2#10640000001E030F
(1739018531.120) RX 284#000000000000C64C
(1739018531.121) RX 1C2#5A
(1739018531.127) RX 1DA#C0641800000101AD
(1739018531.128) RX 1DB#FFE0BF6A0000038D
(1739018531.129) RX 1DC#B40F8FFD08C0CB1B
(1739018531.129) RX 55B#C7805500E500133C
(1739018531.129) RX 5BC#59032026B205407A
(1739018531.130) RX 1D4#F70700000746007B
(1739018531.130) RX 1F2#10640000001E000C
(1739018531.130) RX 11A#0140005500000115
(1739018531.131) RX 1C2#5B
(1739018531.137) RX 1DA#C0641800000102A7
(1739018531.138) RX 1DB#FFE0BF6A00000087
(1739018531.138) RX 1DC#B40F8FFD0CCCD8E4
(1739018531.140) RX 11A#01400055400002D8
(1739018531.140) RX 1D4#F7070000474600BC
(1739018531.140) RX 1F2#10640000001E010D
(1739018531.140) RX 284#000000000000C74D
(1739018531.141) RX 1C2#5C
(1739018531.147) RX 1DA#C064180000010322
(1739018531.148) RX 1DB#FFE0BF6A00000102
(1739018531.149) RX 1DC#B40F8FFD0130C9CE
(1739018531.150) RX 1D4#F707000087460070
(1739018531.150) RX 11A#014000AA800003CE
(1739018531.150) RX 1F2#10640000001E020E
(1739018531.151) RX 50C#00000001B231
(1739018531.151) RX 1C2#5D
(1739018531.157) RX 1DA#C064180000010028
(1739018531.158) RX 1DB#FFE0BF6A00000208
(1739018531.158) RX 1DC#B40F8FFD0520C64C
(1739018531.159) RX 11A#014000AAC0000003
(1739018531.160) RX 1D4#F7070000C74600B7
(1739018531.160) RX 1F2#10640000001E030F
(1739018531.161) RX 284#000000000000C84E
(1739018531.161) RX 1C2#5E
(1739018531.163) RX 54A#9E0070020000002C
(1739018531.164) RX 54B#0108800904000000
(1739018531.165) RX 54C#7666000000005800
(1739018531.166) RX 54F#2A01000007C08A60
(1739018531.167) RX 1DA#C0641800000101AD
(1739018531.168) RX 1DB#FFE0BF6A0000038D
(1739018531.169) RX 1DC#B40F8FFD08C0CB1B
(1739018531.170) RX 11A#0140005500000115
(1739018531.170) RX 1D4#F70700000746007B
(1739018531.171) RX 1F2#10640000001E000C
(1739018531.171) RX 50A#8532A00D8020
(1739018531.171) RX 1C2#5F
(1739018531.177) RX 1DA#C0641800000102A7
(1739018531.178) RX 1DB#FFE0BF6A00000087
(1739018531.179) RX 1DC#B40F8FFD0CCCD8E4
(1739018531.180) RX 11A#01400055400002D8
(1739018531.181) RX 1D4#F7070000474600BC
(1739018531.181) RX 1F2#10640000001E010D
(1739018531.181) RX 1C2#50
(1739018531.181) RX 284#000000000000C94F
(1739018531.187) RX 1DA#C064180000010322
(1739018531.188) RX 1DB#FFE0BF6A00000102
(1739018531.189) RX 1DC#B40F8FFD0130C9CE
(1739018531.190) RX 11A#014000AA800003CE
(1739018531.191) RX 380#020410210000008D
(1739018531.191) RX 1C2#51
(1739018531.191) RX 1D4#F707000087460070
(1739018531.191) RX 1F2#10640000001E020E
(1739018531.191) RX 50B#000006C00060
(1739018531.192) RX 5BF#000000002800001A
(1739018531.197) RX 1DA#C064180000010028
(1739018531.198) RX 1DB#FFE0BF6A00000208
(1739018531.199) RX 1DC#B40F8FFD0520C64C
(1739018531.199) RX 11A#014000AAC0000003
(1739018531.201) RX 1C2#52
(1739018531.201) RX 1D4#F7070000C74600B7
(1739018531.201) RX 1F2#10640000001E030F
(1739018531.202) RX 284#000000000000CA50
(1739018531.207) RX 1DA#C0641800000101AD
(1739018531.208) RX 1DB#FFE0BF6A0000038D
(1739018531.209) RX 1DC#B40F8FFD08C0CB1B
(1739018531.210) RX 11A#0140005500000115
(1739018531.211) RX 1C2#53
(1739018531.211) RX 1D4#F70700000746007B
(1739018531.211) RX 1F2#10640000001E000C
(1739018531.217) RX 1DA#C0641800000102A7
(1739018531.217) RX 55A#00302F005F315B68
(1739018531.218) RX 1DB#FFE0BF6A00000087
(1739018531.219) RX 1DC#B40F8FFD0CCCD8E4
(1739018531.220) RX 11A#01400055400002D8
(1739018531.221) RX 1C2#54
(1739018531.222) RX 1D4#F7070000474600BC
(1739018531.222) RX 1F2#10640000001E010D
(1739018531.222) RX 284#000000000000CB51
(1739018531.227) RX 1DA#C064180000010322
(1739018531.229) RX 1DB#FFE0BF6A00000102
(1739018531.229) RX 1DC#B40F8FFD0130C9CE
(1739018531.229) RX 55B#C780AA00E5001071
(1739018531.230) RX 5BC#59032C26B30620A8
(1739018531.230) RX 11A#014000AA800003CE
(1739018531.231) RX 1C2#55
(1739018531.232) RX 1D4#F707000087460070
(1739018531.232) RX 1F2#10640000001E020E
(1739018531.237) RX 1DA#C064180000010028
(1739018531.239) RX 1DB#FFE0BF6A00000208
(1739018531.239) RX 1DC#B40F8FFD0520C64C
(1739018531.239) RX 11A#014000AAC0000003
(1739018531.239) RX 5C0#C04C4C0004541100
(1739018531.240) RX 5EB#E00FFFFFFFFFFFFF
(1739018531.241) RX 1C2#56
(1739018531.242) RX 1D4#F7070000C74600B7
(1739018531.242) RX 1F2#10640000001E030F
(1739018531.243) RX 284#000000000000CC52
(1739018531.247) RX 1DA#C0641800000101AD
(1739018531.249) RX 1DB#FFE0BF6A0000038D
(1739018531.249) RX 1DC#B40F8FFD08C0CB1B
(1739018531.250) RX 11A#0140005500000115
(1739018531.251) RX 1C2#57
(1739018531.252) RX 1D4#F70700000746007B
(1739018531.253) RX 1F2#10640000001E000C
(1739018531.253) RX 50C#000000025D63
(1739018531.257) RX 1DA#C0641800000102A7
(1739018531.258) RX 1DB#FFE0BF6A00000087
(1739018531.259) RX 1DC#B40F8FFD0CCCD8E4
(1739018531.260) RX 11A#01400055400002D8
(1739018531.261) RX 1C2#58
(1739018531.263) RX 1D4#F7070000474600BC
(1739018531.263) RX 1F2#10640000001E010D
(1739018531.263) RX 284#000000000000CD53
(1739018531.263) RX 5A9#9A44201304300000
(1739018531.264) RX 54A#100070020000002C
(1739018531.265) RX 54B#0108800904000000
(1739018531.266) RX 54C#7666000000005800
(1739018531.267) RX 1DA#C064180000010322
(1739018531.267) RX 54F#2A01000007008A60
(1739018531.269) RX 1DB#FFE0BF6A00000102
(1739018531.269) RX 1DC#B40F8FFD0130C9CE
(1739018531.270) RX 11A#014000AA800003CE
(1739018531.271) RX 1C2#59
(1739018531.273) RX 1D4#F707000087460070
(1739018531.273) RX 1F2#10640000001E020E
(1739018531.273) RX 50A#8552A00D8020
(1739018531.277) RX 1DA#C064180000010028
(1739018531.279) RX 1DB#FFE0BF6A00000208
(1739018531.279) RX 1DC#B40F8FFD0520C64C
(1739018531.279) RX 11A#014000AAC0000003
(1739018531.281) RX 1C2#5A
(1739018531.283) RX 1D4#F7070000C74600B7
(1739018531.283) RX 1F2#10640000001E030F
(1739018531.283) RX 284#000000000000CE54
(1739018531.287) RX 1DA#C0641800000101AD
(1739018531.289) RX 1DB#FFE0BF6A0000038D
(1739018531.289) RX 1DC#B40F8FFD08C0CB1B
(1739018531.290) RX 11A#0140005500000115
(1739018531.291) RX 380#020410210000009E
(1739018531.291) RX 5BF#000000002800002B
(1739018531.291) RX 1C2#5B
(1739018531.293) RX 1D4#F70700000746007B
(1739018531.294) RX 1F2#10640000001E000C
(1739018531.294) RX 50B#000006C00060
(1739018531.297) RX 1DA#C0641800000102A7
(1739018531.299) RX 1DB#FFE0BF6A00000087
(1739018531.299) RX 1DC#B40F8FFD0CCCD8E4
(1739018531.300) RX 11A#01400055400002D8
(1739018531.301) RX 1C2#5C
(1739018531.303) RX 1D4#F7070000474600BC
(1739018531.304) RX 1F2#10640000001E010D
(1739018531.304) RX 284#000000000000CF55
(1739018531.307) RX 1DA#C064180000010322
(1739018531.309) RX 1DB#FFE0BF6A00000102
(1739018531.309) RX 1DC#B40F8FFD0130C9CE
(1739018531.310) RX 11A#014000AA800003CE
(1739018531.311) RX 1C2#5D
(1739018531.314) RX 1D4#F707000087460070
(1739018531.314) RX 1F2#10640000001E020E
(1739018531.314) RX 284#000000000000D056
(1739018531.317) RX 1DA#C064180000010028
(1739018531.317) RX 55A#00302F005F315B68
(1739018531.319) RX 1DB#FFE0BF6A00000208
(1739018531.319) RX 1DC#B40F8FFD0520C64C
(1739018531.319) RX 11A#014000AAC0000003
(1739018531.321) RX 1C2#5E
(1739018531.324) RX 1D4#F7070000C74600B7
(1739018531.324) RX 1F2#10640000001E030F
(1739018531.327) RX 1DA#C0641800000101AD
(1739018531.329) RX 1DB#FFE0BF6A0000038D
(1739018531.329) RX 1DC#B40F8FFD08C0CB1B
(1739018531.329) RX 55B#C7805500E50011B3
(1739018531.330) RX 5BC#59032C26B30620A8
(1739018531.330) RX 11A#0140005500000115
(1739018531.331) RX 1C2#5F
(1739018531.334) RX 1D4#F70700000746007B
(1739018531.335) RX 1F2#10640000001E000C
(1739018531.335) RX 284#000000000000D157
(1739018531.335) RX 5B9#67FF67FF28
(1739018531.337) RX 1DA#C0641800000102A7
(1739018531.339) RX 1DB#FFE0BF6A00000087
(1739018531.339) RX 1DC#B40F8FFD0CCCD8E4
(1739018531.340) RX 11A#01400055400002D8
(1739018531.341) RX 1C2#50
(1739018531.344) RX 1D4#F7070000474600BC
(1739018531.345) RX 1F2#10640000001E010D
(1739018531.347) RX 1DA#C064180000010322
(1739018531.349) RX 1DB#FFE0BF6A00000102
(1739018531.349) RX 1DC#B40F8FFD0130C9CE
(1739018531.350) RX 11A#014000AA800003CE
(1739018531.351) RX 1C2#51
(1739018531.355) RX 1D4#F707000087460070
(1739018531.355) RX 1F2#10640000001E020E
(1739018531.355) RX 284#000000000000D258
(1739018531.355) RX 50C#00000003B29A
(1739018531.357) RX 1DA#C064180000010028
(1739018531.359) RX 1DB#FFE0BF6A00000208
(1739018531.359) RX 1DC#B40F8FFD0520C64C
(1739018531.359) RX 11A#014000AAC0000003
(1739018531.361) RX 1C2#52
(1739018531.363) RX 54A#9E0070020000002C
(1739018531.364) RX 54B#0108800904000000
(1739018531.365) RX 1D4#F7070000C74600B7
(1739018531.365) RX 1F2#10640000001E030F
(1739018531.365) RX 54C#7666000000005800
(1739018531.366) RX 54F#2A01000007408A60
(1739018531.367) RX 1DA#C0641800000101AD
(1739018531.369) RX 1DB#FFE0BF6A0000038D
(1739018531.369) RX 1DC#B40F8FFD08C0CB1B
(1739018531.370) RX 11A#0140005500000115
(1739018531.371) RX 1C2#53
(1739018531.375) RX 1D4#F70700000746007B
(1739018531.375) RX 1F2#10640000001E000C
(1739018531.376) RX 284#000000000000D359
(1739018531.376) RX 50A#8572A00D8020
(1739018531.377) RX 1DA#C0641800000102A7
(1739018531.379) RX 1DB#FFE0BF6A00000087
(1739018531.379) RX 1DC#B40F8FFD0CCCD8E4
(1739018531.380) RX 11A#01400055400002D8
(1739018531.381) RX 1C2#54
(1739018531.385) RX 1D4#F7070000474600BC
(1739018531.386) RX 1F2#10640000001E010D
(1739018531.387) RX 1DA#C064180000010322
(1739018531.389) RX 1DB#FFE0BF6A00000102
(1739018531.389) RX 1DC#B40F8FFD0130C9CE
(1739018531.390) RX 11A#014000AA800003CE
(1739018531.391) RX 380#02041021000000AF
(1739018531.391) RX 5BF#000000002800003C
(1739018531.391) RX 1C2#55
(1739018531.396) RX 1D4#F707000087460070
(1739018531.396) RX 1F2#10640000001E020E
(1739018531.396) RX 284#000000000000D45A
(1739018531.396) RX 50B#000006C00060
(1739018531.397) RX 1DA#C064180000010028
(1739018531.399) RX 1DB#FFE0BF6A00000208
(1739018531.399) RX 11A#014000AAC0000003
(1739018531.399) RX 1DC#B40F8FFD0520C64C
(1739018531.401) RX 1C2#56
(1739018531.406) RX 1D4#F7070000C74600B7
(1739018531.406) RX 1F2#10640000001E030F
(1739018531.407) RX 1DA#C0641800000101AD
(1739018531.409) RX 1DB#FFE0BF6A0000038D
(1739018531.409) RX 1DC#B40F8FFD08C0CB1B
(1739018531.410) RX 11A#0140005500000115
(1739018531.411) RX 1C2#57
(1739018531.416) RX 1D4#F70700000746007B
(1739018531.416) RX 1F2#10640000001E000C
(1739018531.417) RX 284#000000000000D55B
(1739018531.417) RX 1DA#C0641800000102A7
(1739018531.417) RX 55A#00302F005F315B68
(1739018531.419) RX 1DB#FFE0BF6A00000087
(1739018531.419) RX 1DC#B40F8FFD0CCCD8E4
(1739018531.420) RX 11A#01400055400002D8
(1739018531.421) RX 1C2#58
(1739018531.426) RX 1D4#F7070000474600BC
(1739018531.427) RX 1F2#10640000001E010D
(1739018531.427) RX 1DA#C064180000010322
(1739018531.429) RX 1DB#FFE0BF6A00000102
(1739018531.429) RX 1DC#B40F8FFD0130C9CE
(1739018531.430) RX 55B#C780AA00E50012FE
(1739018531.430) RX 11A#014000AA800003CE
(1739018531.430) RX 5BC#59032C26B30620A8
(1739018531.431) RX 1C2#59
(1739018531.437) RX 1D4#F707000087460070
(1739018531.437) RX 1DA#C064180000010028
(1739018531.437) RX 1F2#10640000001E020E
(1739018531.437) RX 284#000000000000D65C
(1739018531.439) RX 1DB#FFE0BF6A00000208
(1739018531.439) RX 11A#014000AAC0000003
(1739018531.439) RX 1DC#B40F8FFD0520C64C
(1739018531.441) RX 1C2#5A
(1739018531.447) RX 1DA#C0641800000101AD
(1739018531.447) RX 1D4#F7070000C74600B7
(1739018531.447) RX 1F2#10640000001E030F
(1739018531.449) RX 1DB#FFE0BF6A0000038D
(1739018531.449) RX 1DC#B40F8FFD08C0CB1B
(1739018531.450) RX 11A#0140005500000115
(1739018531.451) RX 1C2#5B
(1739018531.457) RX 1DA#C0641800000102A7
(1739018531.457) RX 1D4#F70700000746007B
(1739018531.457) RX 1F2#10640000001E000C
(1739018531.458) RX 284#000000000000D75D
(1739018531.458) RX 50C#000000005DC8
(1739018531.459) RX 1DB#FFE0BF6A00000087
(1739018531.460) RX 11A#01400055400002D8
(1739018531.460) RX 1DC#B40F8FFD0CCCD8E4
(1739018531.461) RX 1C2#5C
(1739018531.463) RX 54A#100070020000002C
(1739018531.464) RX 54B#0108800904000000
(1739018531.465) RX 54C#7666000000005800
(1739018531.466) RX 54F#2A01000007808A60
(1739018531.467) RX 1DA#C064180000010322
(1739018531.467) RX 1D4#F7070000474600BC
(1739018531.468) RX 1F2#10640000001E010D
(1739018531.469) RX 1DB#FFE0BF6A00000102
(1739018531.469) RX 1DC#B40F8FFD0130C9CE
(1739018531.470) RX 11A#014000AA800003CE
(1739018531.471) RX 1C2#5D
(1739018531.477) RX 1DA#C064180000010028
(1739018531.478) RX 1D4#F707000087460070
(1739018531.478) RX 1F2#10640000001E020E
(1739018531.478) RX 284#000000000000D85E
(1739018531.478) RX 50A#8512A00D8020
(1739018531.479) RX 11A#014000AAC0000003
(1739018531.479) RX 1DB#FFE0BF6A00000208
(1739018531.480) RX 1DC#B40F8FFD0520C64C
(1739018531.481) RX 1C2#5E
(1739018531.487) RX 1DA#C0641800000101AD
(1739018531.488) RX 1D4#F7070000C74600B7
(1739018531.488) RX 1F2#10640000001E030F
(1739018531.489) RX 1DB#FFE0BF6A0000038D
(1739018531.490) RX 1DC#B40F8FFD08C0CB1B
(1739018531.490) RX 11A#0140005500000115
(1739018531.491) RX 380#02041021000000B0
(1739018531.491) RX 5BF#0000000028000009
(1739018531.492) RX 1C2#5F
(1739018531.497) RX 1DA#C0641800000102A7
(1739018531.498) RX 1D4#F70700000746007B
(1739018531.498) RX 1F2#10640000001E000C
(1739018531.499) RX 284#000000000000D95F
(1739018531.499) RX 50B#000006C00060
(1739018531.499) RX 1DB#FFE0BF6A00000087
(1739018531.500) RX 11A#01400055400002D8
(1739018531.500) RX 1DC#B40F8FFD0CCCD8E4
(1739018531.502) RX 1C2#50
(1739018531.507) RX 1DA#C064180000010322
(1739018531.508) RX 1D4#F7070000474600BC
(1739018531.509) RX 1F2#10640000001E010D
(1739018531.509) RX 1DB#FFE0BF6A00000102
(1739018531.510) RX 1DC#B40F8FFD0130C9CE
(1739018531.510) RX 11A#014000AA800003CE
(1739018531.512) RX 1C2#51
(1739018531.517) RX 1DA#C064180000010028
(1739018531.517) RX 55A#00302F005F315B68
(1739018531.519) RX 1D4#F707000087460070
(1739018531.519) RX 1F2#10640000001E020E
(1739018531.519) RX 284#000000000000DA60
(1739018531.519) RX 11A#014000AAC0000003
(1739018531.520) RX 1DB#FFE0BF6A00000208
(1739018531.520) RX 1DC#B40F8FFD0520C64C
(1739018531.522) RX 1C2#52
(1739018531.527) RX 1DA#C0641800000101AD
(1739018531.529) RX 1D4#F7070000C74600B7
(1739018531.529) RX 1F2#10640000001E030F
(1739018531.529) RX 1DB#FFE0BF6A0000038D
(1739018531.530) RX 11A#0140005500000115
(1739018531.530) RX 1DC#B40F8FFD08C0CB1B
(1739018531.530) RX 55B#C7805500E500133C
(1739018531.531) RX 5BC#59032C26B30620A8
(1739018531.532) RX 1C2#53
(1739018531.537) RX 1DA#C0641800000102A7
(1739018531.539) RX 1D4#F70700000746007B
(1739018531.539) RX 1DB#FFE0BF6A00000087
(1739018531.540) RX 1F2#10640000001E000C
(1739018531.540) RX 11A#01400055400002D8
(1739018531.540) RX 1DC#B40F8FFD0CCCD8E4
(1739018531.540) RX 284#000000000000DB61
(1739018531.542) RX 1C2#54
(1739018531.547) RX 1DA#C064180000010322
(1739018531.549) RX 1D4#F7070000474600BC
(1739018531.550) RX 1DB#FFE0BF6A00000102
(1739018531.550) RX 1F2#10640000001E010D
(1739018531.550) RX 11A#014000AA800003CE
(1739018531.550) RX 1DC#B40F8FFD0130C9CE
(1739018531.552) RX 1C2#55
(1739018531.557) RX 1DA#C064180000010028
(1739018531.559) RX 11A#014000AAC0000003
(1739018531.559) RX 1DB#FFE0BF6A00000208
(1739018531.560) RX 1D4#F707000087460070
(1739018531.560) RX 1DC#B40F8FFD0520C64C
(1739018531.560) RX 1F2#10640000001E020E
(1739018531.560) RX 284#000000000000DC62
(1739018531.561) RX 50C#00000001B231
(1739018531.562) RX 1C2#56
(1739018531.563) RX 54A#9E0070020000002C
(1739018531.564) RX 54B#0108800904000000
(1739018531.565) RX 54C#7666000000005800
(1739018531.566) RX 54F#2A01000007C08A60
(1739018531.567) RX 1DA#C0641800000101AD
(1739018531.569) RX 1DB#FFE0BF6A0000038D
(1739018531.570) RX 1DC#B40F8FFD08C0CB1B
(1739018531.570) RX 11A#0140005500000115
(1739018531.570) RX 1D4#F7070000C74600B7
(1739018531.570) RX 1F2#10640000001E030F
(1739018531.572) RX 1C2#57
(1739018531.577) RX 1DA#C0641800000102A7
(1739018531.579) RX 1DB#FFE0BF6A00000087
(1739018531.580) RX 11A#01400055400002D8
(1739018531.580) RX 1DC#B40F8FFD0CCCD8E4
(1739018531.580) RX 1D4#F70700000746007B
(1739018531.580) RX 1F2#10640000001E000C
(1739018531.581) RX 284#000000000000DD63
(1739018531.581) RX 50A#8532A00D8020
(1739018531.582) RX 1C2#58
(1739018531.587) RX 1DA#C064180000010322
(1739018531.589) RX 1DB#FFE0BF6A00000102
(1739018531.590) RX 1DC#B40F8FFD0130C9CE
(1739018531.590) RX 11A#014000AA800003CE
(1739018531.590) RX 1D4#F7070000474600BC
(1739018531.591) RX 1F2#10640000001E010D
(1739018531.591) RX 380#020410210000008D
(1739018531.591) RX 5BF#000000002800001A
(1739018531.592) RX 1C2#59
(1739018531.597) RX 1DA#C064180000010028
(1739018531.599) RX 11A#014000AAC0000003
(1739018531.599) RX 1DB#FFE0BF6A00000208
(1739018531.600) RX 1DC#B40F8FFD0520C64C
(1739018531.601) RX 1D4#F707000087460070
(1739018531.601) RX 1F2#10640000001E020E
(1739018531.601) RX 284#000000000000DE64
(1739018531.601) RX 50B#000006C00060
(1739018531.602) RX 1C2#5A
(1739018531.607) RX 1DA#C0641800000101AD
(1739018531.609) RX 1DB#FFE0BF6A0000038D
(1739018531.610) RX 11A#0140005500000115
(1739018531.610) RX 1DC#B40F8FFD08C0CB1B
(1739018531.611) RX 1D4#F7070000C74600B7
(1739018531.611) RX 1F2#10640000001E030F
(1739018531.612) RX 1C2#5B
(1739018531.617) RX 1DA#C0641800000102A7
(1739018531.617) RX 55A#00302F005F315B68
 1739018531.597) RX 1DA#C064180000010028
(1739018531.599) RX 11A#014000AAC0000003
(1739018531.599) RX 1DB#FFE0BF6A00000208
(1739018531.600) RX 1DC#B40F8FFD0520C64C
(1739018531.601) RX 1D4#F707000087460070
(1739018531.601) RX 1F2#10640000001E020E
(1739018531.601) RX 284#000000000000DE64
(1739018531.601) RX 50B#000006C00060
(1739018531.602) RX 1C2#5A
(173(1739018531.619) RX 1DB#FFE0BF6A00000087
(1739018531.620) RX 11A#01400055400002D8
(1739018531.620) RX 1DC#B40F8FFD0CCCD8E4
(1739018531.621) RX 1D4#F70700000746007B
(1739018531.621) RX 1F2#10640000001E000C
(1739018531.622) RX 284#000000000000DF65
(1739018531.622) RX 1C2#5C
(1739018531.627) RX 1DA#C064180000010322
(1739018531.630) RX 1DB#FFE0BF6A00000102
(1739018531.630) RX 11A#014000AA800003CE
(1739018531.630) RX 1DC#B40F8FFD0130C9CE
(1739018531.631) RX 55B#C780AA00E5001071
(1739018531.631) RX 5BC#59032C26B30620A8
(1739018531.631) RX 1D4#F7070000474600BC
(1739018531.632) RX 1F2#10640000001E010D
(1739018531.632) RX 1C2#5D
(1739018531.637) RX 1DA#C064180000010028
(1739018531.639) RX 11A#014000AAC0000003
(1739018531.640) RX 1DB#FFE0BF6A00000208
(1739018531.640) RX 1DC#B40F8FFD0520C64C
(1739018531.642) RX 1D4#F707000087460070
(1739018531.642) RX 1F2#10640000001E020E
(1739018531.642) RX 1C2#5E
(1739018531.642) RX 284#000000000000E066
(1739018531.647) RX 1DA#C0641800000101AD
(1739018531.650) RX 1DB#FFE0BF6A0000038D
(1739018531.650) RX 11A#0140005500000115
(1739018531.650) RX 1DC#B40F8FFD08C0CB1B
(1739018531.652) RX 1D4#F7070000C74600B7
(1739018531.652) RX 1C2#5F
(1739018531.652) RX 1F2#10640000001E030F
(1739018531.657) RX 1DA#C0641800000102A7
(1739018531.660) RX 1DB#FFE0BF6A00000087
(1739018531.660) RX 11A#01400055400002D8
(1739018531.660) RX 1DC#B40F8FFD0CCCD8E4
(1739018531.662) RX 1C2#50
(1739018531.662) RX 1D4#F70700000746007B
(1739018531.662) RX 1F2#10640000001E000C
(1739018531.663) RX 284#000000000000E167
(1739018531.663) RX 50C#000000025D63
(1739018531.663) RX 54A#100070020000002C
(1739018531.664) RX 54B#0108800904000000
(1739018531.665) RX 54C#7666000000005800
(1739018531.666) RX 54F#2A01000007008A60
(1739018531.667) RX 1DA#C064180000010322
(1739018531.670) RX 1DB#FFE0BF6A00000102
(1739018531.670) RX 11A#014000AA800003CE
(1739018531.670) RX 1DC#B40F8FFD0130C9CE
(1739018531.672) RX 1C2#51
(1739018531.672) RX 1D4#F7070000474600BC
(1739018531.673) RX 1F2#10640000001E010D
(1739018531.677) RX 1DA#C064180000010028
(1739018531.679) RX 11A#014000AAC0000003
(1739018531.680) RX 1DB#FFE0BF6A00000208
(1739018531.680) RX 1DC#B40F8FFD0520C64C
(1739018531.682) RX 1C2#52
(1739018531.683) RX 1D4#F707000087460070
(1739018531.683) RX 1F2#10640000001E020E
(1739018531.683) RX 284#000000000000E268
(1739018531.683) RX 50A#8552A00D8020
(1739018531.687) RX 1DA#C0641800000101AD
(1739018531.690) RX 1DB#FFE0BF6A0000038D
(1739018531.690) RX 11A#0140005500000115
(1739018531.690) RX 1DC#B40F8FFD08C0CB1B
(1739018531.691) RX 380#020410210000009E
(1739018531.691) RX 5BF#000000002800002B
(1739018531.692) RX 1C2#53
(1739018531.693) RX 1D4#F7070000C74600B7
(1739018531.693) RX 1F2#10640000001E030F
(1739018531.697) RX 1DA#C0641800000102A7
(1739018531.700) RX 11A#01400055400002D8
(1739018531.700) RX 1DB#FFE0BF6A00000087
(1739018531.700) RX 1DC#B40F8FFD0CCCD8E4
(1739018531.702) RX 1C2#54
(1739018531.703) RX 1D4#F70700000746007B
(1739018531.703) RX 1F2#10640000001E000C
(1739018531.704) RX 284#000000000000E369
(1739018531.704) RX 50B#000006C00060
(1739018531.707) RX 1DA#C064180000010322
(1739018531.710) RX 1DB#FFE0BF6A00000102
(1739018531.710) RX 11A#014000AA800003CE
(1739018531.710) RX 1DC#B40F8FFD0130C9CE
(1739018531.712) RX 1C2#55
(1739018531.713) RX 1D4#F7070000474600BC
(1739018531.713) RX 1F2#10640000001E010D
(1739018531.717) RX 1DA#C064180000010028
(1739018531.717) RX 55A#00302F005F315B68
(1739018531.700) RX 11A#01400055400002D8
(1739018531.700) RX 1DB#FFE0BF6A00000087
(1739018531.700) RX 1DC#B40F8FFD0CCCD8E4
(1739018531.702) RX 1C2#54
(1739018531.703) RX 1D4#F70700000746007B
(1739018531.703) RX 1F2#10640000001E000C
(1739018531.704) RX 284#000000000000E369
(1739018531.704) RX 50B#000006C00060
(173(1739018531.719) RX 11A#014000AAC0000003
(1739018531.720) RX 1DB#FFE0BF6A00000208
(1739018531.720) RX 1DC#B40F8FFD0520C64C
(1739018531.722) RX 1C2#56
(1739018531.723) RX 1D4#F707000087460070
(1739018531.724) RX 1F2#10640000001E020E
(1739018531.724) RX 284#000000000000E46A
(1739018531.727) RX 1DA#C0641800000101AD
(1739018531.730) RX 11A#0140005500000115
(1739018531.730) RX 1DB#FFE0BF6A0000038D
(1739018531.730) RX 1DC#B40F8FFD08C0CB1B
(1739018531.731) RX 55B#C7805500E50011B3
(1739018531.731) RX 5BC#59032026B2064087
(1739018531.732) RX 1C2#57
(1739018531.734) RX 1D4#F7070000C74600B7
(1739018531.734) RX 1F2#10640000001E030F
(1739018531.734) RX 284#000000000000E56B
(1739018531.737) RX 1DA#C0641800000102A7
(1739018531.740) RX 11A#01400055400002D8
(1739018531.740) RX 1DB#FFE0BF6A00000087
(1739018531.740) RX 1DC#B40F8FFD0CCCD8E4
(1739018531.741) RX 5C0#804C4C0004A01100
(1739018531.741) RX 5EB#E00FFFFFFFFFFFFF
(1739018531.742) RX 1C2#58
(1739018531.744) RX 1D4#F70700000746007B
(1739018531.744) RX 1F2#10640000001E000C
(1739018531.747) RX 1DA#C064180000010322
(1739018531.750) RX 11A#014000AA800003CE
(1739018531.750) RX 1DB#FFE0BF6A00000102
(1739018531.750) RX 1DC#B40F8FFD0130C9CE
(1739018531.752) RX 1C2#59
(1739018531.754) RX 1D4#F7070000474600BC
(1739018531.754) RX 1F2#10640000001E010D
(1739018531.755) RX 284#000000000000E66C
(1739018531.757) RX 1DA#C064180000010028
(1739018531.759) RX 11A#014000AAC0000003
(1739018531.760) RX 1DB#FFE0BF6A00000208
(1739018531.760) RX 1DC#B40F8FFD0520C64C
(1739018531.762) RX 1C2#5A
(1739018531.763) RX 54A#9E0070020000002C
(1739018531.764) RX 54B#0108800904000000
(1739018531.765) RX 1D4#F707000087460070
(1739018531.765) RX 1F2#10640000001E020E
(1739018531.765) RX 50C#00000003B29A
(1739018531.765) RX 54C#7666000000005800
(1739018531.766) RX 54F#2A01000007408A60
(1739018531.767) RX 1DA#C0641800000101AD
(1739018531.770) RX 11A#0140005500000115
(1739018531.770) RX 1DB#FFE0BF6A0000038D
(1739018531.770) RX 1DC#B40F8FFD08C0CB1B
(1739018531.772) RX 1C2#5B
(1739018531.775) RX 1D4#F7070000C74600B7
(1739018531.775) RX 1F2#10640000001E030F
(1739018531.775) RX 284#000000000000E76D
(1739018531.775) RX 5A9#9A44201304300000
(1739018531.777) RX 1DA#C0641800000102A7
(1739018531.780) RX 11A#01400055400002D8
(1739018531.780) RX 1DB#FFE0BF6A00000087
(1739018531.780) RX 1DC#B40F8FFD0CCCD8E4
(1739018531.782) RX 1C2#5C
(1739018531.785) RX 1D4#F70700000746007B
(1739018531.785) RX 1F2#10640000001E000C
(1739018531.785) RX 50A#8572A00D8020
(1739018531.787) RX 1DA#C064180000010322
(1739018531.790) RX 11A#014000AA800003CE
(1739018531.790) RX 1DB#FFE0BF6A00000102
(1739018531.790) RX 1DC#B40F8FFD0130C9CE
(1739018531.791) RX 380#02041021000000AF
(1739018531.792) RX 5BF#000000002800003C
(1739018531.792) RX 1C2#5D
(1739018531.795) RX 1D4#F7070000474600BC
(1739018531.795) RX 1F2#10640000001E010D
(1739018531.796) RX 284#000000000000E86E
(1739018531.797) RX 1DA#C064180000010028
(1739018531.799) RX 11A#014000AAC0000003
(1739018531.800) RX 1DB#FFE0BF6A00000208
(1739018531.800) RX 1DC#B40F8FFD0520C64C
(1739018531.802) RX 1C2#5E
(1739018531.805) RX 1D4#F707000087460070
(1739018531.806) RX 1F2#10640000001E020E
(1739018531.806) RX 50B#000006C00060
(1739018531.807) RX 1DA#C0641800000101AD
(1739018531.810) RX 11A#0140005500000115
(1739018531.810) RX 1DB#FFE0BF6A0000038D
(1739018531.810) RX 1DC#B40F8FFD08C0CB1B
(1739018531.812) RX 1C2#5F
(1739018531.816) RX 1D4#F7070000C74600B7
(1739018531.816) RX 1F2#10640000001E030F
(1739018531.816) RX 284#000000000000E96F
(1739018531.817) RX 1DA#C0641800000102A7
(1739018531.817) RX 55A#00302F005F315B68
(1739018531.820) RX 11A#01400055400002D8
(1739018531.820) RX 1DB#FFE0BF6A00000087
(1739018531.820) RX 1DC#B40F8FFD0CCCD8E4
(1739018531.822) RX 1C2#50
(1739018531.826) RX 1D4#F70700000746007B
(1739018531.826) RX 1F2#10640000001E000C
(1739018531.827) RX 1DA#C064180000010322
(1739018531.830) RX 11A#014000AA800003CE
(1739018531.830) RX 1DB#FFE0BF6A00000102
(1739018531.831) RX 1DC#B40F8FFD0130C9CE
(1739018531.831) RX 55B#C780AA00E50012FE
(1739018531.831) RX 5BC#59032026B2064087
(1739018531.832) RX 1C2#51
(1739018531.836) RX 1D4#F7070000474600BC
(1739018531.836) RX 1F2#10640000001E010D
(1739018531.837) RX 284#000000000000EA70
(1739018531.837) RX 1DA#C064180000010028
(1739018531.839) RX 11A#014000AAC0000003
(1739018531.840) RX 1DB#FFE0BF6A00000208
(1739018531.840) RX 1DC#B40F8FFD0520C64C
(1739018531.842) RX 1C2#52
(1739018531.846) RX 1D4#F707000087460070
(1739018531.847) RX 1F2#10640000001E020E
(1739018531.847) RX 1DA#C0641800000101AD
(1739018531.847) RX 5B9#67FF67FF28
(1739018531.850) RX 11A#0140005500000115
(1739018531.850) RX 1DB#FFE0BF6A0000038D
(1739018531.851) RX 1DC#B40F8FFD08C0CB1B
(1739018531.852) RX 1C2#53
(1739018531.857) RX 1D4#F7070000C74600B7
(1739018531.857) RX 1DA#C0641800000102A7
(1739018531.857) RX 1F2#10640000001E030F
(1739018531.857) RX 284#000000000000EB71
(1739018531.860) RX 11A#01400055400002D8
(1739018531.860) RX 1DB#FFE0BF6A00000087
(1739018531.861) RX 1DC#B40F8FFD0CCCD8E4
(1739018531.862) RX 1C2#54
(1739018531.864) RX 54A#100070020000002C
(1739018531.865) RX 54B#0108800904000000
(1739018531.866) RX 54C#7666000000005800
(1739018531.867) RX 54F#2A01000007808A60
(1739018531.867) RX 1DA#C064180000010322
(1739018531.867) RX 1D4#F707000007460(1739018531.847) RX 5B9#67FF67FF28
(1739018531.850) RX 11A#0140005500000115
(1739018531.850) RX 1DB#FFE0BF6A0000038D
(1739018531.851) RX 1DC#B40F8FFD08C0CB1B
(1739018531.852) RX 1C2#53
(1739018531.857) RX 1D4#F7070000C74600B7
(1739018531.857) RX 1DA#C0641800000102A7
(1739018531.879) RX 11A#014000AAC0000003
(1739018531.880) RX 1DB#FFE0BF6A00000208
(1739018531.881) RX 1DC#B40F8FFD0520C64C
(1739018531.882) RX 1C2#56
(1739018531.887) RX 1DA#C0641800000101AD
(1739018531.887) RX 1D4#F707000087460070
(1739018531.888) RX 1F2#10640000001E020E
(1739018531.888) RX 50A#8512A00D8020
(1739018531.890) RX 11A#0140005500000115
(1739018531.890) RX 1DB#FFE0BF6A0000038D
(1739018531.891) RX 1DC#B40F8FFD08C0CB1B
(1739018531.891) RX 380#02041021000000B0
(1739018531.892) RX 5BF#0000000028000009
(1739018531.892) RX 1C2#57
(1739018531.897) RX 1DA#C0641800000102A7
(1739018531.898) RX 1D4#F7070000C74600B7
(1739018531.898) RX 1F2#10640000001E030F
(1739018531.898) RX 284#000000000000ED73
(1739018531.900) RX 11A#01400055400002D8
(1739018531.900) RX 1DB#FFE0BF6A00000087
(1739018531.901) RX 1DC#B40F8FFD0CCCD8E4
(1739018531.902) RX 1C2#58
(1739018531.907) RX 1DA#C064180000010322
(1739018531.908) RX 1D4#F70700000746007B
(1739018531.908) RX 1F2#10640000001E000C
(1739018531.908) RX 50B#000006C00060
(1739018531.910) RX 11A#014000AA800003CE
(1739018531.910) RX 1DB#FFE0BF6A00000102
(1739018531.911) RX 1DC#B40F8FFD0130C9CE
(1739018531.912) RX 1C2#59
(1739018531.917) RX 1DA#C064180000010028
(1739018531.917) RX 55A#00302F005F315B68
(1739018531.918) RX 1D4#F7070000474600BC
(1739018531.918) RX 1F2#10640000001E010D
(1739018531.919) RX 284#000000000000EE74
(1739018531.919) RX 11A#014000AAC0000003
(1739018531.920) RX 1DB#FFE0BF6A00000208
(1739018531.921) RX 1DC#B40F8FFD0520C64C
(1739018531.922) RX 1C2#5A
(1739018531.927) RX 1DA#C0641800000101AD
(1739018531.928) RX 1D4#F707000087460070
(1739018531.929) RX 1F2#10640000001E020E
(1739018531.930) RX 11A#0140005500000115
(1739018531.931) RX 1DB#FFE0BF6A0000038D
(1739018531.931) RX 1DC#B40F8FFD08C0CB1B
(1739018531.931) RX 55B#C7805500E500133C
(1739018531.932) RX 5BC#59032026B2064087
(1739018531.933) RX 1C2#5B
(1739018531.937) RX 1DA#C0641800000102A7
(1739018531.939) RX 1D4#F7070000C74600B7
(1739018531.939) RX 1F2#10640000001E030F
(1739018531.939) RX 284#000000000000EF75
(1739018531.940) RX 11A#01400055400002D8
(1739018531.940) RX 1DB#FFE0BF6A00000087
(1739018531.941) RX 1DC#B40F8FFD0CCCD8E4
(1739018531.943) RX 1C2#5C
(1739018531.947) RX 1DA#C064180000010322
(1739018531.949) RX 1D4#F70700000746007B
(1739018531.949) RX 1F2#10640000001E000C
(1739018531.950) RX 11A#014000AA800003CE
(1739018531.951) RX 1DB#FFE0BF6A00000102
(1739018531.951) RX 1DC#B40F8FFD0130C9CE
(1739018531.953) RX 1C2#5D
(1739018531.957) RX 1DA#C064180000010028
(1739018531.959) RX 11A#014000AAC0000003
(1739018531.959) RX 1D4#F7070000474600BC
(1739018531.960) RX 1F2#10640000001E010D
(1739018531.960) RX 284#000000000000F076
(1739018531.961) RX 1DB#FFE0BF6A00000208
(1739018531.961) RX 1DC#B40F8FFD0520C64C
(1739018531.963) RX 1C2#5E
(1739018531.964) RX 54A#9E0070020000002C
(1739018531.965) RX 54B#0108800904000000
(1739018531.966) RX 54C#7666000000005800
(1739018531.967) RX 54F#2A01000007C08A60
(1739018531.967) RX 1DA#C0641800000101AD
(1739018531.969) RX 1D4#F707000087460070
(1739018531.970) RX 1F2#10640000001E020E
(1739018531.970) RX 11A#0140005500000115
(1739018531.970) RX 50C#00000001B231
(1739018531.971) RX 1DB#FFE0BF6A0000038D
(1739018531.971) RX 1DC#B40F8FFD08C0CB1B
(1739018531.973) RX 1C2#5F
(1739018531.977) RX 1DA#C0641800000102A7
(1739018531.980) RX 1D4#F7070000C74600B7
(1739018531.980) RX 11A#01400055400002D8
(1739018531.980) RX 1F2#10640000001E030F
(1739018531.980) RX 284#000000000000F177
(1739018531.981) RX 1DB#FFE0BF6A00000087
(1739018531.981) RX 1DC#B40F8FFD0CCCD8E4
(1739018531.983) RX 1C2#50
(1739018531.987) RX 1DA#C064180000010322
(1739018531.990) RX 1D4#F70700000746007B
(1739018531.990) RX 11A#014000AA800003CE
(1739018531.990) RX 1F2#10640000001E000C
(1739018531.990) RX 50A#8532A00D8020
(1739018531.991) RX 1DB#FFE0BF6A00000102
(1739018531.991) RX 1DC#B40F8FFD0130C9CE
(1739018531.991) RX 380#020410210000008D
(1739018531.992) RX 5BF#000000002800001A
(1739018531.993) RX 1C2#51
(1739018531.997) RX 1DA#C064180000010028
(1739018531.999) RX 11A#014000AAC0000003
(1739018532.000) RX 1D4#F7070000474600BC
(1739018532.000) RX 1F2#10640000001E010D
(1739018532.001) RX 284#000000000000F278
(1739018532.001) RX 1DB#FFE0BF6A00000208
(1739018532.001) RX 1DC#B40F8FFD0520C64C
(1739018532.003) RX 1C2#52
(1739018532.007) RX 1DA#C0641800000101AD
(1739018532.010) RX 11A#0140005500000115
(1739018532.010) RX 1D4#F707000087460070
(1739018532.011) RX 1F2#10640000001E020E
(1739018532.011) RX 1DB#FFE0BF6A0000038D
(1739018532.011) RX 50B#000006C00060
(1739018532.011) RX 1DC#B40F8FFD08C0CB1B
(1739018532.013) RX 1C2#53
(1739018532.017) RX 1DA#C0641800000102A7
(1739018532.017) RX 55A#00302F005F315B68
(1739018532.020) RX 11A#01400055400002D8
(1739018532.021) RX 1D4#F7070000C74600B7
(1739018532.021) RX 1DB#FFE0BF6A00000087
(1739018532.021) RX 1F2#10640000001E030F
(1739018532.021) RX 1DC#B40F8FFD0CCCD8E4
(1739018532.022) RX 284#000000000000F379
(1739018532.023) RX 1C2#54
(1739018532.027) RX 1DA#C064180000010322
(1739018532.030) RX 11A#014000AA800003CE
(1739018532.031) RX 1D4#F70700000746007B
(1739018532.031) RX 1DB#FFE0BF6A00000102
(1739018532.031) RX 1F2#10640000001E000C
(1739018532.032) RX 1DC#B40F8FFD0130C9CE
(1739018532.032) RX 55B#C780AA00E5001071
(1739018532.032) RX 5BC#59032026B2064087
(1739018532.033) RX 1C2#55
(1739018532.037) RX 1DA#C064180000010028
(1739018532.039) RX 11A#014000AAC0000003
(1739018532.041) RX 1DB#FFE0BF6A00000208
(1739018532.041) RX 1DC#B40F8FFD0520C64C
(1739018532.041) RX 1D4#F7070000474600BC
(1739018532.041) RX 1F2#10640000001E010D
(1739018532.042) RX 284#000000000000F47A
(1739018532.043) RX 1C2#56
(1739018532.047) RX 1DA#C0641800000101AD
(1739018532.050) RX 11A#0140005500000115
(1739018532.051) RX 1DB#FFE0BF6A0000038D
(1739018532.051) RX 1DC#B40F8FFD08C0CB1B
(1739018532.051) RX 1D4#F707000087460070
(1739018532.052) RX 1F2#10640000001E020E
(1739018532.053) RX 1C2#57
(1739018532.057) RX 1DA#C0641800000102A7
(1739018532.060) RX 11A#01400055400002D8
(1739018532.061) RX 1DB#FFE0BF6A00000087
(1739018532.061) RX 1DC#B40F8FFD0CCCD8E4
(1739018532.062) RX 1D4#F7070000C74600B7
(1739018532.062) RX 1F2#10640000001E030F
(1739018532.062) RX 284#000000000000F57B
(1739018532.063) RX 1C2#58
(1739018532.064) RX 54A#100070020000002C
(1739018532.065) RX 54B#0108800904000000
(1739018532.066) RX 54C#7666000000005800
(1739018532.067) RX 54F#2A01000007008A60
(1739018532.067) RX 1DA#C064180000010322
(1739018532.070) RX 11A#014000AA800003CE
(1739018532.071) RX 1DB#FFE0BF6A00000102
(1739018532.071) RX 1DC#B40F8FFD0130C9CE
(1739018532.072) RX 1D4#F70700000746007B
(1739018532.072) RX 1F2#10640000001E000C
(1739018532.072) RX 50C#000000025D63
(1739018532.073) RX 1C2#59
(1739018532.077) RX 1DA#C064180000010028
(1739018532.079) RX 11A#014000AAC0000003
(1739018532.081) RX 1DB#FFE0BF6A00000208
(1739018532.081) RX 1DC#B40F8FFD0520C64C
(1739018532.082) RX 1D4#F7070000474600BC
(1739018532.082) RX 1F2#10640000001E010D
(1739018532.082) RX 284#000000000000F67C
(1739018532.083) RX 1C2#5A
(1739018532.087) RX 1DA#C0641800000101AD
(1739018532.090) RX 11A#0140005500000115
(1739018532.091) RX 1DB#FFE0BF6A0000038D
(1739018532.091) RX 1DC#B40F8FFD08C0CB1B
(1739018532.092) RX 380#020410210000009E
(1739018532.092) RX 5BF#000000002800002B
(1739018532.092) RX 1D4#F707000087460070
(1739018532.092) RX 1F2#10640000001E020E
(1739018532.093) RX 50A#8552A00D8020
(1739018532.093) RX 1C2#5B
(1739018532.097) RX 1DA#C0641800000102A7
(1739018532.100) RX 11A#01400055400002D8
(1739018532.101) RX 1DB#FFE0BF6A00000087
(1739018532.101) RX 1DC#B40F8FFD0CCCD8E4
(1739018532.103) RX 1D4#F7070000C74600B7
(1739018532.103) RX 1F2#10640000001E030F
(1739018532.103) RX 284#000000000000F77D
(1739018532.103) RX 1C2#5C
(1739018532.107) RX 1DA#C064180000010322
(1739018532.110) RX 11A#014000AA800003CE
(1739018532.111) RX 1DB#FFE0BF6A00000102
(1739018532.111) RX 1DC#B40F8FFD0130C9CE
(1739018532.113) RX 1D4#F70700000746007B
(1739018532.113) RX 1F2#10640000001E000C
(1739018532.113) RX 1C2#5D
(1739018532.113) RX 50B#000006C00060
(1739018532.117) RX 1DA#C064180000010028
(1739018532.117) RX 55A#00302F005F315B68
(1739018532.119) RX 11A#014000AAC0000003
(1739018532.121) RX 1DB#FFE0BF6A00000208
(1739018532.121) RX 1DC#B40F8FFD0520C64C
(1739018532.123) RX 1D4#F7070000474600BC
(1739018532.123) RX 1C2#5E
(1739018532.123) RX 1F2#10640000001E010D
(1739018532.124) RX 284#000000000000F87E
(1739018532.127) RX 1DA#C0641800000101AD
(1739018532.130) RX 11A#0140005500000115
(1739018532.131) RX 1DB#FFE0BF6A0000038D
(1739018532.131) RX 1DC#B40F8FFD08C0CB1B
(1739018532.132) RX 55B#C7805500E50011B3
(1739018532.132) RX 5BC#59032026B2064087
(1739018532.133) RX 1C2#5F
(1739018532.133) RX 1D4#F707000087460070
(1739018532.133) RX 1F2#10640000001E020E
(1739018532.137) RX 1DA#C0641800000102A7
(1739018532.140) RX 11A#01400055400002D8
(1739018532.141) RX 1DB#FFE0BF6A00000087
(1739018532.141) RX 1DC#B40F8FFD0CCCD8E4
(1739018532.143) RX 1C2#50
(1739018532.143) RX 1D4#F7070000C74600B7
(1739018532.144) RX 1F2#10640000001E030F
(1739018532.144) RX 284#000000000000F97F
(1739018532.147) RX 1DA#C064180000010322
(1739018532.150) RX 11A#014000AA800003CE
(1739018532.151) RX 1DB#FFE0BF6A00000102
(1739018532.151) RX 1DC#B40F8FFD0130C9CE
(1739018532.153) RX 1C2#51
(1739018532.154) RX 1D4#F70700000746007B
(1739018532.154) RX 1F2#10640000001E000C
(1739018532.154) RX 284#000000000000FA80
(1739018532.157) RX 1DA#C064180000010028
(1739018532.159) RX 11A#014000AAC0000003
(1739018532.161) RX 1DB#FFE0BF6A00000208
(1739018532.161) RX 1DC#B40F8FFD0520C64C
(1739018532.163) RX 1C2#52
(1739018532.164) RX 54A#9E0070020000002C
(1739018532.164) RX 1D4#F7070000474600BC
(1739018532.164) RX 1F2#10640000001E010D
(1739018532.165) RX 54B#0108800904000000
(1739018532.166) RX 54C#7666000000005800
(1739018532.167) RX 1DA#C0641800000101AD
(1739018532.167) RX 54F#2A01000007408A60
(1739018532.170) RX 11A#0140005500000115
(1739018532.171) RX 1DB#FFE0BF6A0000038D
(1739018532.171) RX 1DC#B40F8FFD08C0CB1B
(1739018532.173) RX 1C2#53
(1739018532.174) RX 1D4#F707000087460070
(1739018532.175) RX 1F2#10640000001E020E
(1739018532.175) RX 284#000000000000FB81
(1739018532.175) RX 50C#00000003B29A
(1739018532.177) RX 1DA#C0641800000102A7
(1739018532.180) RX 11A#01400055400002D8
(1739018532.181) RX 1DB#FFE0BF6A00000087
(1739018532.181) RX 1DC#B40F8FFD0CCCD8E4
(1739018532.183) RX 1C2#54
(1739018532.184) RX 1D4#F7070000C74600B7
(1739018532.185) RX 1F2#10640000001E030F
(1739018532.187) RX 1DA#C064180000010322
(1739018532.190) RX 11A#014000AA800003CE
(1739018532.191) RX 1DB#FFE0BF6A00000102
(1739018532.191) RX 1DC#B40F8FFD0130C9CE
(1739018532.192) RX 380#02041021000000AF
(1739018532.192) RX 5BF#000000002800003C
(1739018532.193) RX 1C2#55
(1739018532.195) RX 1D4#F70700000746007B
(1739018532.195) RX 1F2#10640000001E000C
(1739018532.195) RX 284#000000000000FC82
(1739018532.195) RX 50A#8572A00D8020
(1739018532.197) RX 1DA#C064180000010028
(1739018532.199) RX 11A#014000AAC0000003
(1739018532.201) RX 1DB#FFE0BF6A00000208
(1739018532.201) RX 1DC#B40F8FFD0520C64C
(1739018532.203) RX 1C2#56
(1739018532.205) RX 1D4#F7070000474600BC
(1739018532.205) RX 1F2#10640000001E010D
(1739018532.207) RX 1DA#C0641800000101AD
(1739018532.210) RX 11A#0140005500000115
(1739018532.211) RX 1DB#FFE0BF6A0000038D
(1739018532.212) RX 1DC#B40F8FFD08C0CB1B
(1739018532.213) RX 1C2#57
(1739018532.215) RX 1D4#F707000087460070
(1739018532.215) RX 1F2#10640000001E020E
(1739018532.216) RX 284#000000000000FD83
(1739018532.216) RX 50B#000006C00060
(1739018532.217) RX 1DA#C0641800000102A7
(1739018532.217) RX 55A#00302F005F315B68
(1739018532.220) RX 11A#01400055400002D8
(1739018532.221) RX 1DB#FFE0BF6A00000087
(1739018532.221) RX 1DC#B40F8FFD0CCCD8E4
(1739018532.223) RX 1C2#58
(1739018532.225) RX 1D4#F7070000C74600B7
(1739018532.226) RX 1F2#10640000001E030F
(1739018532.227) RX 1DA#C064180000010322
(1739018532.230) RX 11A#014000AA800003CE
(1739018532.231) RX 1DB#FFE0BF6A00000102
(1739018532.232) RX 1DC#B40F8FFD0130C9CE
(1739018532.232) RX 55B#C780AA00E50012FE
(1739018532.232) RX 5BC#59032C26B3040087
(1739018532.233) RX 1C2#59
(1739018532.236) RX 1D4#F70700000746007B
(1739018532.236) RX 1F2#10640000001E000C
(1739018532.236) RX 284#000000000000FE84
(1739018532.237) RX 1DA#C064180000010028
(1739018532.239) RX 11A#014000AAC0000003
(1739018532.241) RX 1DB#FFE0BF6A00000208
(1739018532.242) RX 1DC#B40F8FFD0520C64C
(1739018532.242) RX 5C0#404C4C0004E41100
(1739018532.242) RX 5EB#E00FFFFFFFFFFFFF
(1739018532.243) RX 1C2#5A
(1739018532.246) RX 1D4#F7070000474600BC
(1739018532.246) RX 1F2#10640000001E010D
(1739018532.247) RX 1DA#C0641800000101AD
(1739018532.250) RX 11A#0140005500000115
(1739018532.251) RX 1DB#FFE0BF6A0000038D
(1739018532.252) RX 1DC#B40F8FFD08C0CB1B
(1739018532.253) RX 1C2#5B
(1739018532.256) RX 1D4#F707000087460070
(1739018532.256) RX 1F2#10640000001E020E
(1739018532.257) RX 284#000000000000FF85
(1739018532.257) RX 1DA#C0641800000102A7
(1739018532.260) RX 11A#01400055400002D8
(1739018532.261) RX 1DB#FFE0BF6A00000087
(1739018532.262) RX 1DC#B40F8FFD0CCCD8E4
(1739018532.263) RX 1C2#5C
(1739018532.264) RX 54A#100070020000002C
(1739018532.265) RX 54B#0108800904000000
(1739018532.266) RX 54C#7666000000005800
(1739018532.266) RX 1D4#F7070000C74600B7
(1739018532.267) RX 1F2#10640000001E030F
(1739018532.267) RX 1DA#C064180000010322
(1739018532.267) RX 54F#2A01000007808A60
(1739018532.270) RX 11A#014000AA800003CE
(1739018532.271) RX 1DB#FFE0BF6A00000102
(1739018532.272) RX 1DC#B40F8FFD0130C9CE
(1739018532.273) RX 1C2#5D
(1739018532.277) RX 1DA#C064180000010028
(1739018532.277) RX 1D4#F70700000746007B
(1739018532.277) RX 1F2#10640000001E000C
(1739018532.277) RX 284#0000000000000086
(1739018532.278) RX 50C#000000005DC8
(1739018532.279) RX 11A#014000AAC0000003
(1739018532.281) RX 1DB#FFE0BF6A00000208
(1739018532.282) RX 1DC#B40F8FFD0520C64C
(1739018532.283) RX 1C2#5E
(1739018532.287) RX 1DA#C0641800000101AD
(1739018532.287) RX 1D4#F7070000474600BC
(1739018532.287) RX 1F2#10640000001E010D
(1739018532.287) RX 5A9#9A44201304300000
(1739018532.290) RX 11A#0140005500000115
(1739018532.291) RX 1DB#FFE0BF6A0000038D
(1739018532.292) RX 380#02041021000000B0
(1739018532.292) RX 1DC#B40F8FFD08C0CB1B
(1739018532.292) RX 5BF#0000000028000009
(1739018532.293) RX 1C2#5F
(1739018532.297) RX 1DA#C0641800000102A7
(1739018532.297) RX 1D4#F707000087460070
(1739018532.297) RX 1F2#10640000001E020E
(1739018532.298) RX 284#0000000000000187
(1739018532.298) RX 50A#8512A00D8020
(1739018532.300) RX 11A#01400055400002D8
(1739018532.301) RX 1DB#FFE0BF6A00000087
(1739018532.302) RX 1DC#B40F8FFD0CCCD8E4
(1739018532.303) RX 1C2#50
(1739018532.307) RX 1DA#C064180000010322
(1739018532.307) RX 1D4#F7070000C74600B7
(1739018532.308) RX 1F2#10640000001E030F
(1739018532.310) RX 11A#014000AA800003CE
(1739018532.311) RX 1DB#FFE0BF6A00000102
(1739018532.312) RX 1DC#B40F8FFD0130C9CE
(1739018532.313) RX 1C2#51
(1739018532.317) RX 1DA#C064180000010028
(1739018532.317) RX 55A#00302F005F315B68
(1739018532.318) RX 1D4#F70700000746007B
(1739018532.318) RX 1F2#10640000001E000C
(1739018532.318) RX 284#0000000000000288
(1739018532.318) RX 50B#000006C00060
(1739018532.319) RX 11A#014000AAC0000003
(1739018532.321) RX 1DB#FFE0BF6A00000208
(1739018532.322) RX 1DC#B40F8FFD0520C64C
(1739018532.323) RX 1C2#52
(1739018532.327) RX 1DA#C0641800000101AD
(1739018532.328) RX 1D4#F7070000474600BC
(1739018532.328) RX 1F2#10640000001E010D
(1739018532.330) RX 11A#0140005500000115
(1739018532.332) RX 1DB#FFE0BF6A0000038D
(1739018532.332) RX 1DC#B40F8FFD08C0CB1B
(1739018532.332) RX 55B#C7805500E500133C
(1739018532.333) RX 5BC#59032C26B3040087
(1739018532.333) RX 1C2#53
(1739018532.337) RX 1DA#C0641800000102A7
(1739018532.338) RX 1D4#F707000087460070
(1739018532.338) RX 1F2#10640000001E020E
(1739018532.339) RX 284#0000000000000389
(1739018532.340) RX 11A#01400055400002D8
(1739018532.342) RX 1DB#FFE0BF6A00000087
(1739018532.342) RX 1DC#B40F8FFD0CCCD8E4
(1739018532.343) RX 1C2#54
(1739018532.347) RX 1DA#C064180000010322
(1739018532.348) RX 1D4#F7070000C74600B7
(1739018532.349) RX 1F2#10640000001E030F
(1739018532.350) RX 11A#014000AA800003CE
(1739018532.352) RX 1DB#FFE0BF6A00000102
(1739018532.352) RX 1DC#B40F8FFD0130C9CE
(1739018532.353) RX 1C2#55
(1739018532.357) RX 1DA#C064180000010028
(1739018532.359) RX 1D4#F70700000746007B
(1739018532.359) RX 1F2#10640000001E000C
(1739018532.359) RX 11A#014000AAC0000003
(1739018532.359) RX 284#000000000000048A
(1739018532.359) RX 5B9#67FF67FF28
(1739018532.362) RX 1DB#FFE0BF6A00000208
(1739018532.362) RX 1DC#B40F8FFD0520C64C
(1739018532.364) RX 1C2#56
(1739018532.364) RX 54A#9E0070020000002C
(1739018532.365) RX 54B#0108800904000000
(1739018532.366) RX 54C#7666000000005800
(1739018532.367) RX 1DA#C0641800000101AD
(1739018532.367) RX 54F#2A01000007C08A60
(1739018532.369) RX 1D4#F7070000474600BC
(1739018532.369) RX 1F2#10640000001E010D
(1739018532.370) RX 11A#0140005500000115
(1739018532.372) RX 1DB#FFE0BF6A0000038D
(1739018532.372) RX 1DC#B40F8FFD08C0CB1B
(1739018532.374) RX 1C2#57
(1739018532.377) RX 1DA#C0641800000102A7
(1739018532.379) RX 1D4#F707000087460070
(1739018532.379) RX 1F2#10640000001E020E
(1739018532.380) RX 284#000000000000058B
(1739018532.380) RX 11A#01400055400002D8
(1739018532.380) RX 50C#00000001B231
(1739018532.382) RX 1DB#FFE0BF6A00000087
(1739018532.382) RX 1DC#B40F8FFD0CCCD8E4
(1739018532.384) RX 1C2#58
(1739018532.387) RX 1DA#C064180000010322
(1739018532.389) RX 1D4#F7070000C74600B7
(1739018532.390) RX 1F2#10640000001E030F
(1739018532.390) RX 11A#014000AA800003CE
(1739018532.392) RX 1DB#FFE0BF6A00000102
(1739018532.392) RX 380#020410210000008D
(1739018532.392) RX 1DC#B40F8FFD0130C9CE
(1739018532.392) RX 5BF#000000002800001A
(1739018532.394) RX 1C2#59
(1739018532.397) RX 1DA#C064180000010028
(1739018532.399) RX 11A#014000AAC0000003
(1739018532.400) RX 1D4#F70700000746007B
(1739018532.400) RX 1F2#10640000001E000C
(1739018532.400) RX 284#000000000000068C
(1739018532.400) RX 50A#8532A00D8020
(1739018532.402) RX 1DB#FFE0BF6A00000208
(1739018532.402) RX 1DC#B40F8FFD0520C64C
(1739018532.404) RX 1C2#5A
(1739018532.407) RX 1DA#C0641800000101AD
(1739018532.410) RX 1D4#F7070000474600BC
(1739018532.410) RX 11A#0140005500000115
(1739018532.410) RX 1F2#10640000001E010D
(1739018532.412) RX 1DB#FFE0BF6A0000038D
(1739018532.412) RX 1DC#B40F8FFD08C0CB1B
(1739018532.414) RX 1C2#5B
(1739018532.417) RX 1DA#C0641800000102A7
(1739018532.417) RX 55A#00302F005F315B68
(1739018532.420) RX 11A#01400055400002D8
(1739018532.420) RX 1D4#F707000087460070
(1739018532.420) RX 1F2#10640000001E020E
(1739018532.421) RX 284#000000000000078D
(1739018532.421) RX 50B#000006C00060
(1739018532.422) RX 1DB#FFE0BF6A00000087
(1739018532.422) RX 1DC#B40F8FFD0CCCD8E4
(1739018532.424) RX 1C2#5C
(1739018532.427) RX 1DA#C064180000010322
(1739018532.430) RX 11A#014000AA800003CE
(1739018532.430) RX 1D4#F7070000C74600B7
(1739018532.431) RX 1F2#10640000001E030F
(1739018532.432) RX 1DB#FFE0BF6A00000102
(1739018532.432) RX 1DC#B40F8FFD0130C9CE
(1739018532.432) RX 55B#C780AA00E5001071
(1739018532.433) RX 5BC#59032C26B3040087
(1739018532.434) RX 1C2#5D
