(1739018026.689) RX 1DB#FFC0C06A00000384
(1739018026.690) RX 1DC#B40F8FFD08C0CB1B
(1739018026.690) RX 1D4#F7070000C74600B7
(1739018026.690) RX 1F2#10640000001E030F
(1739018026.690) RX 284#00000000000040C6
(1739018026.690) RX 1DA#C16418000001002F
(1739018026.691) RX 11A#0140005500000115
(1739018026.691) RX 1C2#54
(1739018026.694) RX 380#020410210000008D
(1739018026.694) RX 5BF#000000002800001A
(1739018026.698) RX 1DB#FFC0C06A0000008E
(1739018026.698) RX 1DC#B40F8FFD0CCCD8E4
(1739018026.699) RX 1D4#F70700000746007B
(1739018026.699) RX 1F2#10640000001E000C
(1739018026.699) RX 50B#000006C00060
(1739018026.700) RX 1DA#C1641800000101AA
(1739018026.700) RX 11A#01400055400002D8
(1739018026.701) RX 1C2#55
(1739018026.708) RX 1DB#FFC0C06A0000010B
(1739018026.708) RX 1DC#B40F8FFD0130C9CE
(1739018026.709) RX 1D4#F7070000474600BC
(1739018026.709) RX 1F2#10640000001E010D
(1739018026.710) RX 1DA#C1641800000102A0
(1739018026.710) RX 284#00000000000041C7
(1739018026.710) RX 55A#002F2F005F315B68
(1739018026.711) RX 11A#014000AA800003CE
(1739018026.711) RX 1C2#56
(1739018026.718) RX 1DB#FFC0C06A00000201
(1739018026.718) RX 1DC#B40F8FFD0520C64C
(1739018026.719) RX 1D4#F707000087460070
(1739018026.720) RX 1DA#C164180000010325
(1739018026.720) RX 11A#014000AAC0000003
(1739018026.720) RX 1F2#10640000001E020E
(1739018026.721) RX 1C2#57
(1739018026.728) RX 1DB#FFC0C06A00000384
(1739018026.728) RX 1DC#B40F8FFD08C0CB1B
(1739018026.729) RX 55B#C9405500E50011FA
(1739018026.729) RX 5BC#59032026B2052092
(1739018026.730) RX 1DA#C16418000001002F
(1739018026.730) RX 1D4#F7070000C74600B7
(1739018026.730) RX 1F2#10640000001E030F
(1739018026.730) RX 284#00000000000042C8
(1739018026.731) RX 11A#0140005500000115
(1739018026.731) RX 1C2#58
(1739018026.738) RX 1DB#FFC0C06A0000008E
(1739018026.738) RX 1DC#B40F8FFD0CCCD8E4
(1739018026.740) RX 1DA#C1641800000101AA
(1739018026.740) RX 1D4#F70700000746007B
(1739018026.740) RX 1F2#10640000001E000C
(1739018026.740) RX 11A#01400055400002D8
(1739018026.741) RX 1C2#59
(1739018026.748) RX 1DB#FFC0C06A0000010B
(1739018026.748) RX 1DC#B40F8FFD0130C9CE
(1739018026.750) RX 1DA#C1641800000102A0
(1739018026.750) RX 1D4#F7070000474600BC
(1739018026.750) RX 1F2#10640000001E010D
(1739018026.751) RX 11A#014000AA800003CE
(1739018026.751) RX 1C2#5A
(1739018026.751) RX 284#00000000000043C9
(1739018026.758) RX 1DB#FFC0C06A00000201
(1739018026.758) RX 1DC#B40F8FFD0520C64C
(1739018026.760) RX 1DA#C164180000010325
(1739018026.760) RX 11A#014000AAC0000003
(1739018026.760) RX 1D4#F707000087460070
(1739018026.761) RX 1F2#10640000001E020E
(1739018026.761) RX 1C2#5B
(1739018026.761) RX 50C#00000001B231
(1739018026.768) RX 1DB#FFC0C06A00000384
(1739018026.768) RX 1DC#B40F8FFD08C0CB1B
(1739018026.770) RX 1DA#C16418000001002F
(1739018026.771) RX 11A#0140005500000115
(1739018026.771) RX 1D4#F7070000C74600B7
(1739018026.771) RX 1C2#5C
(1739018026.771) RX 1F2#10640000001E030F
(1739018026.771) RX 284#00000000000044CA
(1739018026.772) RX 5A9#9A44201304300000
(1739018026.775) RX 54A#9E0070020000002C
(1739018026.776) RX 54B#0108801204000000
(1739018026.777) RX 54C#6B66000000005800
(1739018026.778) RX 54F#2101000007408A23
(1739018026.778) RX 1DB#FFC0C06A0000008E
(1739018026.778) RX 1DC#B40F8FFD0CCCD8E4
(1739018026.780) RX 1DA#C1641800000101AA
(1739018026.780) RX 11A#01400055400002D8
(1739018026.781) RX 1C2#5D
(1739018026.781) RX 1D4#F70700000746007B
(1739018026.781) RX 1F2#10640000001E000C
(1739018026.781) RX 50A#8532A00C8020
(1739018026.788) RX 1DB#FFC0C06A0000010B
(1739018026.788) RX 1DC#B40F8FFD0130C9CE
(1739018026.796) RX 1DA#C1641800000102A0
(1739018026.796) RX 11A#014000AA800003CE
(1739018026.796) RX 1C2#5E
(1739018026.796) RX 1D4#F7070000474600BC
(1739018026.797) RX 1F2#10640000001E010D
(1739018026.797) RX 284#00000000000045CB
(1739018026.797) RX 380#020410210000009E
(1739018026.797) RX 5BF#000000002800002B
(1739018026.798) RX 1DB#FFC0C06A00000201
(1739018026.798) RX 1DC#B40F8FFD0520C64C
(1739018026.800) RX 1DA#C164180000010325
(1739018026.800) RX 11A#014000AAC0000003
(1739018026.801) RX 1C2#5F
(1739018026.801) RX 1D4#F707000087460070
(1739018026.802) RX 1F2#10640000001E020E
(1739018026.802) RX 50B#000006C00060
(1739018026.808) RX 1DB#FFC0C06A00000384
(1739018026.808) RX 1DC#B40F8FFD08C0CB1B
(1739018026.810) RX 1DA#C16418000001002F
(1739018026.810) RX 55A#002F2F005F315B68
(1739018026.811) RX 11A#0140005500000115
(1739018026.811) RX 1C2#50
(1739018026.812) RX 1D4#F7070000C74600B7
(1739018026.812) RX 1F2#10640000001E030F
(1739018026.812) RX 284#00000000000046CC
(1739018026.818) RX 1DB#FFC0C06A0000008E
(1739018026.818) RX 1DC#B40F8FFD0CCCD8E4
(1739018026.820) RX 1DA#C1641800000101AA
(1739018026.820) RX 11A#01400055400002D8
(1739018026.821) RX 1C2#51
(1739018026.822) RX 1D4#F70700000746007B
(1739018026.822) RX 1F2#10640000001E000C
(1739018026.828) RX 1DB#FFC0C06A0000010B
(1739018026.829) RX 1DC#B40F8FFD0130C9CE
(1739018026.829) RX 55B#C940AA00E50012B7
(1739018026.829) RX 5BC#59032C26B3054074
(1739018026.830) RX 1DA#C1641800000102A0
(1739018026.831) RX 11A#014000AA800003CE
(1739018026.831) RX 1C2#52
(1739018026.832) RX 1D4#F7070000474600BC
(1739018026.832) RX 1F2#10640000001E010D
(1739018026.833) RX 284#00000000000047CD
(1739018026.838) RX 1DB#FFC0C06A00000201
(1739018026.839) RX 1DC#B40F8FFD0520C64C
(1739018026.839) RX 5C0#404C4C0004E41100
(1739018026.839) RX 5EB#E00FFFFFFFFFFFFF
(1739018026.840) RX 1DA#C164180000010325
(1739018026.840) RX 11A#014000AAC0000003
(1739018026.841) RX 1C2#53
(1739018026.842) RX 1D4#F707000087460070
(1739018026.843) RX 1F2#10640000001E020E
(1739018026.843) RX 5B9#67FF67FF28
(1739018026.848) RX 1DB#FFC0C06A00000384
(1739018026.849) RX 1DC#B40F8FFD08C0CB1B
(1739018026.850) RX 1DA#C16418000001002F
(1739018026.851) RX 11A#0140005500000115
(1739018026.851) RX 1C2#54
(1739018026.853) RX 1D4#F7070000C74600B7
(1739018026.853) RX 1F2#10640000001E030F
(1739018026.853) RX 284#00000000000048CE
(1739018026.858) RX 1DB#FFC0C06A0000008E
(1739018026.859) RX 1DC#B40F8FFD0CCCD8E4
(1739018026.860) RX 1DA#C1641800000101AA
(1739018026.860) RX 11A#01400055400002D8
(1739018026.861) RX 1C2#55
(1739018026.863) RX 1D4#F70700000746007B
(1739018026.863) RX 1F2#10640000001E000C
(1739018026.863) RX 50C#000000025D63
(1739018026.868) RX 1DB#FFC0C06A0000010B
(1739018026.869) RX 1DC#B40F8FFD0130C9CE
(1739018026.870) RX 1DA#C1641800000102A0
(1739018026.871) RX 11A#014000AA800003CE
(1739018026.871) RX 1C2#56
(1739018026.873) RX 1D4#F7070000474600BC
(1739018026.873) RX 1F2#10640000001E010D
(1739018026.874) RX 284#00000000000049CF
(1739018026.875) RX 54A#100070020000002C
(1739018026.876) RX 54B#0108801204000000
(1739018026.877) RX 54C#6B66000000005800
(1739018026.878) RX 54F#2101000007808A23
(1739018026.878) RX 1DB#FFC0C06A00000201
(1739018026.879) RX 1DC#B40F8FFD0520C64C
(1739018026.880) RX 1DA#C164180000010325
(1739018026.880) RX 11A#014000AAC0000003
(1739018026.881) RX 1C2#57
(1739018026.883) RX 1D4#F707000087460070
(1739018026.884) RX 1F2#10640000001E020E
(1739018026.884) RX 50A#8552A00C8020
(1739018026.888) RX 1DB#FFC0C06A00000384
(1739018026.889) RX 1DC#B40F8FFD08C0CB1B
(1739018026.890) RX 1DA#C16418000001002F
(1739018026.891) RX 11A#0140005500000115
(1739018026.891) RX 1C2#58
(1739018026.894) RX 1D4#F7070000C74600B7
(1739018026.894) RX 1F2#10640000001E030F
(1739018026.894) RX 284#0000000000004AD0
(1739018026.894) RX 380#02041021000000AF
(1739018026.895) RX 5BF#000000002800003C
(1739018026.898) RX 1DB#FFC0C06A0000008E
(1739018026.899) RX 1DC#B40F8FFD0CCCD8E4
(1739018026.900) RX 1DA#C1641800000101AA
(1739018026.900) RX 11A#01400055400002D8
(1739018026.901) RX 1C2#59
(1739018026.904) RX 1D4#F70700000746007B
(1739018026.904) RX 1F2#10640000001E000C
(1739018026.904) RX 50B#000006C00060
(1739018026.908) RX 1DB#FFC0C06A0000010B
(1739018026.909) RX 1DC#B40F8FFD0130C9CE
(1739018026.910) RX 1DA#C1641800000102A0
(1739018026.910) RX 55A#002F2F005F315B68
(1739018026.911) RX 11A#014000AA800003CE
(1739018026.911) RX 1C2#5A
(1739018026.914) RX 1D4#F7070000474600BC
(1739018026.914) RX 1F2#10640000001E010D
(1739018026.915) RX 284#0000000000004BD1
(1739018026.918) RX 1DB#FFC0C06A00000201
(1739018026.919) RX 1DC#B40F8FFD0520C64C
(1739018026.920) RX 1DA#C164180000010325
(1739018026.920) RX 11A#014000AAC0000003
(1739018026.921) RX 1C2#5B
(1739018026.925) RX 1D4#F707000087460070
(1739018026.925) RX 1F2#10640000001E020E
(1739018026.926) RX 284#0000000000004CD2
(1739018026.929) RX 1DB#FFC0C06A00000384
(1739018026.929) RX 1DC#B40F8FFD08C0CB1B
(1739018026.929) RX 55B#C9405500E5001375
(1739018026.929) RX 5BC#59032C26B3054074
(1739018026.930) RX 1DA#C16418000001002F
(1739018026.931) RX 11A#0140005500000115
(1739018026.931) RX 1C2#5C
(1739018026.935) RX 1D4#F7070000C74600B7
(1739018026.935) RX 1F2#10640000001E030F
(1739018026.938) RX 1DB#FFC0C06A0000008E
(1739018026.939) RX 1DC#B40F8FFD0CCCD8E4
(1739018026.940) RX 1DA#C1641800000101AA
(1739018026.940) RX 11A#01400055400002D8
(1739018026.941) RX 1C2#5D
(1739018026.945) RX 1D4#F70700000746007B
(1739018026.945) RX 1F2#10640000001E000C
(1739018026.945) RX 284#0000000000004DD3
(1739018026.949) RX 1DB#FFC0C06A0000010B
(1739018026.949) RX 1DC#B40F8FFD0130C9CE
(1739018026.950) RX 1DA#C1641800000102A0
(1739018026.951) RX 11A#014000AA800003CE
(1739018026.951) RX 1C2#5E
(1739018026.955) RX 1D4#F7070000474600BC
(1739018026.955) RX 1F2#10640000001E010D
(1739018026.958) RX 1DB#FFC0C06A00000201
(1739018026.959) RX 1DC#B40F8FFD0520C64C
(1739018026.960) RX 1DA#C164180000010325
(1739018026.960) RX 11A#014000AAC0000003
(1739018026.961) RX 1C2#5F
(1739018026.965) RX 1D4#F707000087460070
(1739018026.966) RX 1F2#10640000001E020E
(1739018026.966) RX 284#0000000000004ED4
(1739018026.966) RX 50C#00000003B29A
(1739018026.969) RX 1DB#FFC0C06A00000384
(1739018026.969) RX 1DC#B40F8FFD08C0CB1B
(1739018026.970) RX 1DA#C16418000001002F
(1739018026.971) RX 11A#0140005500000115
(1739018026.971) RX 1C2#50
(1739018026.975) RX 54A#9E0070020000002C
(1739018026.976) RX 1D4#F7070000C74600B7
(1739018026.976) RX 1F2#10640000001E030F
(1739018026.976) RX 54B#0108801204000000
(1739018026.977) RX 54C#6B66000000005800
(1739018026.978) RX 54F#2101000007C08A23
(1739018026.979) RX 1DB#FFC0C06A0000008E
(1739018026.979) RX 1DC#B40F8FFD0CCCD8E4
(1739018026.980) RX 1DA#C1641800000101AA
(1739018026.980) RX 11A#01400055400002D8
(1739018026.981) RX 1C2#51
(1739018026.986) RX 1D4#F70700000746007B
(1739018026.986) RX 1F2#10640000001E000C
(1739018026.986) RX 284#0000000000004FD5
(1739018026.987) RX 50A#8572A00C8020
(1739018026.989) RX 1DB#FFC0C06A0000010B
(1739018026.989) RX 1DC#B40F8FFD0130C9CE
(1739018026.990) RX 1DA#C1641800000102A0
(1739018026.991) RX 11A#014000AA800003CE
(1739018026.991) RX 1C2#52
(1739018026.994) RX 380#02041021000000B0
(1739018026.994) RX 5BF#0000000028000009
(1739018026.996) RX 1D4#F7070000474600BC
(1739018026.996) RX 1F2#10640000001E010D
(1739018026.999) RX 1DB#FFC0C06A00000201
(1739018026.999) RX 1DC#B40F8FFD0520C64C
(1739018027.000) RX 1DA#C164180000010325
(1739018027.000) RX 11A#014000AAC0000003
(1739018027.001) RX 1C2#53
(1739018027.006) RX 1D4#F707000087460070
(1739018027.007) RX 1F2#10640000001E020E
(1739018027.007) RX 284#00000000000050D6
(1739018027.007) RX 50B#000006C00060
(1739018027.009) RX 1DB#FFC0C06A00000384
(1739018027.009) RX 1DC#B40F8FFD08C0CB1B
(1739018027.010) RX 1DA#C16418000001002F
(1739018027.010) RX 55A#002F2F005F315B68
(1739018027.011) RX 11A#0140005500000115
(1739018027.011) RX 1C2#54
(1739018027.016) RX 1D4#F7070000C74600B7
(1739018027.017) RX 1F2#10640000001E030F
(1739018027.019) RX 1DB#FFC0C06A0000008E
(1739018027.019) RX 1DC#B40F8FFD0CCCD8E4
(1739018027.020) RX 1DA#C1641800000101AA
(1739018027.020) RX 11A#01400055400002D8
(1739018027.021) RX 1C2#55
(1739018027.027) RX 1D4#F70700000746007B
(1739018027.027) RX 1F2#10640000001E000C
(1739018027.027) RX 284#00000000000051D7
(1739018027.029) RX 1DB#FFC0C06A0000010B
(1739018027.029) RX 1DC#B40F8FFD0130C9CE
(1739018027.029) RX 55B#C940AA00E5001038
(1739018027.030) RX 1DA#C1641800000102A0
(1739018027.030) RX 5BC#59032C26B3054074
(1739018027.031) RX 11A#014000AA800003CE
(1739018027.031) RX 1C2#56
(1739018027.037) RX 1D4#F7070000474600BC
(1739018027.037) RX 1F2#10640000001E010D
(1739018027.039) RX 1DB#FFC0C06A00000201
(1739018027.039) RX 1DC#B40F8FFD0520C64C
(1739018027.040) RX 1DA#C164180000010325
(1739018027.040) RX 11A#014000AAC0000003
(1739018027.041) RX 1C2#57
(1739018027.047) RX 1D4#F707000087460070
(1739018027.047) RX 1F2#10640000001E020E
(1739018027.048) RX 284#00000000000052D8
(1739018027.049) RX 1DB#FFC0C06A00000384
(1739018027.049) RX 1DC#B40F8FFD08C0CB1B
(1739018027.050) RX 1DA#C16418000001002F
(1739018027.051) RX 11A#0140005500000115
(1739018027.051) RX 1C2#58
(1739018027.057) RX 1D4#F7070000C74600B7
(1739018027.058) RX 1F2#10640000001E030F
(1739018027.059) RX 1DB#FFC0C06A0000008E
(1739018027.059) RX 1DC#B40F8FFD0CCCD8E4
(1739018027.060) RX 1DA#C1641800000101AA
(1739018027.060) RX 11A#01400055400002D8
(1739018027.061) RX 1C2#59
(1739018027.068) RX 1D4#F70700000746007B
(1739018027.068) RX 1F2#10640000001E000C
(1739018027.068) RX 284#00000000000053D9
(1739018027.068) RX 50C#000000005DC8
(1739018027.069) RX 1DB#FFC0C06A0000010B
(1739018027.069) RX 1DC#B40F8FFD0130C9CE
(1739018027.070) RX 1DA#C1641800000102A0
(1739018027.070) RX 11A#014000AA800003CE
(1739018027.071) RX 1C2#5A
(1739018027.075) RX 54A#100070020000002C
(1739018027.076) RX 54B#0108801204000000
(1739018027.077) RX 54C#6B66000000005800
(1739018027.078) RX 54F#2101000007008A23
(1739018027.078) RX 1D4#F7070000474600BC
(1739018027.078) RX 1F2#10640000001E010D
(1739018027.079) RX 1DB#FFC0C06A00000201
(1739018027.079) RX 1DC#B40F8FFD0520C64C
(1739018027.080) RX 1DA#C164180000010325
(1739018027.080) RX 11A#014000AAC0000003
(1739018027.081) RX 1C2#5B
(1739018027.088) RX 1D4#F707000087460070
(1739018027.088) RX 1F2#10640000001E020E
(1739018027.089) RX 284#00000000000054DA
(1739018027.089) RX 1DB#FFC0C06A00000384
(1739018027.089) RX 50A#8512A00C8020
(1739018027.089) RX 1DC#B40F8FFD08C0CB1B
(1739018027.090) RX 1DA#C16418000001002F
(1739018027.091) RX 11A#0140005500000115
(1739018027.091) RX 1C2#5C
(1739018027.094) RX 380#020410210000008D
(1739018027.094) RX 5BF#000000002800001A
(1739018027.098) RX 1D4#F7070000C74600B7
(1739018027.099) RX 1F2#10640000001E030F
(1739018027.099) RX 1DB#FFC0C06A0000008E
(1739018027.099) RX 1DC#B40F8FFD0CCCD8E4
(1739018027.100) RX 1DA#C1641800000101AA
(1739018027.100) RX 11A#01400055400002D8
(1739018027.101) RX 1C2#5D
(1739018027.109) RX 1D4#F70700000746007B
(1739018027.109) RX 1F2#10640000001E000C
(1739018027.109) RX 1DB#FFC0C06A0000010B
(1739018027.109) RX 284#00000000000055DB
(1739018027.110) RX 1DA#C1641800000102A0
(1739018027.110) RX 1DC#B40F8FFD0130C9CE
(1739018027.110) RX 50B#000006C00060
(1739018027.110) RX 55A#002F2F005F315B68
(1739018027.111) RX 11A#014000AA800003CE
(1739018027.112) RX 1C2#5E
(1739018027.119) RX 1D4#F7070000474600BC
(1739018027.119) RX 1DB#FFC0C06A00000201
(1739018027.119) RX 1F2#10640000001E010D
(1739018027.120) RX 1DA#C164180000010325
(1739018027.120) RX 11A#014000AAC0000003
(1739018027.120) RX 1DC#B40F8FFD0520C64C
(1739018027.122) RX 1C2#5F
(1739018027.129) RX 1D4#F707000087460070
(1739018027.129) RX 1DB#FFC0C06A00000384
(1739018027.130) RX 1DA#C16418000001002F
(1739018027.130) RX 1DC#B40F8FFD08C0CB1B
(1739018027.130) RX 1F2#10640000001E020E
(1739018027.130) RX 284#00000000000056DC
(1739018027.131) RX 11A#0140005500000115
(1739018027.131) RX 55B#C9405500E50011FA
(1739018027.131) RX 5BC#59032C26B3054074
(1739018027.132) RX 1C2#50
(1739018027.139) RX 1DB#FFC0C06A0000008E
(1739018027.139) RX 1DC#B40F8FFD0CCCD8E4
(1739018027.140) RX 1D4#F7070000C74600B7
(1739018027.140) RX 1DA#C1641800000101AA
(1739018027.140) RX 1F2#10640000001E030F
(1739018027.140) RX 11A#01400055400002D8
(1739018027.142) RX 1C2#51
(1739018027.149) RX 1DB#FFC0C06A0000010B
(1739018027.149) RX 1DC#B40F8FFD0130C9CE
(1739018027.150) RX 1DA#C1641800000102A0
(1739018027.150) RX 1D4#F70700000746007B
(1739018027.150) RX 1F2#10640000001E000C
(1739018027.150) RX 284#00000000000057DD
(1739018027.151) RX 11A#014000AA800003CE
(1739018027.152) RX 1C2#52
(1739018027.159) RX 1DB#FFC0C06A00000201
(1739018027.159) RX 1DC#B40F8FFD0520C64C
(1739018027.160) RX 1DA#C164180000010325
(1739018027.160) RX 11A#014000AAC0000003
(1739018027.160) RX 1D4#F7070000474600BC
(1739018027.160) RX 1F2#10640000001E010D
(1739018027.162) RX 1C2#53
(1739018027.169) RX 1DB#FFC0C06A00000384
(1739018027.169) RX 1DC#B40F8FFD08C0CB1B
(1739018027.170) RX 1DA#C16418000001002F
(1739018027.170) RX 1D4#F707000087460070
(1739018027.170) RX 1F2#10640000001E020E
(1739018027.171) RX 11A#0140005500000115
(1739018027.171) RX 284#00000000000058DE
(1739018027.171) RX 50C#00000001B231
(1739018027.172) RX 1C2#54
(1739018027.175) RX 54A#9E0070020000002C
(1739018027.176) RX 54B#0108801204000000
(1739018027.177) RX 54C#6B66000000005800
(1739018027.178) RX 54F#2101000007408A23
(1739018027.179) RX 1DB#FFC0C06A0000008E
(1739018027.179) RX 1DC#B40F8FFD0CCCD8E4
(1739018027.180) RX 1DA#C1641800000101AA
(1739018027.180) RX 11A#01400055400002D8
(1739018027.180) RX 1D4#F7070000C74600B7
(1739018027.181) RX 1F2#10640000001E030F
(1739018027.182) RX 1C2#55
(1739018027.189) RX 1DB#FFC0C06A0000010B
(1739018027.189) RX 1DA#C1641800000102A0
(1739018027.190) RX 1DC#B40F8FFD0130C9CE
(1739018027.190) RX 11A#014000AA800003CE
(1739018027.191) RX 1D4#F70700000746007B
(1739018027.191) RX 1F2#10640000001E000C
(1739018027.191) RX 284#00000000000059DF
(1739018027.191) RX 50A#8532A00C8020
(1739018027.192) RX 1C2#56
(1739018027.194) RX 380#020410210000009E
(1739018027.194) RX 5BF#000000002800002B
(1739018027.199) RX 1DB#FFC0C06A00000201
(1739018027.199) RX 1DC#B40F8FFD0520C64C
(1739018027.200) RX 1DA#C164180000010325
(1739018027.200) RX 11A#014000AAC0000003
(1739018027.201) RX 1D4#F7070000474600BC
(1739018027.201) RX 1F2#10640000001E010D
(1739018027.202) RX 1C2#57
(1739018027.209) RX 1DB#FFC0C06A00000384
(1739018027.210) RX 1DA#C16418000001002F
(1739018027.210) RX 1DC#B40F8FFD08C0CB1B
(1739018027.210) RX 55A#002F2F005F315B68
(1739018027.210) RX 11A#0140005500000115
(1739018027.211) RX 1D4#F707000087460070
(1739018027.211) RX 1F2#10640000001E020E
(1739018027.212) RX 284#0000000000005AE0
(1739018027.212) RX 50B#000006C00060
(1739018027.212) RX 1C2#58
(1739018027.219) RX 1DB#FFC0C06A0000008E
(1739018027.219) RX 1DA#C1641800000101AA
(1739018027.220) RX 1DC#B40F8FFD0CCCD8E4
(1739018027.220) RX 11A#01400055400002D8
(1739018027.221) RX 1D4#F7070000C74600B7
(1739018027.222) RX 1F2#10640000001E030F
(1739018027.222) RX 1C2#59
(1739018027.229) RX 1DB#FFC0C06A0000010B
(1739018027.230) RX 1DA#C1641800000102A0
(1739018027.230) RX 1DC#B40F8FFD0130C9CE
(1739018027.230) RX 55B#C940AA00E50012B7
(1739018027.230) RX 11A#014000AA800003CE
(1739018027.231) RX 5BC#59032C26B3054074
(1739018027.232) RX 1D4#F70700000746007B
(1739018027.232) RX 1F2#10640000001E000C
(1739018027.232) RX 1C2#5A
(1739018027.232) RX 284#0000000000005BE1
(1739018027.239) RX 1DB#FFC0C06A00000201
(1739018027.240) RX 1DA#C164180000010325
(1739018027.240) RX 1DC#B40F8FFD0520C64C
(1739018027.240) RX 11A#014000AAC0000003
(1739018027.242) RX 1D4#F7070000474600BC
(1739018027.242) RX 1C2#5B
(1739018027.229) RX 1DB#FFC0C06A0000010B
(1739018027.230) RX 1DA#C1641800000102A0
(1739018027.230) RX 1DC#B40F8FFD0130C9CE
(1739018027.230) RX 55B#C940AA00E50012B7
(1739018027.230) RX 11A#014000AA800003CE
(1739018027.231) RX 5BC#59032C26B3054074
(1739018027.232) RX 1D4#F70(1739018027.242) RX 1F2#10640000001E010D
(1739018027.249) RX 1DB#FFC0C06A00000384
(1739018027.250) RX 1DA#C16418000001002F
(1739018027.250) RX 1DC#B40F8FFD08C0CB1B
(1739018027.250) RX 11A#0140005500000115
(1739018027.252) RX 1C2#5C
(1739018027.252) RX 1D4#F707000087460070
(1739018027.252) RX 1F2#10640000001E020E
(1739018027.253) RX 284#0000000000005CE2
(1739018027.259) RX 1DB#FFC0C06A0000008E
(1739018027.260) RX 1DA#C1641800000101AA
(1739018027.260) RX 1DC#B40F8FFD0CCCD8E4
(1739018027.260) RX 11A#01400055400002D8
(1739018027.262) RX 1C2#5D
(1739018027.262) RX 1D4#F7070000C74600B7
(1739018027.263) RX 1F2#10640000001E030F
(1739018027.269) RX 1DB#FFC0C06A0000010B
(1739018027.270) RX 1DA#C1641800000102A0
(1739018027.270) RX 1DC#B40F8FFD0130C9CE
(1739018027.270) RX 11A#014000AA800003CE
(1739018027.272) RX 1C2#5E
(1739018027.273) RX 1D4#F70700000746007B
(1739018027.273) RX 1F2#10640000001E000C
(1739018027.273) RX 284#0000000000005DE3
(1739018027.273) RX 50C#000000025D63
(1739018027.275) RX 54A#100070020000002C
(1739018027.276) RX 54B#0108801204000000
(1739018027.277) RX 54C#6B66000000005800
(1739018027.278) RX 54F#2101000007808A23
(1739018027.279) RX 1DB#FFC0C06A00000201
(1739018027.280) RX 1DA#C164180000010325
(1739018027.280) RX 11A#014000AAC0000003
(1739018027.280) RX 1DC#B40F8FFD0520C64C
(1739018027.282) RX 1C2#5F
(1739018027.283) RX 1D4#F7070000474600BC
(1739018027.283) RX 1F2#10640000001E010D
(1739018027.283) RX 5A9#9A44201304300000
(1739018027.289) RX 1DB#FFC0C06A00000384
(1739018027.290) RX 1DA#C16418000001002F
(1739018027.290) RX 1DC#B40F8FFD08C0CB1B
(1739018027.290) RX 11A#0140005500000115
(1739018027.292) RX 1C2#50
(1739018027.293) RX 1D4#F707000087460070
(1739018027.293) RX 1F2#10640000001E020E
(1739018027.294) RX 284#0000000000005EE4
(1739018027.294) RX 50A#8552A00C8020
(1739018027.294) RX 380#02041021000000AF
(1739018027.294) RX 5BF#000000002800003C
(1739018027.299) RX 1DB#FFC0C06A0000008E
(1739018027.300) RX 1DA#C1641800000101AA
(1739018027.300) RX 1DC#B40F8FFD0CCCD8E4
(1739018027.300) RX 11A#01400055400002D8
(1739018027.302) RX 1C2#51
(1739018027.303) RX 1D4#F7070000C74600B7
(1739018027.304) RX 1F2#10640000001E030F
(1739018027.309) RX 1DA#C1641800000102A0
(1739018027.310) RX 1DB#FFC0C06A0000010B
(1739018027.310) RX 55A#002F2F005F315B68
(1739018027.310) RX 1DC#B40F8FFD0130C9CE
(1739018027.310) RX 11A#014000AA800003CE
(1739018027.312) RX 1C2#52
(1739018027.314) RX 1D4#F70700000746007B
(1739018027.314) RX 1F2#10640000001E000C
(1739018027.314) RX 284#0000000000005FE5
(1739018027.314) RX 50B#000006C00060
(1739018027.319) RX 1DA#C164180000010325
(1739018027.320) RX 1DB#FFC0C06A00000201
(1739018027.320) RX 11A#014000AAC0000003
(1739018027.320) RX 1DC#B40F8FFD0520C64C
(1739018027.322) RX 1C2#53
(1739018027.324) RX 1D4#F7070000474600BC
(1739018027.324) RX 1F2#10640000001E010D
(1739018027.329) RX 1DA#C16418000001002F
(1739018027.330) RX 1DB#FFC0C06A00000384
(1739018027.330) RX 1DC#B40F8FFD08C0CB1B
(1739018027.330) RX 55B#C9405500E5001375
(1739018027.331) RX 11A#0140005500000115
(1739018027.331) RX 5BC#59032026B20620A0
(1739018027.332) RX 1C2#54
(1739018027.334) RX 1D4#F707000087460070
(1739018027.334) RX 1F2#10640000001E020E
(1739018027.335) RX 284#00000000000060E6
(1739018027.339) RX 1DA#C1641800000101AA
(1739018027.340) RX 1DB#FFC0C06A0000008E
(1739018027.340) RX 1DC#B40F8FFD0CCCD8E4
(1739018027.340) RX 11A#01400055400002D8
(1739018027.341) RX 5C0#C04C4C0004541100
(1739018027.341) RX 5EB#E00FFFFFFFFFFFFF
(1739018027.342) RX 1C2#55
(1739018027.344) RX 1D4#F7070000C74600B7
(1739018027.345) RX 1F2#10640000001E030F
(1739018027.345) RX 284#00000000000061E7
(1739018027.349) RX 1DA#C1641800000102A0
(1739018027.350) RX 1DB#FFC0C06A0000010B
(1739018027.350) RX 1DC#B40F8FFD0130C9CE
(1739018027.350) RX 11A#014000AA800003CE
(1739018027.352) RX 1C2#56
(1739018027.355) RX 1D4#F70700000746007B
(1739018027.355) RX 1F2#10640000001E000C
(1739018027.355) RX 5B9#67FF67FF28
(1739018027.359) RX 1DA#C164180000010325
(1739018027.360) RX 11A#014000AAC0000003
(1739018027.360) RX 1DB#FFC0C06A00000201
(1739018027.360) RX 1DC#B40F8FFD0520C64C
(1739018027.362) RX 1C2#57
(1739018027.365) RX 1D4#F7070000474600BC
(1739018027.365) RX 1F2#10640000001E010D
(1739018027.365) RX 284#00000000000062E8
(1739018027.369) RX 1DA#C16418000001002F
(1739018027.370) RX 1DB#FFC0C06A00000384
(1739018027.370) RX 1DC#B40F8FFD08C0CB1B
(1739018027.370) RX 11A#0140005500000115
(1739018027.372) RX 1C2#58
(1739018027.375) RX 1D4#F707000087460070
(1739018027.375) RX 1F2#10640000001E020E
(1739018027.375) RX 50C#00000003B29A
(1739018027.376) RX 54A#9E0070020000002C
(1739018027.376) RX 54B#0108801204000000
(1739018027.377) RX 54C#6B66000000005800
(1739018027.378) RX 54F#2101000007C08A23
(1739018027.379) RX 1DA#C1641800000101AA
(1739018027.380) RX 1DB#FFC0C06A0000008E
(1739018027.380) RX 1DC#B40F8FFD0CCCD8E4
(1739018027.380) RX 11A#01400055400002D8
(1739018027.382) RX 1C2#59
(1739018027.385) RX 1D4#F7070000C74600B7
(1739018027.386) RX 1F2#10640000001E030F
(1739018027.386) RX 284#00000000000063E9
(1739018027.389) RX 1DA#C1641800000102A0
(1739018027.390) RX 1DB#FFC0C06A0000010B
(1739018027.390) RX 1DC#B40F8FFD0130C9CE
(1739018027.390) RX 11A#014000AA800003CE
(1739018027.392) RX 1C2#5A
(1739018027.394) RX 380#02041021000000B0
(1739018027.395) RX 5BF#0000000028000009
(1739018027.395) RX 1D4#F70700000746007B
(1739018027.396) RX 1F2#10640000001E000C
(1739018027.396) RX 50A#8572A00C8020
(1739018027.399) RX 1DA#C164180000010325
(1739018027.400) RX 1DB#FFC0C06A00000201
(1739018027.400) RX 11A#014000AAC0000003
(1739018027.400) RX 1DC#B40F8FFD0520C64C
(1739018027.402) RX 1C2#5B
(1739018027.406) RX 1D4#F7070000474600BC
(1739018027.406) RX 1F2#10640000001E010D
(1739018027.406) RX 284#00000000000064EA
(1739018027.409) RX 1DA#C16418000001002F
(1739018027.410) RX 55A#002F2F005F315B68
(1739018027.410) RX 1DB#FFC0C06A00000384
(1739018027.410) RX 1DC#B40F8FFD08C0CB1B
(1739018027.410) RX 11A#0140005500000115
(1739018027.412) RX 1C2#5C
(1739018027.416) RX 1D4#F707000087460070
(1739018027.416) RX 1F2#10640000001E020E
(1739018027.416) RX 50B#000006C00060
(1739018027.419) RX 1DA#C1641800000101AA
(1739018027.420) RX 1DB#FFC0C06A0000008E
(1739018027.420) RX 1DC#B40F8FFD0CCCD8E4
(1739018027.420) RX 11A#01400055400002D8
(1739018027.422) RX 1C2#5D
(1739018027.426) RX 1D4#F7070000C74600B7
(1739018027.426) RX 1F2#10640000001E030F
(1739018027.427) RX 284#00000000000065EB
(1739018027.429) RX 1DA#C1641800000102A0
(1739018027.430) RX 1DB#FFC0C06A0000010B
(1739018027.430) RX 1DC#B40F8FFD0130C9CE
(1739018027.431) RX 11A#014000AA800003CE
(1739018027.431) RX 55B#C940AA00E54010A5
(1739018027.431) RX 5BC#59032026B20620A0
(1739018027.432) RX 1C2#5E
(1739018027.436) RX 1D4#F70700000746007B
(1739018027.437) RX 1F2#10640000001E000C
(1739018027.439) RX 1DA#C164180000010325
(1739018027.440) RX 11A#014000AAC0000003
(1739018027.440) RX 1DB#FFC0C06A00000201
(1739018027.440) RX 1DC#B40F8FFD0520C64C
(1739018027.442) RX 1C2#5F
(1739018027.447) RX 1D4#F7070000474600BC
(1739018027.447) RX 1F2#10640000001E010D
(1739018027.447) RX 284#00000000000066EC
(1739018027.449) RX 1DA#C16418000001002F
(1739018027.450) RX 1DB#FFC0C06A00000384
(1739018027.450) RX 1DC#B40F8FFD08C0CB1B
(1739018027.450) RX 11A#0140005500000115
(1739018027.452) RX 1C2#50
(1739018027.457) RX 1D4#F707000087460070
(1739018027.457) RX 1F2#10640000001E020E
(1739018027.459) RX 1DA#C1641800000101AA
(1739018027.460) RX 1DB#FFC0C06A0000008E
(1739018027.460) RX 1DC#B40F8FFD0CCCD8E4
(1739018027.461) RX 11A#01400055400002D8
(1739018027.462) RX 1C2#51
(1739018027.467) RX 1D4#F7070000C74600B7
(1739018027.467) RX 1F2#10640000001E030F
(1739018027.468) RX 284#00000000000067ED
(1739018027.469) RX 1DA#C1641800000102A0
(1739018027.470) RX 1DB#FFC0C06A0000010B
(1739018027.470) RX 11A#014000AA800003CE
(1739018027.471) RX 1DC#B40F8FFD0130C9CE
(1739018027.472) RX 1C2#52
(1739018027.475) RX 54A#100070020000002C
(1739018027.476) RX 54B#0108801204000000
(1739018027.477) RX 54C#6B66000000005800
(1739018027.478) RX 1D4#F70700000746007B
(1739018027.478) RX 1F2#10640000001E000C
(1739018027.478) RX 50C#000000005DC8
(1739018027.478) RX 54F#2101000007008A23
(1739018027.479) RX 1DA#C164180000010325
(1739018027.480) RX 11A#014000AAC0000003
(1739018027.480) RX 1DB#FFC0C06A00000201
(1739018027.480) RX 1DC#B40F8FFD0520C64C
(1739018027.482) RX 1C2#53
(1739018027.488) RX 1D4#F7070000474600BC
(1739018027.488) RX 1F2#10640000001E010D
(1739018027.488) RX 284#00000000000068EE
(1739018027.489) RX 1DA#C16418000001002F
(1739018027.490) RX 1DB#FFC0C06A00000384
(1739018027.490) RX 11A#0140005500000115
(1739018027.491) RX 1DC#B40F8FFD08C0CB1B
(1739018027.492) RX 1C2#54
(1739018027.494) RX 380#020410210000008D
(1739018027.495) RX 5BF#000000002800001A
(1739018027.498) RX 1D4#F707000087460070
(1739018027.498) RX 1F2#10640000001E020E
(1739018027.498) RX 50A#8512A00C8020
(1739018027.499) RX 1DA#C1641800000101AA
(1739018027.500) RX 1DB#FFC0C06A0000008E
(1739018027.500) RX 11A#01400055400002D8
(1739018027.500) RX 1DC#B40F8FFD0CCCD8E4
(1739018027.502) RX 1C2#55
(1739018027.508) RX 1D4#F7070000C74600B7
(1739018027.508) RX 1F2#10640000001E030F
(1739018027.509) RX 284#00000000000069EF
(1739018027.509) RX 1DA#C1641800000102A0
(1739018027.510) RX 55A#002F2F005F315B68
(1739018027.510) RX 1DB#FFC0C06A0000010B
(1739018027.510) RX 11A#014000AA800003CE
(1739018027.511) RX 1DC#B40F8FFD0130C9CE
(1739018027.512) RX 1C2#56
(1739018027.518) RX 1D4#F70700000746007B
(1739018027.519) RX 1F2#10640000001E000C
(1739018027.519) RX 50B#000006C00060
(1739018027.519) RX 1DA#C164180000010325
(1739018027.520) RX 11A#014000AAC0000003
(1739018027.520) RX 1DB#FFC0C06A00000201
(1739018027.521) RX 1DC#B40F8FFD0520C64C
(1739018027.522) RX 1C2#57
(1739018027.529) RX 1D4#F7070000474600BC
(1739018027.529) RX 1F2#10640000001E010D
(1739018027.529) RX 284#0000000000006AF0
(1739018027.529) RX 1DA#C16418000001002F
(1739018027.530) RX 1DB#FFC0C06A00000384
(1739018027.531) RX 11A#0140005500000115
(1739018027.531) RX 1DC#B40F8FFD08C0CB1B
(1739018027.531) RX 55B#C9405500E5401167
(1739018027.532) RX 5BC#59032026B20620A0
(1739018027.532) RX 1C2#58
(1739018027.539) RX 1D4#F707000087460070
(1739018027.539) RX 1F2#10640000001E020E
(1739018027.539) RX 1DA#C1641800000101AA
(1739018027.540) RX 1DB#FFC0C06A0000008E
(1739018027.540) RX 11A#01400055400002D8
(1739018027.541) RX 1DC#B40F8FFD0CCCD8E4
(1739018027.543) RX 1C2#59
(1739018027.549) RX 1D4#F7070000C74600B7
(1739018027.549) RX 1F2#10640000001E030F
(1739018027.550) RX 1DA#C1641800000102A0
(1739018027.550) RX 284#0000000000006BF1
(1739018027.550) RX 1DB#FFC0C06A0000010B
(1739018027.551) RX 11A#014000AA800003CE
(1739018027.551) RX 1DC#B40F8FFD0130C9CE
(1739018027.553) RX 1C2#5A
(1739018027.559) RX 1D4#F70700000746007B
(1739018027.560) RX 1DA#C164180000010325
(1739018027.560) RX 11A#014000AAC0000003
(1739018027.560) RX 1F2#10640000001E000C
(1739018027.560) RX 1DB#FFC0C06A00000201
(1739018027.561) RX 1DC#B40F8FFD0520C64C
(1739018027.563) RX 1C2#5B
(1739018027.569) RX 1DA#C16418000001002F
(1739018027.570) RX 1D4#F7070000474600BC
(1739018027.570) RX 1F2#10640000001E010D
(1739018027.570) RX 284#0000000000006CF2
(1739018027.570) RX 1DB#FFC0C06A00000384
(1739018027.571) RX 11A#0140005500000115
(1739018027.571) RX 1DC#B40F8FFD08C0CB1B
(1739018027.573) RX 1C2#5C
(1739018027.575) RX 54A#9E0070020000002C
(1739018027.576) RX 54B#0108801204000000
(1739018027.577) RX 54C#6B66000000005800
(1739018027.578) RX 54F#2101000007408A23
(1739018027.579) RX 1DA#C1641800000101AA
(1739018027.580) RX 1D4#F707000087460070
(1739018027.580) RX 11A#01400055400002D8
(1739018027.580) RX 1DB#FFC0C06A0000008E
(1739018027.581) RX 1F2#10640000001E020E
(1739018027.581) RX 1DC#B40F8FFD0CCCD8E4
(1739018027.581) RX 50C#00000001B231
(1739018027.583) RX 1C2#5D
(1739018027.589) RX 1DA#C1641800000102A0
(1739018027.590) RX 1D4#F7070000C74600B7
(1739018027.590) RX 1DB#FFC0C06A0000010B
(1739018027.591) RX 11A#014000AA800003CE
(1739018027.591) RX 1DC#B40F8FFD0130C9CE
(1739018027.591) RX 1F2#10640000001E030F
(1739018027.591) RX 284#0000000000006DF3
(1739018027.593) RX 1C2#5E
(1739018027.594) RX 380#020410210000009E
(1739018027.595) RX 5BF#000000002800002B
(1739018027.599) RX 1DA#C164180000010325
(1739018027.600) RX 11A#014000AAC0000003
(1739018027.600) RX 1DB#FFC0C06A00000201
(1739018027.601) RX 1D4#F70700000746007B
(1739018027.601) RX 1DC#B40F8FFD0520C64C
(1739018027.601) RX 1F2#10640000001E000C
(1739018027.601) RX 50A#8532A00C8020
(1739018027.603) RX 1C2#5F
(1739018027.609) RX 1DA#C16418000001002F
(1739018027.610) RX 55A#002F2F005F315B68
(1739018027.610) RX 1DB#FFC0C06A00000384
(1739018027.611) RX 11A#0140005500000115
(1739018027.611) RX 1D4#F7070000474600BC
(1739018027.611) RX 1DC#B40F8FFD08C0CB1B
(1739018027.611) RX 1F2#10640000001E010D
(1739018027.612) RX 284#0000000000006EF4
(1739018027.613) RX 1C2#50
(1739018027.619) RX 1DA#C1641800000101AA
(1739018027.620) RX 1DB#FFC0C06A0000008E
(1739018027.621) RX 11A#01400055400002D8
(1739018027.621) RX 1DC#B40F8FFD0CCCD8E4
(1739018027.621) RX 1D4#F707000087460070
(1739018027.621) RX 1F2#10640000001E020E
(1739018027.621) RX 50B#000006C00060
(1739018027.623) RX 1C2#51
(1739018027.629) RX 1DA#C1641800000102A0
(1739018027.630) RX 11A#014000AA800003CE
(1739018027.631) RX 1DB#FFC0C06A0000010B
(1739018027.631) RX 1DC#B40F8FFD0130C9CE
(1739018027.631) RX 1D4#F7070000C74600B7
(1739018027.631) RX 1F2#10640000001E030F
(1739018027.632) RX 284#0000000000006FF5
(1739018027.632) RX 55B#C940AA00E540122A
(1739018027.632) RX 5BC#59032026B20620A0
(1739018027.633) RX 1C2#52
(1739018027.639) RX 1DA#C164180000010325
(1739018027.640) RX 11A#014000AAC0000003
(1739018027.641) RX 1DB#FFC0C06A00000201
(1739018027.641) RX 1DC#B40F8FFD0520C64C
(1739018027.641) RX 1D4#F70700000746007B
(1739018027.642) RX 1F2#10640000001E000C
(1739018027.643) RX 1C2#53
(1739018027.649) RX 1DA#C16418000001002F
(1739018027.650) RX 1DB#FFC0C06A00000384
(1739018027.651) RX 11A#0140005500000115
(1739018027.651) RX 1DC#B40F8FFD08C0CB1B
(1739018027.652) RX 1D4#F7070000474600BC
(1739018027.652) RX 1F2#10640000001E010D
(1739018027.652) RX 284#00000000000070F6
(1739018027.653) RX 1C2#54
(1739018027.659) RX 1DA#C1641800000101AA
(1739018027.660) RX 11A#01400055400002D8
(1739018027.660) RX 1DB#FFC0C06A0000008E
(1739018027.661) RX 1DC#B40F8FFD0CCCD8E4
(1739018027.662) RX 1D4#F707000087460070
(1739018027.662) RX 1F2#10640000001E020E
(1739018027.663) RX 1C2#55
(1739018027.669) RX 1DA#C1641800000102A0
(1739018027.670) RX 11A#014000AA800003CE
(1739018027.671) RX 1DB#FFC0C06A0000010B
(1739018027.671) RX 1DC#B40F8FFD0130C9CE
(1739018027.672) RX 1D4#F7070000C74600B7
(1739018027.672) RX 1F2#10640000001E030F
(1739018027.673) RX 284#00000000000071F7
(1739018027.673) RX 1C2#56
(1739018027.675) RX 54A#100070020000002C
(1739018027.676) RX 54B#0108801204000000
(1739018027.677) RX 54C#6B66000000005800
(1739018027.678) RX 54F#2101000007808A23
(1739018027.679) RX 1DA#C164180000010325
(1739018027.680) RX 11A#014000AAC0000003
(1739018027.681) RX 1DB#FFC0C06A00000201
(1739018027.681) RX 1DC#B40F8FFD0520C64C
(1739018027.682) RX 1D4#F70700000746007B
(1739018027.683) RX 1F2#10640000001E000C
(1739018027.683) RX 50C#000000025D63
(1739018027.683) RX 1C2#57
(1739018027.689) RX 1DA#C16418000001002F
(1739018027.690) RX 11A#0140005500000115
(1739018027.691) RX 1DB#FFC0C06A00000384
(1739018027.691) RX 1DC#B40F8FFD08C0CB1B
(1739018027.693) RX 1D4#F7070000474600BC
(1739018027.693) RX 1F2#10640000001E010D
(1739018027.693) RX 1C2#58
(1739018027.693) RX 284#00000000000072F8
(1739018027.695) RX 380#02041021000000AF
(1739018027.695) RX 5BF#000000002800003C
(1739018027.699) RX 1DA#C1641800000101AA
(1739018027.700) RX 11A#01400055400002D8
(1739018027.701) RX 1DB#FFC0C06A0000008E
(1739018027.701) RX 1DC#B40F8FFD0CCCD8E4
(1739018027.703) RX 1D4#F707000087460070
(1739018027.703) RX 1C2#59
(1739018027.703) RX 1F2#10640000001E020E
(1739018027.703) RX 50A#8552A00C8020
(1739018027.709) RX 1DA#C1641800000102A0
(1739018027.710) RX 55A#002F2F005F315B68
(1739018027.710) RX 11A#014000AA800003CE
(1739018027.711) RX 1DB#FFC0C06A0000010B
(1739018027.711) RX 1DC#B40F8FFD0130C9CE
(1739018027.713) RX 1C2#5A
(1739018027.713) RX 1D4#F7070000C74600B7
(1739018027.713) RX 1F2#10640000001E030F
(1739018027.714) RX 284#00000000000073F9
(1739018027.719) RX 1DA#C164180000010325
(1739018027.720) RX 11A#014000AAC0000003
(1739018027.721) RX 1DB#FFC0C06A00000201
(1739018027.721) RX 1DC#B40F8FFD0520C64C
(1739018027.723) RX 1C2#5B
(1739018027.723) RX 1D4#F70700000746007B
(1739018027.724) RX 1F2#10640000001E000C
(1739018027.724) RX 50B#000006C00060
(1739018027.729) RX 1DA#C16418000001002F
(1739018027.730) RX 11A#0140005500000115
(1739018027.731) RX 1DB#FFC0C06A00000384
(1739018027.731) RX 1DC#B40F8FFD08C0CB1B
(1739018027.731) RX 55B#C9405500E54013E8
(1739018027.732) RX 5BC#59032026B20620A0
(1739018027.733) RX 1C2#5C
(1739018027.734) RX 1D4#F7070000474600BC
(1739018027.734) RX 1F2#10640000001E010D
(1739018027.734) RX 284#00000000000074FA
(1739018027.739) RX 1DA#C1641800000101AA
(1739018027.740) RX 11A#01400055400002D8
(1739018027.741) RX 1DB#FFC0C06A0000008E
(1739018027.741) RX 1DC#B40F8FFD0CCCD8E4
(1739018027.743) RX 1C2#5D
(1739018027.744) RX 1D4#F707000087460070
(1739018027.744) RX 1F2#10640000001E020E
(1739018027.749) RX 1DA#C1641800000102A0
(1739018027.750) RX 11A#014000AA800003CE
(1739018027.751) RX 1DB#FFC0C06A0000010B
(1739018027.751) RX 1DC#B40F8FFD0130C9CE
(1739018027.753) RX 1C2#5E
(1739018027.754) RX 1D4#F7070000C74600B7
(1739018027.754) RX 1F2#10640000001E030F
(1739018027.755) RX 284#00000000000075FB
(1739018027.759) RX 1DA#C164180000010325
(1739018027.760) RX 11A#014000AAC0000003
(1739018027.761) RX 1DB#FFC0C06A00000201
(1739018027.761) RX 1DC#B40F8FFD0520C64C
(1739018027.763) RX 1C2#5F
(1739018027.764) RX 1D4#F70700000746007B
(1739018027.765) RX 1F2#10640000001E000C
(1739018027.765) RX 284#00000000000076FC
(1739018027.769) RX 1DA#C16418000001002F
(1739018027.770) RX 11A#0140005500000115
(1739018027.771) RX 1DB#FFC0C06A00000384
(1739018027.771) RX 1DC#B40F8FFD08C0CB1B
(1739018027.773) RX 1C2#50
(1739018027.775) RX 1D4#F7070000474600BC
(1739018027.775) RX 1F2#10640000001E010D
(1739018027.775) RX 54A#9E0070020000002C
(1739018027.776) RX 54B#0108801204000000
(1739018027.777) RX 54C#6B66000000005800
(1739018027.778) RX 54F#2101000007C08A23
(1739018027.779) RX 1DA#C1641800000101AA
(1739018027.780) RX 11A#01400055400002D8
(1739018027.781) RX 1DB#FFC0C06A0000008E
(1739018027.781) RX 1DC#B40F8FFD0CCCD8E4
(1739018027.783) RX 1C2#51
(1739018027.785) RX 1D4#F707000087460070
(1739018027.785) RX 1F2#10640000001E020E
(1739018027.785) RX 284#00000000000077FD
(1739018027.786) RX 50C#00000003B29A
(1739018027.789) RX 1DA#C1641800000102A0
(1739018027.790) RX 11A#014000AA800003CE
(1739018027.791) RX 1DB#FFC0C06A0000010B
(1739018027.791) RX 1DC#B40F8FFD0130C9CE
(1739018027.793) RX 1C2#52
(1739018027.795) RX 380#02041021000000B0
(1739018027.795) RX 5BF#0000000028000009
(1739018027.795) RX 1D4#F7070000C74600B7
(1739018027.795) RX 1F2#10640000001E030F
(1739018027.796) RX 5A9#9A44201304300000
(1739018027.799) RX 1DA#C164180000010325
(1739018027.800) RX 11A#014000AAC0000003
(1739018027.801) RX 1DB#FFC0C06A00000201
(1739018027.801) RX 1DC#B40F8FFD0520C64C
(1739018027.803) RX 1C2#53
(1739018027.805) RX 1D4#F70700000746007B
(1739018027.806) RX 1F2#10640000001E000C
(1739018027.806) RX 284#00000000000078FE
(1739018027.806) RX 50A#8572A00C8020
(1739018027.809) RX 1DA#C16418000001002F
(1739018027.810) RX 55A#002F2F005F315B68
(1739018027.810) RX 11A#0140005500000115
(1739018027.811) RX 1DB#FFC0C06A00000384
(1739018027.811) RX 1DC#B40F8FFD08C0CB1B
(1739018027.813) RX 1C2#54
(1739018027.815) RX 1D4#F7070000474600BC
(1739018027.816) RX 1F2#10640000001E010D
(1739018027.819) RX 1DA#C1641800000101AA
(1739018027.820) RX 11A#01400055400002D8
(1739018027.821) RX 1DB#FFC0C06A0000008E
(1739018027.821) RX 1DC#B40F8FFD0CCCD8E4
(1739018027.823) RX 1C2#55
(1739018027.826) RX 1D4#F707000087460070
(1739018027.826) RX 1F2#10640000001E020E
(1739018027.826) RX 284#00000000000079FF
(1739018027.826) RX 50B#000006C00060
(1739018027.829) RX 1DA#C1641800000102A0
(1739018027.830) RX 11A#014000AA800003CE
(1739018027.831) RX 1DB#FFC0C06A0000010B
(1739018027.832) RX 1DC#B40F8FFD0130C9CE
(1739018027.832) RX 55B#C940AA00E54010A5
(1739018027.832) RX 5BC#59032C26B3064080
(1739018027.833) RX 1C2#56
(1739018027.836) RX 1D4#F7070000C74600B7
(1739018027.836) RX 1F2#10640000001E030F
(1739018027.839) RX 1DA#C164180000010325
(1739018027.840) RX 11A#014000AAC0000003
(1739018027.841) RX 1DB#FFC0C06A00000201
(1739018027.841) RX 1DC#B40F8FFD0520C64C
(1739018027.842) RX 5C0#804C4C0004A01100
(1739018027.842) RX 5EB#E00FFFFFFFFFFFFF
(1739018027.843) RX 1C2#57
(1739018027.846) RX 1D4#F70700000746007B
(1739018027.847) RX 1F2#10640000001E000C
(1739018027.847) RX 284#0000000000007A00
(1739018027.849) RX 1DA#C16418000001002F
(1739018027.850) RX 11A#0140005500000115
(1739018027.851) RX 1DB#FFC0C06A00000384
(1739018027.852) RX 1DC#B40F8FFD08C0CB1B
(1739018027.853) RX 1C2#58
(1739018027.856) RX 1D4#F7070000474600BC
(1739018027.857) RX 1F2#10640000001E010D
(1739018027.859) RX 1DA#C1641800000101AA
(1739018027.860) RX 11A#01400055400002D8
(1739018027.861) RX 1DB#FFC0C06A0000008E
(1739018027.861) RX 1DC#B40F8FFD0CCCD8E4
(1739018027.863) RX 1C2#59
(1739018027.867) RX 1D4#F707000087460070
(1739018027.867) RX 1F2#10640000001E020E
(1739018027.867) RX 284#0000000000007B01
(1739018027.867) RX 5B9#67FF67FF28
(1739018027.869) RX 1DA#C1641800000102A0
(1739018027.870) RX 11A#014000AA800003CE
(1739018027.871) RX 1DB#FFC0C06A0000010B
(1739018027.872) RX 1DC#B40F8FFD0130C9CE
(1739018027.873) RX 1C2#5A
(1739018027.876) RX 54A#100070020000002C
(1739018027.877) RX 54B#0108801204000000
(1739018027.877) RX 1D4#F7070000C74600B7
(1739018027.877) RX 1F2#10640000001E030F
(1739018027.878) RX 54C#6B66000000005800
(1739018027.879) RX 54F#2101000007008A23
(1739018027.879) RX 1DA#C164180000010325
(1739018027.880) RX 11A#014000AAC0000003
(1739018027.881) RX 1DB#FFC0C06A00000201
(1739018027.881) RX 1DC#B40F8FFD0520C64C
(1739018027.883) RX 1C2#5B
(1739018027.887) RX 1D4#F70700000746007B
(1739018027.888) RX 1F2#10640000001E000C
(1739018027.888) RX 284#0000000000007C02
(1739018027.888) RX 50C#000000005DC8
(1739018027.889) RX 1DA#C16418000001002F
(1739018027.890) RX 11A#0140005500000115
(1739018027.891) RX 1DB#FFC0C06A00000384
(1739018027.892) RX 1DC#B40F8FFD08C0CB1B
(1739018027.893) RX 1C2#5C
(1739018027.895) RX 380#020410210000008D
(1739018027.895) RX 5BF#000000002800001A
(1739018027.897) RX 1D4#F7070000474600BC
(1739018027.898) RX 1F2#10640000001E010D
(1739018027.899) RX 1DA#C1641800000101AA
(1739018027.900) RX 11A#01400055400002D8
(1739018027.901) RX 1DB#FFC0C06A0000008E
(1739018027.901) RX 1DC#B40F8FFD0CCCD8E4
(1739018027.903) RX 1C2#5D
(1739018027.908) RX 1D4#F707000087460070
(1739018027.908) RX 1F2#10640000001E020E
(1739018027.908) RX 284#0000000000007D03
(1739018027.908) RX 50A#8512A00C8020
(1739018027.909) RX 1DA#C1641800000102A0
(1739018027.910) RX 55A#002F2F005F315B68
(1739018027.910) RX 11A#014000AA800003CE
(1739018027.911) RX 1DB#FFC0C06A0000010B
(1739018027.912) RX 1DC#B40F8FFD0130C9CE
(1739018027.913) RX 1C2#5E
(1739018027.918) RX 1D4#F7070000C74600B7
(1739018027.918) RX 1F2#10640000001E030F
(1739018027.919) RX 1DA#C164180000010325
(1739018027.920) RX 11A#014000AAC0000003
(1739018027.921) RX 1DB#FFC0C06A00000201
(1739018027.922) RX 1DC#B40F8FFD0520C64C
(1739018027.923) RX 1C2#5F
(1739018027.928) RX 1D4#F70700000746007B
(1739018027.928) RX 1F2#10640000001E000C
(1739018027.929) RX 284#0000000000007E04
(1739018027.929) RX 50B#000006C00060
(1739018027.929) RX 1DA#C16418000001002F
(1739018027.930) RX 11A#0140005500000115
(1739018027.931) RX 1DB#FFC0C06A00000384
(1739018027.932) RX 1DC#B40F8FFD08C0CB1B
(1739018027.932) RX 55B#C9405500E5401167
(1739018027.932) RX 5BC#59032C26B3064080
(1739018027.933) RX 1C2#50
(1739018027.938) RX 1D4#F7070000474600BC
(1739018027.939) RX 1F2#10640000001E010D
(1739018027.939) RX 1DA#C1641800000101AA
(1739018027.940) RX 11A#01400055400002D8
(1739018027.941) RX 1DB#FFC0C06A0000008E
(1739018027.942) RX 1DC#B40F8FFD0CCCD8E4
(1739018027.943) RX 1C2#51
(1739018027.949) RX 1D4#F707000087460070
(1739018027.949) RX 1F2#10640000001E020E
(1739018027.949) RX 284#0000000000007F05
(1739018027.949) RX 1DA#C1641800000102A0
(1739018027.950) RX 11A#014000AA800003CE
(1739018027.951) RX 1DB#FFC0C06A0000010B
(1739018027.952) RX 1DC#B40F8FFD0130C9CE
(1739018027.953) RX 1C2#52
(1739018027.959) RX 1D4#F7070000C74600B7
(1739018027.959) RX 1F2#10640000001E030F
(1739018027.959) RX 1DA#C164180000010325
(1739018027.960) RX 11A#014000AAC0000003
(1739018027.961) RX 1DB#FFC0C06A00000201
(1739018027.962) RX 1DC#B40F8FFD0520C64C
(1739018027.963) RX 1C2#53
(1739018027.969) RX 1D4#F70700000746007B
(1739018027.969) RX 1DA#C16418000001002F
(1739018027.970) RX 1F2#10640000001E000C
(1739018027.970) RX 284#0000000000008006
(1739018027.970) RX 11A#0140005500000115
(1739018027.972) RX 1DB#FFC0C06A00000384
(1739018027.972) RX 1DC#B40F8FFD08C0CB1B
(1739018027.974) RX 1C2#54
(1739018027.976) RX 54A#9E0070020000002C
(1739018027.977) RX 54B#0108801204000000
(1739018027.978) RX 54C#6B66000000005800
(1739018027.979) RX 54F#2101000007408A23
(1739018027.979) RX 1DA#C1641800000101AA
(1739018027.980) RX 1D4#F7070000474600BC
(1739018027.980) RX 1F2#10640000001E010D
(1739018027.980) RX 11A#01400055400002D8
(1739018027.981) RX 1DB#FFC0C06A0000008E
(1739018027.982) RX 1DC#B40F8FFD0CCCD8E4
(1739018027.984) RX 1C2#55
(1739018027.989) RX 1DA#C1641800000102A0
(1739018027.990) RX 1D4#F707000087460070
(1739018027.990) RX 1F2#10640000001E020E
(1739018027.990) RX 284#0000000000008107
(1739018027.990) RX 50C#00000001B231
(1739018027.991) RX 11A#014000AA800003CE
(1739018027.992) RX 1DB#FFC0C06A0000010B
(1739018027.992) RX 1DC#B40F8FFD0130C9CE
(1739018027.994) RX 1C2#56
(1739018027.995) RX 380#020410210000009E
(1739018027.995) RX 5BF#000000002800002B
(1739018027.999) RX 1DA#C164180000010325
(1739018028.000) RX 11A#014000AAC0000003
(1739018028.000) RX 1D4#F7070000C74600B7
(1739018028.000) RX 1F2#10640000001E030F
(1739018028.001) RX 1DB#FFC0C06A00000201
(1739018028.002) RX 1DC#B40F8FFD0520C64C
(1739018028.004) RX 1C2#57
(1739018028.009) RX 1DA#C16418000001002F
(1739018028.010) RX 55A#002F2F005F315B68
(1739018028.010) RX 1D4#F70700000746007B
(1739018028.010) RX 1F2#10640000001E000C
(1739018028.011) RX 11A#0140005500000115
(1739018028.011) RX 284#0000000000008208
(1739018028.011) RX 50A#8532A00C8020
(1739018028.012) RX 1DB#FFC0C06A00000384
(1739018028.012) RX 1DC#B40F8FFD08C0CB1B
(1739018028.014) RX 1C2#58
(1739018028.019) RX 1DA#C1641800000101AA
(1739018028.020) RX 11A#01400055400002D8
(1739018028.020) RX 1D4#F7070000474600BC
(1739018028.021) RX 1F2#10640000001E010D
(1739018028.022) RX 1DB#FFC0C06A0000008E
(1739018028.022) RX 1DC#B40F8FFD0CCCD8E4
(1739018028.024) RX 1C2#59
(1739018028.029) RX 1DA#C1641800000102A0
(1739018028.030) RX 11A#014000AA800003CE
(1739018028.031) RX 1D4#F707000087460070
(1739018028.031) RX 1F2#10640000001E020E
(1739018028.031) RX 284#0000000000008309
(1739018028.031) RX 50B#000006C00060
(1739018028.032) RX 1DB#FFC0C06A0000010B
(1739018028.032) RX 1DC#B40F8FFD0130C9CE
(1739018028.032) RX 55B#C940AA00E540122A
(1739018028.033) RX 5BC#59032C26B3064080
(1739018028.034) RX 1C2#5A
(1739018028.039) RX 1DA#C164180000010325
(1739018028.040) RX 11A#014000AAC0000003
(1739018028.041) RX 1D4#F7070000C74600B7
(1739018028.041) RX 1F2#10640000001E030F
(1739018028.042) RX 1DB#FFC0C06A00000201
(1739018028.042) RX 1DC#B40F8FFD0520C64C
(1739018028.044) RX 1C2#5B
(1739018028.049) RX 1DA#C16418000001002F
(1739018028.050) RX 11A#0140005500000115
(1739018028.051) RX 1D4#F70700000746007B
(1739018028.051) RX 1F2#10640000001E000C
(1739018028.052) RX 1DB#FFC0C06A00000384
(1739018028.052) RX 284#000000000000840A
(1739018028.052) RX 1DC#B40F8FFD08C0CB1B
(1739018028.054) RX 1C2#5C
(1739018028.059) RX 1DA#C1641800000101AA
(1739018028.060) RX 11A#01400055400002D8
(1739018028.061) RX 1D4#F7070000474600BC
(1739018028.062) RX 1F2#10640000001E010D
(1739018028.062) RX 1DB#FFC0C06A0000008E
(1739018028.062) RX 1DC#B40F8FFD0CCCD8E4
(1739018028.064) RX 1C2#5D
(1739018028.069) RX 1DA#C1641800000102A0
(1739018028.070) RX 11A#014000AA800003CE
(1739018028.072) RX 1D4#F707000087460070
(1739018028.072) RX 1DB#FFC0C06A0000010B
(1739018028.072) RX 1F2#10640000001E020E
(1739018028.072) RX 1DC#B40F8FFD0130C9CE
(1739018028.073) RX 284#000000000000850B
(1739018028.074) RX 1C2#5E
(1739018028.076) RX 54A#100070020000002C
(1739018028.077) RX 54B#0108801204000000
(1739018028.078) RX 54C#6B66000000005800
(1739018028.079) RX 54F#2101000007808A23
(1739018028.079) RX 1DA#C164180000010325
(1739018028.080) RX 11A#014000AAC0000003
(1739018028.082) RX 1DB#FFC0C06A00000201
(1739018028.082) RX 1D4#F7070000C74600B7
(1739018028.082) RX 1DC#B40F8FFD0520C64C
(1739018028.082) RX 1F2#10640000001E030F
(1739018028.084) RX 1C2#5F
(1739018028.089) RX 1DA#C16418000001002F
(1739018028.090) RX 11A#0140005500000115
(1739018028.092) RX 1DB#FFC0C06A00000384
(1739018028.092) RX 1DC#B40F8FFD08C0CB1B
(1739018028.092) RX 1D4#F70700000746007B
(1739018028.093) RX 1F2#10640000001E000C
(1739018028.093) RX 284#000000000000860C
(1739018028.093) RX 50C#000000025D63
(1739018028.094) RX 1C2#50
(1739018028.095) RX 380#02041021000000AF
(1739018028.095) RX 5BF#000000002800003C
(1739018028.099) RX 1DA#C1641800000101AA
(1739018028.100) RX 11A#01400055400002D8
(1739018028.102) RX 1DB#FFC0C06A0000008E
(1739018028.102) RX 1DC#B40F8FFD0CCCD8E4
(1739018028.102) RX 1D4#F7070000474600BC
(1739018028.103) RX 1F2#10640000001E010D
(1739018028.104) RX 1C2#51
(1739018028.109) RX 1DA#C1641800000102A0
(1739018028.110) RX 55A#002F2F005F315B68
(1739018028.110) RX 11A#014000AA800003CE
(1739018028.112) RX 1DB#FFC0C06A0000010B
(1739018028.112) RX 1DC#B40F8FFD0130C9CE
(1739018028.113) RX 1D4#F707000087460070
(1739018028.113) RX 1F2#10640000001E020E
(1739018028.113) RX 284#000000000000870D
(1739018028.113) RX 50A#8552A00C8020
(1739018028.114) RX 1C2#52
(1739018028.119) RX 1DA#C164180000010325
(1739018028.120) RX 11A#014000AAC0000003
(1739018028.122) RX 1DB#FFC0C06A00000201
(1739018028.122) RX 1DC#B40F8FFD0520C64C
(1739018028.123) RX 1D4#F7070000C74600B7
(1739018028.123) RX 1F2#10640000001E030F
(1739018028.124) RX 1C2#53
(1739018028.129) RX 1DA#C16418000001002F
(1739018028.130) RX 11A#0140005500000115
(1739018028.132) RX 1DB#FFC0C06A00000384
(1739018028.132) RX 1DC#B40F8FFD08C0CB1B
(1739018028.133) RX 55B#C9405500E54013E8
(1739018028.133) RX 5BC#59032C26B3064080
(1739018028.133) RX 1D4#F70700000746007B
(1739018028.133) RX 1F2#10640000001E000C
(1739018028.134) RX 284#000000000000880E
(1739018028.134) RX 50B#000006C00060
(1739018028.134) RX 1C2#54
(1739018028.139) RX 1DA#C1641800000101AA
(1739018028.140) RX 11A#01400055400002D8
(1739018028.142) RX 1DB#FFC0C06A0000008E
(1739018028.142) RX 1DC#B40F8FFD0CCCD8E4
(1739018028.143) RX 1D4#F7070000474600BC
(1739018028.144) RX 1F2#10640000001E010D
(1739018028.144) RX 1C2#55
(1739018028.149) RX 1DA#C1641800000102A0
(1739018028.150) RX 11A#014000AA800003CE
(1739018028.152) RX 1DB#FFC0C06A0000010B
(1739018028.152) RX 1DC#B40F8FFD0130C9CE
(1739018028.154) RX 1D4#F707000087460070
(1739018028.154) RX 1F2#10640000001E020E
(1739018028.154) RX 284#000000000000890F
 1739018028.133) RX 1F2#10640000001E000C
(1739018028.134) RX 284#000000000000880E
(1739018028.134) RX 50B#000006C00060
(1739018028.134) RX 1C2#54
(1739018028.139) RX 1DA#C1641800000101AA
(1739018028.140) RX 11A#01400055400002D8
(1739018028.142) RX 1DB#FFC0C06A0000008E
(1739018028.142) RX 1DC#B40F8FFD0CCCD8E4
(1739018028.143) RX 1D4#F7070000474600BC
(1739018028.144) RX 1F2#10640000001E010D
(1739018028.14(1739018028.154) RX 1C2#56
(1739018028.159) RX 1DA#C164180000010325
(1739018028.160) RX 11A#014000AAC0000003
(1739018028.162) RX 1DB#FFC0C06A00000201
(1739018028.162) RX 1DC#B40F8FFD0520C64C
(1739018028.164) RX 1D4#F7070000C74600B7
(1739018028.164) RX 1F2#10640000001E030F
(1739018028.164) RX 1C2#57
(1739018028.169) RX 1DA#C16418000001002F
(1739018028.170) RX 11A#0140005500000115
(1739018028.172) RX 1DB#FFC0C06A00000384
(1739018028.172) RX 1DC#B40F8FFD08C0CB1B
(1739018028.174) RX 1D4#F70700000746007B
(1739018028.174) RX 1C2#58
(1739018028.174) RX 1F2#10640000001E000C
(1739018028.175) RX 284#0000000000008A10
(1739018028.176) RX 54A#9E0070020000002C
(1739018028.177) RX 54B#0108801204000000
(1739018028.178) RX 54C#6B66000000005800
(1739018028.179) RX 54F#2101000007C08A23
(1739018028.179) RX 1DA#C1641800000101AA
(1739018028.180) RX 11A#01400055400002D8
(1739018028.182) RX 1DB#FFC0C06A0000008E
(1739018028.182) RX 1DC#B40F8FFD0CCCD8E4
(1739018028.184) RX 1C2#59
(1739018028.184) RX 1D4#F7070000474600BC
(1739018028.185) RX 1F2#10640000001E010D
(1739018028.185) RX 284#0000000000008B11
(1739018028.189) RX 1DA#C1641800000102A0
(1739018028.190) RX 11A#014000AA800003CE
(1739018028.192) RX 1DB#FFC0C06A0000010B
(1739018028.192) RX 1DC#B40F8FFD0130C9CE
(1739018028.194) RX 1C2#5A
(1739018028.194) RX 1D4#F707000087460070
(1739018028.195) RX 1F2#10640000001E020E
(1739018028.195) RX 50C#00000003B29A
(1739018028.195) RX 380#02041021000000B0
(1739018028.195) RX 5BF#0000000028000009
(1739018028.199) RX 1DA#C164180000010325
(1739018028.200) RX 11A#014000AAC0000003
(1739018028.202) RX 1DB#FFC0C06A00000201
(1739018028.202) RX 1DC#B40F8FFD0520C64C
(1739018028.204) RX 1C2#5B
(1739018028.205) RX 1D4#F7070000C74600B7
(1739018028.205) RX 1F2#10640000001E030F
(1739018028.205) RX 284#0000000000008C12
(1739018028.209) RX 1DA#C16418000001002F
(1739018028.210) RX 55A#002F2F005F315B68
(1739018028.210) RX 11A#0140005500000115
(1739018028.212) RX 1DB#FFC0C06A00000384
(1739018028.212) RX 1DC#B40F8FFD08C0CB1B
(1739018028.214) RX 1C2#5C
(1739018028.215) RX 1D4#F70700000746007B
(1739018028.215) RX 1F2#10640000001E000C
(1739018028.215) RX 50A#8572A00C8020
(1739018028.219) RX 1DA#C1641800000101AA
(1739018028.220) RX 11A#01400055400002D8
(1739018028.222) RX 1DB#FFC0C06A0000008E
(1739018028.222) RX 1DC#B40F8FFD0CCCD8E4
(1739018028.224) RX 1C2#5D
(1739018028.225) RX 1D4#F7070000474600BC
(1739018028.225) RX 1F2#10640000001E010D
(1739018028.226) RX 284#0000000000008D13
(1739018028.229) RX 1DA#C1641800000102A0
(1739018028.230) RX 11A#014000AA800003CE
(1739018028.232) RX 1DB#FFC0C06A0000010B
(1739018028.233) RX 1DC#B40F8FFD0130C9CE
(1739018028.233) RX 55B#C940AA00E54010A5
(1739018028.233) RX 5BC#59032C26B3064080
(1739018028.234) RX 1C2#5E
(1739018028.235) RX 1D4#F707000087460070
(1739018028.236) RX 1F2#10640000001E020E
(1739018028.236) RX 50B#000006C00060
(1739018028.239) RX 1DA#C164180000010325
(1739018028.240) RX 11A#014000AAC0000003
(1739018028.242) RX 1DB#FFC0C06A00000201
(1739018028.242) RX 1DC#B40F8FFD0520C64C
(1739018028.244) RX 1C2#5F
(1739018028.246) RX 1D4#F7070000C74600B7
(1739018028.246) RX 1F2#10640000001E030F
(1739018028.246) RX 284#0000000000008E14
(1739018028.249) RX 1DA#C16418000001002F
(1739018028.250) RX 11A#0140005500000115
(1739018028.252) RX 1DB#FFC0C06A00000384
(1739018028.253) RX 1DC#B40F8FFD08C0CB1B
(1739018028.254) RX 1C2#50
(1739018028.256) RX 1D4#F70700000746007B
(1739018028.256) RX 1F2#10640000001E000C
(1739018028.259) RX 1DA#C1641800000101AA
(1739018028.260) RX 11A#01400055400002D8
(1739018028.262) RX 1DB#FFC0C06A0000008E
(1739018028.262) RX 1DC#B40F8FFD0CCCD8E4
(1739018028.264) RX 1C2#51
(1739018028.266) RX 1D4#F7070000474600BC
(1739018028.266) RX 1F2#10640000001E010D
(1739018028.267) RX 284#0000000000008F15
(1739018028.269) RX 1DA#C1641800000102A0
(1739018028.270) RX 11A#014000AA800003CE
(1739018028.272) RX 1DB#FFC0C06A0000010B
(1739018028.273) RX 1DC#B40F8FFD0130C9CE
(1739018028.274) RX 1C2#52
(1739018028.276) RX 54A#100070020000002C
(1739018028.276) RX 1D4#F707000087460070
(1739018028.277) RX 1F2#10640000001E020E
(1739018028.277) RX 54B#0108801204000000
(1739018028.278) RX 54C#6B66000000005800
(1739018028.279) RX 54F#2101000007008A23
(1739018028.279) RX 1DA#C164180000010325
(1739018028.280) RX 11A#014000AAC0000003
(1739018028.282) RX 1DB#FFC0C06A00000201
(1739018028.282) RX 1DC#B40F8FFD0520C64C
(1739018028.284) RX 1C2#53
(1739018028.287) RX 1D4#F7070000C74600B7
(1739018028.287) RX 1F2#10640000001E030F
(1739018028.287) RX 284#0000000000009016
(1739018028.289) RX 1DA#C16418000001002F
(1739018028.290) RX 11A#0140005500000115
(1739018028.292) RX 1DB#FFC0C06A00000384
(1739018028.293) RX 1DC#B40F8FFD08C0CB1B
(1739018028.294) RX 1C2#54
(1739018028.295) RX 380#020410210000008D
(1739018028.295) RX 5BF#000000002800001A
(1739018028.297) RX 1D4#F70700000746007B
(1739018028.297) RX 1F2#10640000001E000C
(1739018028.297) RX 50C#000000005DC8
(1739018028.299) RX 1DA#C1641800000101AA
(1739018028.300) RX 11A#01400055400002D8
(1739018028.302) RX 1DB#FFC0C06A0000008E
(1739018028.303) RX 1DC#B40F8FFD0CCCD8E4
(1739018028.304) RX 1C2#55
(1739018028.307) RX 1D4#F7070000474600BC
(1739018028.307) RX 1F2#10640000001E010D
(1739018028.308) RX 284#0000000000009117
(1739018028.308) RX 5A9#9A44201304300000
(1739018028.309) RX 1DA#C1641800000102A0
(1739018028.310) RX 55A#002F2F005F315B68
(1739018028.310) RX 11A#014000AA800003CE
(1739018028.312) RX 1DB#FFC0C06A0000010B
(1739018028.313) RX 1DC#B40F8FFD0130C9CE
(1739018028.314) RX 1C2#56
(1739018028.317) RX 1D4#F707000087460070
(1739018028.318) RX 1F2#10640000001E020E
(1739018028.318) RX 50A#8512A00C8020
(1739018028.319) RX 1DA#C164180000010325
(1739018028.320) RX 11A#014000AAC0000003
(1739018028.322) RX 1DB#FFC0C06A00000201
(1739018028.323) RX 1DC#B40F8FFD0520C64C
(1739018028.324) RX 1C2#57
(1739018028.328) RX 1D4#F7070000C74600B7
(1739018028.328) RX 1F2#10640000001E030F
(1739018028.328) RX 284#0000000000009218
(1739018028.329) RX 1DA#C16418000001002F
(1739018028.330) RX 11A#0140005500000115
(1739018028.332) RX 1DB#FFC0C06A00000384
(1739018028.333) RX 1DC#B40F8FFD08C0CB1B
(1739018028.333) RX 55B#C9405500E5401167
(1739018028.333) RX 5BC#59032026B2040080
(1739018028.334) RX 1C2#58
(1739018028.338) RX 1D4#F70700000746007B
(1739018028.338) RX 1F2#10640000001E000C
(1739018028.338) RX 50B#000006C00060
(1739018028.339) RX 1DA#C1641800000101AA
(1739018028.340) RX 11A#01400055400002D8
(1739018028.342) RX 1DB#FFC0C06A0000008E
(1739018028.343) RX 1DC#B40F8FFD0CCCD8E4
(1739018028.343) RX 5C0#404C4C0004E41100
(1739018028.343) RX 5EB#E00FFFFFFFFFFFFF
(1739018028.344) RX 1C2#59
(1739018028.348) RX 1D4#F7070000474600BC
(1739018028.348) RX 1F2#10640000001E010D
(1739018028.349) RX 284#0000000000009319
(1739018028.349) RX 1DA#C1641800000102A0
(1739018028.350) RX 11A#014000AA800003CE
(1739018028.352) RX 1DB#FFC0C06A0000010B
(1739018028.353) RX 1DC#B40F8FFD0130C9CE
(1739018028.354) RX 1C2#5A
(1739018028.358) RX 1D4#F707000087460070
(1739018028.359) RX 1F2#10640000001E020E
(1739018028.359) RX 1DA#C164180000010325
(1739018028.360) RX 11A#014000AAC0000003
(1739018028.362) RX 1DB#FFC0C06A00000201
(1739018028.363) RX 1DC#B40F8FFD0520C64C
(1739018028.364) RX 1C2#5B
(1739018028.369) RX 1D4#F7070000C74600B7
(1739018028.369) RX 1F2#10640000001E030F
(1739018028.369) RX 284#000000000000941A
(1739018028.369) RX 1DA#C16418000001002F
(1739018028.370) RX 11A#0140005500000115
(1739018028.372) RX 1DB#FFC0C06A00000384
(1739018028.373) RX 1DC#B40F8FFD08C0CB1B
(1739018028.374) RX 1C2#5C
(1739018028.376) RX 54A#9E0070020000002C
(1739018028.377) RX 54B#0108801204000000
(1739018028.378) RX 54C#6B66000000005800
(1739018028.379) RX 1D4#F70700000746007B
(1739018028.379) RX 1F2#10640000001E000C
(1739018028.379) RX 1DA#C1641800000101AA
(1739018028.380) RX 54F#2101000007408A23
(1739018028.380) RX 5B9#67FF67FF28
(1739018028.380) RX 11A#01400055400002D8
(1739018028.382) RX 1DB#FFC0C06A0000008E
(1739018028.383) RX 1DC#B40F8FFD0CCCD8E4
(1739018028.384) RX 1C2#5D
(1739018028.389) RX 1D4#F7070000474600BC
(1739018028.389) RX 1DA#C1641800000102A0
(1739018028.390) RX 1F2#10640000001E010D
(1739018028.390) RX 284#000000000000951B
(1739018028.390) RX 11A#014000AA800003CE
(1739018028.393) RX 1DB#FFC0C06A0000010B
(1739018028.393) RX 1DC#B40F8FFD0130C9CE
(1739018028.394) RX 1C2#5E
(1739018028.395) RX 380#020410210000009E
(1739018028.395) RX 5BF#000000002800002B
(1739018028.399) RX 1DA#C164180000010325
(1739018028.400) RX 1D4#F707000087460070
(1739018028.400) RX 11A#014000AAC0000003
(1739018028.400) RX 1F2#10640000001E020E
(1739018028.400) RX 50C#00000001B231
(1739018028.402) RX 1DB#FFC0C06A00000201
(1739018028.403) RX 1DC#B40F8FFD0520C64C
(1739018028.405) RX 1C2#5F
(1739018028.409) RX 1DA#C16418000001002F
(1739018028.410) RX 55A#002F2F005F315B68
(1739018028.410) RX 1D4#F7070000C74600B7
(1739018028.410) RX 1F2#10640000001E030F
(1739018028.410) RX 284#000000000000961C
(1739018028.410) RX 11A#0140005500000115
(1739018028.413) RX 1DB#FFC0C06A00000384
(1739018028.413) RX 1DC#B40F8FFD08C0CB1B
(1739018028.415) RX 1C2#50
(1739018028.419) RX 1DA#C1641800000101AA
(1739018028.420) RX 1D4#F70700000746007B
(1739018028.420) RX 1F2#10640000001E000C
(1739018028.420) RX 11A#01400055400002D8
(1739018028.421) RX 50A#8532A00C8020
(1739018028.423) RX 1DB#FFC0C06A0000008E
(1739018028.423) RX 1DC#B40F8FFD0CCCD8E4
(1739018028.425) RX 1C2#51
(1739018028.429) RX 1DA#C1641800000102A0
(1739018028.430) RX 1D4#F7070000474600BC
(1739018028.430) RX 1F2#10640000001E010D
(1739018028.431) RX 11A#014000AA800003CE
(1739018028.431) RX 284#000000000000971D
(1739018028.433) RX 1DB#FFC0C06A0000010B
(1739018028.433) RX 1DC#B40F8FFD0130C9CE
(1739018028.433) RX 55B#C940AA00E540122A
(1739018028.434) RX 5BC#59032026B2040080
(1739018028.435) RX 1C2#52
(1739018028.439) RX 1DA#C164180000010325
(1739018028.440) RX 11A#014000AAC0000003
(1739018028.440) RX 1D4#F707000087460070
(1739018028.441) RX 1F2#10640000001E020E
(1739018028.441) RX 50B#000006C00060
(1739018028.443) RX 1DB#FFC0C06A00000201
(1739018028.443) RX 1DC#B40F8FFD0520C64C
(1739018028.445) RX 1C2#53
(1739018028.449) RX 1DA#C16418000001002F
(1739018028.450) RX 11A#0140005500000115
(1739018028.451) RX 1D4#F7070000C74600B7
(1739018028.451) RX 1F2#10640000001E030F
(1739018028.451) RX 284#000000000000981E
(1739018028.453) RX 1DB#FFC0C06A00000384
(1739018028.453) RX 1DC#B40F8FFD08C0CB1B
(1739018028.455) RX 1C2#54
(1739018028.459) RX 1DA#C1641800000101AA
(1739018028.460) RX 11A#01400055400002D8
(1739018028.461) RX 1D4#F70700000746007B
(1739018028.461) RX 1F2#10640000001E000C
(1739018028.463) RX 1DB#FFC0C06A0000008E
(1739018028.463) RX 1DC#B40F8FFD0CCCD8E4
(1739018028.465) RX 1C2#55
(1739018028.469) RX 1DA#C1641800000102A0
(1739018028.470) RX 11A#014000AA800003CE
(1739018028.471) RX 1D4#F7070000474600BC
(1739018028.471) RX 1F2#10640000001E010D
(1739018028.472) RX 284#000000000000991F
(1739018028.473) RX 1DB#FFC0C06A0000010B
(1739018028.473) RX 1DC#B40F8FFD0130C9CE
(1739018028.475) RX 1C2#56
(1739018028.476) RX 54A#100070020000002C
(1739018028.477) RX 54B#0108801204000000
(1739018028.478) RX 54C#6B66000000005800
(1739018028.479) RX 54F#2101000007808A23
(1739018028.479) RX 1DA#C164180000010325
(1739018028.480) RX 11A#014000AAC0000003
(1739018028.481) RX 1D4#F707000087460070
(1739018028.482) RX 1F2#10640000001E020E
(1739018028.483) RX 1DB#FFC0C06A00000201
(1739018028.483) RX 1DC#B40F8FFD0520C64C
(1739018028.485) RX 1C2#57
(1739018028.489) RX 1DA#C16418000001002F
(1739018028.490) RX 11A#0140005500000115
(1739018028.492) RX 1D4#F7070000C74600B7
(1739018028.492) RX 1F2#10640000001E030F
(1739018028.492) RX 284#0000000000009A20
(1739018028.493) RX 1DB#FFC0C06A00000384
(1739018028.493) RX 1DC#B40F8FFD08C0CB1B
(1739018028.495) RX 1C2#58
(1739018028.495) RX 380#02041021000000AF
(1739018028.496) RX 5BF#000000002800003C
(1739018028.499) RX 1DA#C1641800000101AA
(1739018028.500) RX 11A#01400055400002D8
(1739018028.502) RX 1D4#F70700000746007B
(1739018028.502) RX 1F2#10640000001E000C
(1739018028.502) RX 50C#000000025D63
(1739018028.503) RX 1DB#FFC0C06A0000008E
(1739018028.503) RX 1DC#B40F8FFD0CCCD8E4
(1739018028.505) RX 1C2#59
(1739018028.509) RX 1DA#C1641800000102A0
(1739018028.509) RX 55A#002F2F005F315B68
(1739018028.510) RX 11A#014000AA800003CE
(1739018028.512) RX 1D4#F7070000474600BC
(1739018028.512) RX 1F2#10640000001E010D
(1739018028.513) RX 284#0000000000009B21
(1739018028.513) RX 1DB#FFC0C06A0000010B
(1739018028.513) RX 1DC#B40F8FFD0130C9CE
(1739018028.515) RX 1C2#5A
(1739018028.519) RX 1DA#C164180000010325
(1739018028.520) RX 11A#014000AAC0000003
(1739018028.522) RX 1D4#F707000087460070
(1739018028.523) RX 1F2#10640000001E020E
(1739018028.523) RX 50A#8552A00C8020
(1739018028.523) RX 1DB#FFC0C06A00000201
(1739018028.523) RX 1DC#B40F8FFD0520C64C
(1739018028.525) RX 1C2#5B
(1739018028.529) RX 1DA#C16418000001002F
(1739018028.530) RX 11A#0140005500000115
(1739018028.533) RX 1D4#F7070000C74600B7
(1739018028.533) RX 1F2#10640000001E030F
(1739018028.533) RX 284#0000000000009C22
(1739018028.533) RX 1DB#FFC0C06A00000384
(1739018028.534) RX 1DC#B40F8FFD08C0CB1B
(1739018028.534) RX 55B#C9405500E54013E8
(1739018028.534) RX 5BC#59032026B2040080
(1739018028.535) RX 1C2#5C
(1739018028.539) RX 1DA#C1641800000101AA
(1739018028.540) RX 11A#01400055400002D8
(1739018028.543) RX 1D4#F70700000746007B
(1739018028.543) RX 1DB#FFC0C06A0000008E
(1739018028.543) RX 1F2#10640000001E000C
(1739018028.544) RX 1DC#B40F8FFD0CCCD8E4
(1739018028.544) RX 50B#000006C00060
(1739018028.545) RX 1C2#5D
(1739018028.549) RX 1DA#C1641800000102A0
(1739018028.550) RX 11A#014000AA800003CE
(1739018028.553) RX 1DB#FFC0C06A0000010B
(1739018028.553) RX 1D4#F7070000474600BC
(1739018028.553) RX 1DC#B40F8FFD0130C9CE
(1739018028.554) RX 1F2#10640000001E010D
(1739018028.554) RX 284#0000000000009D23
(1739018028.555) RX 1C2#5E
(1739018028.559) RX 1DA#C164180000010325
(1739018028.560) RX 11A#014000AAC0000003
(1739018028.563) RX 1DB#FFC0C06A00000201
(1739018028.563) RX 1D4#F707000087460070
(1739018028.563) RX 1DC#B40F8FFD0520C64C
(1739018028.564) RX 1F2#10640000001E020E
(1739018028.565) RX 1C2#5F
(1739018028.569) RX 1DA#C16418000001002F
(1739018028.570) RX 11A#0140005500000115
(1739018028.573) RX 1DB#FFC0C06A00000384
(1739018028.573) RX 1DC#B40F8FFD08C0CB1B
(1739018028.574) RX 1D4#F7070000C74600B7
(1739018028.574) RX 1F2#10640000001E030F
(1739018028.574) RX 284#0000000000009E24
(1739018028.575) RX 1C2#50
(1739018028.576) RX 54A#9E0070020000002C
(1739018028.577) RX 54B#0108801204000000
(1739018028.578) RX 54C#6B66000000005800
(1739018028.579) RX 54F#2101000007C08A23
(1739018028.579) RX 1DA#C1641800000101AA
(1739018028.580) RX 11A#01400055400002D8
(1739018028.583) RX 1DB#FFC0C06A0000008E
(1739018028.583) RX 1DC#B40F8FFD0CCCD8E4
(1739018028.584) RX 1D4#F70700000746007B
(1739018028.584) RX 1F2#10640000001E000C
(1739018028.585) RX 1C2#51
(1739018028.589) RX 1DA#C1641800000102A0
(1739018028.590) RX 11A#014000AA800003CE
(1739018028.593) RX 1DB#FFC0C06A0000010B
(1739018028.593) RX 1DC#B40F8FFD0130C9CE
(1739018028.594) RX 1D4#F7070000474600BC
(1739018028.594) RX 1F2#10640000001E010D
(1739018028.595) RX 284#0000000000009F25
(1739018028.595) RX 1C2#52
(1739018028.595) RX 380#02041021000000B0
(1739018028.596) RX 5BF#0000000028000009
(1739018028.599) RX 1DA#C164180000010325
(1739018028.600) RX 11A#014000AAC0000003
(1739018028.603) RX 1DB#FFC0C06A00000201
(1739018028.603) RX 1DC#B40F8FFD0520C64C
(1739018028.604) RX 1D4#F707000087460070
(1739018028.605) RX 1F2#10640000001E020E
(1739018028.605) RX 284#000000000000A026
(1739018028.605) RX 50C#00000003B29A
(1739018028.605) RX 1C2#53
(1739018028.609) RX 1DA#C16418000001002F
(1739018028.609) RX 55A#002F2F005F315B68
(1739018028.610) RX 11A#0140005500000115
(1739018028.613) RX 1DB#FFC0C06A00000384
(1739018028.613) RX 1DC#B40F8FFD08C0CB1B
(1739018028.614) RX 1D4#F7070000C74600B7
(1739018028.615) RX 1F2#10640000001E030F
(1739018028.615) RX 1C2#54
(1739018028.595) RX 380#02041021000000B0
(1739018028.596) RX 5BF#0000000028000009
(1739018028.599) RX 1DA#C164180000010325
(1739018028.600) RX 11A#014000AAC0000003
(1739018028.603) RX 1DB#FFC0C06A00000201
(1739018028.603) RX 1DC#B40F8FFD0520C64C
(1739018028.604) RX 1D4#F707000087460070
(1739018028.605) RX 1F2#10640000001E020E
(1739018028.6(1739018028.619) RX 1DA#C1641800000101AA
(1739018028.620) RX 11A#01400055400002D8
(1739018028.623) RX 1DB#FFC0C06A0000008E
(1739018028.623) RX 1DC#B40F8FFD0CCCD8E4
(1739018028.625) RX 1D4#F70700000746007B
(1739018028.625) RX 1F2#10640000001E000C
(1739018028.625) RX 1C2#55
(1739018028.625) RX 284#000000000000A127
(1739018028.626) RX 50A#8572A00C8020
(1739018028.629) RX 1DA#C1641800000102A0
(1739018028.630) RX 11A#014000AA800003CE
(1739018028.633) RX 1DB#FFC0C06A0000010B
(1739018028.634) RX 1DC#B40F8FFD0130C9CE
(1739018028.634) RX 55B#C940AA00E54010A5
(1739018028.634) RX 5BC#59032026B2040080
(1739018028.635) RX 1D4#F7070000474600BC
(1739018028.635) RX 1C2#56
(1739018028.635) RX 1F2#10640000001E010D
(1739018028.639) RX 1DA#C164180000010325
(1739018028.640) RX 11A#014000AAC0000003
(1739018028.643) RX 1DB#FFC0C06A00000201
(1739018028.643) RX 1DC#B40F8FFD0520C64C
(1739018028.645) RX 1C2#57
(1739018028.645) RX 1D4#F707000087460070
(1739018028.646) RX 1F2#10640000001E020E
(1739018028.646) RX 284#000000000000A228
(1739018028.646) RX 50B#000006C00060
(1739018028.649) RX 1DA#C16418000001002F
(1739018028.650) RX 11A#0140005500000115
(1739018028.653) RX 1DB#FFC0C06A00000384
(1739018028.654) RX 1DC#B40F8FFD08C0CB1B
(1739018028.655) RX 1C2#58
(1739018028.655) RX 1D4#F7070000C74600B7
(1739018028.656) RX 1F2#10640000001E030F
(1739018028.659) RX 1DA#C1641800000101AA
(1739018028.660) RX 11A#01400055400002D8
(1739018028.663) RX 1DB#FFC0C06A0000008E
(1739018028.664) RX 1DC#B40F8FFD0CCCD8E4
(1739018028.665) RX 1C2#59
(1739018028.666) RX 1D4#F70700000746007B
(1739018028.666) RX 1F2#10640000001E000C
(1739018028.666) RX 284#000000000000A329
(1739018028.669) RX 1DA#C1641800000102A0
(1739018028.670) RX 11A#014000AA800003CE
(1739018028.673) RX 1DB#FFC0C06A0000010B
(1739018028.674) RX 1DC#B40F8FFD0130C9CE
(1739018028.675) RX 1C2#5A
(1739018028.676) RX 1D4#F7070000474600BC
(1739018028.676) RX 1F2#10640000001E010D
(1739018028.677) RX 54A#100070020000002C
(1739018028.678) RX 54B#0108801204000000
(1739018028.679) RX 54C#6B66000000005800
(1739018028.679) RX 1DA#C164180000010325
(1739018028.680) RX 11A#014000AAC0000003
(1739018028.680) RX 54F#2101000007008A23
(1739018028.683) RX 1DB#FFC0C06A00000201
(1739018028.684) RX 1DC#B40F8FFD0520C64C
(1739018028.685) RX 1C2#5B
(1739018028.686) RX 1D4#F707000087460070
(1739018028.686) RX 1F2#10640000001E020E
(1739018028.687) RX 284#000000000000A42A
(1739018028.689) RX 1DA#C16418000001002F
(1739018028.690) RX 11A#0140005500000115
(1739018028.693) RX 1DB#FFC0C06A00000384
(1739018028.694) RX 1DC#B40F8FFD08C0CB1B
(1739018028.695) RX 1C2#5C
(1739018028.696) RX 380#020410210000008D
(1739018028.696) RX 5BF#000000002800001A
(1739018028.696) RX 1D4#F7070000C74600B7
(1739018028.697) RX 1F2#10640000001E030F
(1739018028.699) RX 1DA#C1641800000101AA
(1739018028.700) RX 11A#01400055400002D8
(1739018028.703) RX 1DB#FFC0C06A0000008E
(1739018028.704) RX 1DC#B40F8FFD0CCCD8E4
(1739018028.705) RX 1C2#5D
(1739018028.707) RX 1D4#F70700000746007B
(1739018028.707) RX 1F2#10640000001E000C
(1739018028.707) RX 284#000000000000A52B
(1739018028.707) RX 50C#000000005DC8
(1739018028.709) RX 1DA#C1641800000102A0
(1739018028.709) RX 55A#002F2F005F315B68
(1739018028.710) RX 11A#014000AA800003CE
(1739018028.713) RX 1DB#FFC0C06A0000010B
(1739018028.714) RX 1DC#B40F8FFD0130C9CE
(1739018028.715) RX 1C2#5E
(1739018028.717) RX 1D4#F7070000474600BC
(1739018028.717) RX 1F2#10640000001E010D
(1739018028.719) RX 1DA#C164180000010325
(1739018028.720) RX 11A#014000AAC0000003
(1739018028.723) RX 1DB#FFC0C06A00000201
(1739018028.724) RX 1DC#B40F8FFD0520C64C
(1739018028.725) RX 1C2#5F
(1739018028.727) RX 1D4#F707000087460070
(1739018028.727) RX 1F2#10640000001E020E
(1739018028.728) RX 284#000000000000A62C
(1739018028.728) RX 50A#8512A00C8020
(1739018028.729) RX 1DA#C16418000001002F
(1739018028.730) RX 11A#0140005500000115
(1739018028.734) RX 1DB#FFC0C06A00000384
(1739018028.734) RX 1DC#B40F8FFD08C0CB1B
(1739018028.734) RX 55B#C9405500E5401167
(1739018028.734) RX 5BC#59032026B2040080
(1739018028.735) RX 1C2#50
(1739018028.737) RX 1D4#F7070000C74600B7
(1739018028.738) RX 1F2#10640000001E030F
(1739018028.739) RX 1DA#C1641800000101AA
(1739018028.740) RX 11A#01400055400002D8
(1739018028.743) RX 1DB#FFC0C06A0000008E
(1739018028.744) RX 1DC#B40F8FFD0CCCD8E4
(1739018028.745) RX 1C2#51
(1739018028.748) RX 1D4#F70700000746007B
(1739018028.748) RX 1F2#10640000001E000C
(1739018028.748) RX 284#000000000000A72D
(1739018028.748) RX 50B#000006C00060
(1739018028.749) RX 1DA#C1641800000102A0
(1739018028.750) RX 11A#014000AA800003CE
(1739018028.753) RX 1DB#FFC0C06A0000010B
(1739018028.754) RX 1DC#B40F8FFD0130C9CE
(1739018028.755) RX 1C2#52
(1739018028.758) RX 1D4#F7070000474600BC
(1739018028.758) RX 1F2#10640000001E010D
(1739018028.759) RX 1DA#C164180000010325
(1739018028.760) RX 11A#014000AAC0000003
(1739018028.763) RX 1DB#FFC0C06A00000201
(1739018028.764) RX 1DC#B40F8FFD0520C64C
(1739018028.765) RX 1C2#53
(1739018028.768) RX 1D4#F707000087460070
(1739018028.768) RX 1F2#10640000001E020E
(1739018028.769) RX 284#000000000000A82E
(1739018028.769) RX 1DA#C16418000001002F
(1739018028.770) RX 11A#0140005500000115
(1739018028.774) RX 1DB#FFC0C06A00000384
(1739018028.774) RX 1DC#B40F8FFD08C0CB1B
(1739018028.775) RX 1C2#54
(1739018028.776) RX 54A#9E0070020000002C
(1739018028.777) RX 54B#0108801204000000
(1739018028.778) RX 54C#6B66000000005800
(1739018028.778) RX 1D4#F7070000C74600B7
(1739018028.779) RX 1F2#10640000001E030F
(1739018028.779) RX 1DA#C1641800000101AA
(1739018028.779) RX 54F#2101000007408A23
(1739018028.780) RX 11A#01400055400002D8
(1739018028.784) RX 1DB#FFC0C06A0000008E
(1739018028.784) RX 1DC#B40F8FFD0CCCD8E4
(1739018028.785) RX 1C2#55
(1739018028.789) RX 1D4#F70700000746007B
(1739018028.789) RX 1F2#10640000001E000C
(1739018028.789) RX 284#000000000000A92F
(1739018028.789) RX 1DA#C1641800000102A0
(1739018028.790) RX 11A#014000AA800003CE
(1739018028.794) RX 1DB#FFC0C06A0000010B
(1739018028.794) RX 1DC#B40F8FFD0130C9CE
(1739018028.795) RX 1C2#56
(1739018028.796) RX 380#020410210000009E
(1739018028.796) RX 5BF#000000002800002B
(1739018028.799) RX 1D4#F7070000474600BC
(1739018028.799) RX 1F2#10640000001E010D
(1739018028.799) RX 1DA#C164180000010325
(1739018028.800) RX 11A#014000AAC0000003
(1739018028.804) RX 1DB#FFC0C06A00000201
(1739018028.804) RX 1DC#B40F8FFD0520C64C
(1739018028.806) RX 1C2#57
(1739018028.809) RX 1D4#F707000087460070
(1739018028.809) RX 1DA#C16418000001002F
(1739018028.810) RX 1F2#10640000001E020E
(1739018028.810) RX 284#000000000000AA30
(1739018028.810) RX 50C#00000001B231
(1739018028.810) RX 55A#002F2F005F315B68
(1739018028.811) RX 11A#0140005500000115
(1739018028.814) RX 1DB#FFC0C06A00000384
(1739018028.814) RX 1DC#B40F8FFD08C0CB1B
(1739018028.815) RX 1C2#58
(1739018028.819) RX 1DA#C1641800000101AA
(1739018028.819) RX 1D4#F7070000C74600B7
(1739018028.820) RX 1F2#10640000001E030F
(1739018028.820) RX 5A9#9A44201304300000
(1739018028.820) RX 11A#01400055400002D8
(1739018028.824) RX 1DB#FFC0C06A0000008E
(1739018028.824) RX 1DC#B40F8FFD0CCCD8E4
(1739018028.826) RX 1C2#59
(1739018028.829) RX 1DA#C1641800000102A0
(1739018028.830) RX 1D4#F70700000746007B
(1739018028.830) RX 1F2#10640000001E000C
(1739018028.830) RX 284#000000000000AB31
(1739018028.830) RX 50A#8532A00C8020
(1739018028.831) RX 11A#014000AA800003CE
(1739018028.834) RX 1DB#FFC0C06A0000010B
(1739018028.834) RX 1DC#B40F8FFD0130C9CE
(1739018028.834) RX 55B#C940AA00E540122A
(1739018028.835) RX 5BC#59032C26B3052092
(1739018028.836) RX 1C2#5A
(1739018028.839) RX 1DA#C164180000010325
(1739018028.840) RX 11A#014000AAC0000003
(1739018028.840) RX 1D4#F7070000474600BC
(1739018028.840) RX 1F2#10640000001E010D
(1739018028.844) RX 1DB#FFC0C06A00000201
(1739018028.844) RX 1DC#B40F8FFD0520C64C
(1739018028.845) RX 5C0#C04C4C0004541100
(1739018028.845) RX 5EB#E00FFFFFFFFFFFFF
(1739018028.846) RX 1C2#5B
(1739018028.849) RX 1DA#C16418000001002F
(1739018028.850) RX 1D4#F707000087460070
(1739018028.850) RX 11A#0140005500000115
(1739018028.851) RX 1F2#10640000001E020E
(1739018028.851) RX 284#000000000000AC32
(1739018028.851) RX 50B#000006C00060
(1739018028.854) RX 1DB#FFC0C06A00000384
(1739018028.854) RX 1DC#B40F8FFD08C0CB1B
(1739018028.856) RX 1C2#5C
(1739018028.859) RX 1DA#C1641800000101AA
(1739018028.860) RX 11A#01400055400002D8
(1739018028.860) RX 1D4#F7070000C74600B7
(1739018028.861) RX 1F2#10640000001E030F
(1739018028.864) RX 1DB#FFC0C06A0000008E
(1739018028.864) RX 1DC#B40F8FFD0CCCD8E4
(1739018028.866) RX 1C2#5D
(1739018028.869) RX 1DA#C1641800000102A0
(1739018028.870) RX 11A#014000AA800003CE
(1739018028.871) RX 1D4#F70700000746007B
(1739018028.871) RX 1F2#10640000001E000C
(1739018028.871) RX 284#000000000000AD33
(1739018028.874) RX 1DB#FFC0C06A0000010B
(1739018028.874) RX 1DC#B40F8FFD0130C9CE
(1739018028.876) RX 1C2#5E
(1739018028.876) RX 54A#100070020000002C
(1739018028.877) RX 54B#0108801204000000
(1739018028.878) RX 54C#6B66000000005800
(1739018028.879) RX 1DA#C164180000010325
(1739018028.879) RX 54F#2101000007808A23
(1739018028.880) RX 11A#014000AAC0000003
(1739018028.881) RX 1D4#F7070000474600BC
(1739018028.881) RX 1F2#10640000001E010D
(1739018028.884) RX 1DB#FFC0C06A00000201
(1739018028.884) RX 1DC#B40F8FFD0520C64C
(1739018028.886) RX 1C2#5F
(1739018028.889) RX 1DA#C16418000001002F
(1739018028.890) RX 11A#0140005500000115
(1739018028.891) RX 1D4#F707000087460070
(1739018028.891) RX 1F2#10640000001E020E
(1739018028.892) RX 284#000000000000AE34
(1739018028.892) RX 5B9#67FF67FF28
(1739018028.894) RX 1DB#FFC0C06A00000384
(1739018028.894) RX 1DC#B40F8FFD08C0CB1B
(1739018028.896) RX 380#02041021000000AF
(1739018028.896) RX 1C2#50
(1739018028.896) RX 5BF#000000002800003C
(1739018028.899) RX 1DA#C1641800000101AA
(1739018028.900) RX 11A#01400055400002D8
(1739018028.901) RX 1D4#F7070000C74600B7
(1739018028.902) RX 1F2#10640000001E030F
(1739018028.904) RX 1DB#FFC0C06A0000008E
(1739018028.904) RX 1DC#B40F8FFD0CCCD8E4
(1739018028.906) RX 1C2#51
(1739018028.909) RX 1DA#C1641800000102A0
(1739018028.909) RX 55A#002F2F005F315B68
(1739018028.910) RX 11A#014000AA800003CE
(1739018028.912) RX 1D4#F70700000746007B
(1739018028.912) RX 1F2#10640000001E000C
(1739018028.912) RX 284#000000000000AF35
(1739018028.912) RX 50C#000000025D63
(1739018028.914) RX 1DB#FFC0C06A0000010B
(1739018028.914) RX 1DC#B40F8FFD0130C9CE
(1739018028.916) RX 1C2#52
(1739018028.919) RX 1DA#C164180000010325
(1739018028.920) RX 11A#014000AAC0000003
(1739018028.922) RX 1D4#F7070000474600BC
(1739018028.922) RX 1F2#10640000001E010D
(1739018028.924) RX 1DB#FFC0C06A00000201
(1739018028.924) RX 1DC#B40F8FFD0520C64C
(1739018028.926) RX 1C2#53
(1739018028.929) RX 1DA#C16418000001002F
(1739018028.930) RX 11A#0140005500000115
(1739018028.932) RX 1D4#F707000087460070
(1739018028.932) RX 1F2#10640000001E020E
(1739018028.933) RX 284#000000000000B036
(1739018028.933) RX 50A#8552A00C8020
(1739018028.934) RX 1DB#FFC0C06A00000384
(1739018028.934) RX 1DC#B40F8FFD08C0CB1B
(1739018028.935) RX 55B#C9405500E54013E8
(1739018028.935) RX 5BC#59032C26B3052092
(1739018028.936) RX 1C2#54
(1739018028.939) RX 1DA#C1641800000101AA
(1739018028.940) RX 11A#01400055400002D8
(1739018028.942) RX 1D4#F7070000C74600B7
(1739018028.943) RX 1F2#10640000001E030F
(1739018028.944) RX 1DB#FFC0C06A0000008E
(1739018028.944) RX 1DC#B40F8FFD0CCCD8E4
(1739018028.946) RX 1C2#55
(1739018028.949) RX 1DA#C1641800000102A0
(1739018028.950) RX 11A#014000AA800003CE
(1739018028.953) RX 1D4#F70700000746007B
(1739018028.953) RX 1F2#10640000001E000C
(1739018028.953) RX 284#000000000000B137
(1739018028.953) RX 50B#000006C00060
(1739018028.954) RX 1DB#FFC0C06A0000010B
(1739018028.954) RX 1DC#B40F8FFD0130C9CE
(1739018028.956) RX 1C2#56
(1739018028.959) RX 1DA#C164180000010325
(1739018028.960) RX 11A#014000AAC0000003
(1739018028.963) RX 1D4#F7070000474600BC
(1739018028.963) RX 1F2#10640000001E010D
(1739018028.964) RX 1DB#FFC0C06A00000201
(1739018028.964) RX 1DC#B40F8FFD0520C64C
(1739018028.966) RX 1C2#57
(1739018028.969) RX 1DA#C16418000001002F
(1739018028.970) RX 11A#0140005500000115
(1739018028.973) RX 1D4#F707000087460070
(1739018028.973) RX 1F2#10640000001E020E
(1739018028.973) RX 284#000000000000B238
(1739018028.974) RX 1DB#FFC0C06A00000384
(1739018028.974) RX 1DC#B40F8FFD08C0CB1B
(1739018028.976) RX 1C2#58
(1739018028.976) RX 54A#9E0070020000002C
(1739018028.977) RX 54B#0108801204000000
(1739018028.978) RX 54C#6B66000000005800
(1739018028.979) RX 1DA#C1641800000101AA
(1739018028.979) RX 54F#2101000007C08A23
(1739018028.980) RX 11A#01400055400002D8
(1739018028.983) RX 1D4#F7070000C74600B7
(1739018028.984) RX 1F2#10640000001E030F
(1739018028.984) RX 1DB#FFC0C06A0000008E
(1739018028.984) RX 1DC#B40F8FFD0CCCD8E4
(1739018028.986) RX 1C2#59
(1739018028.989) RX 1DA#C1641800000102A0
(1739018028.990) RX 11A#014000AA800003CE
(1739018028.993) RX 1D4#F70700000746007B
(1739018028.994) RX 1F2#10640000001E000C
(1739018028.994) RX 284#000000000000B339
(1739018028.994) RX 1DB#FFC0C06A0000010B
(1739018028.995) RX 1DC#B40F8FFD0130C9CE
(1739018028.996) RX 380#02041021000000B0
(1739018028.996) RX 1C2#5A
(1739018028.996) RX 5BF#0000000028000009
(1739018028.999) RX 1DA#C164180000010325
(1739018029.000) RX 11A#014000AAC0000003
(1739018029.004) RX 1D4#F7070000474600BC
(1739018029.004) RX 1F2#10640000001E010D
(1739018029.004) RX 1DB#FFC0C06A00000201
(1739018029.005) RX 1DC#B40F8FFD0520C64C
(1739018029.006) RX 1C2#5B
(1739018029.009) RX 1DA#C16418000001002F
(1739018029.009) RX 55A#002F2F005F315B68
(1739018029.010) RX 11A#0140005500000115
(1739018029.014) RX 1D4#F707000087460070
(1739018029.014) RX 1DB#FFC0C06A00000384
(1739018029.015) RX 1F2#10640000001E020E
(1739018029.015) RX 1DC#B40F8FFD08C0CB1B
(1739018029.015) RX 284#000000000000B43A
(1739018029.015) RX 50C#00000003B29A
(1739018029.016) RX 1C2#5C
(1739018029.019) RX 1DA#C1641800000101AA
(1739018029.020) RX 11A#01400055400002D8
(1739018029.024) RX 1DB#FFC0C06A0000008E
(1739018029.024) RX 1D4#F7070000C74600B7
(1739018029.025) RX 1DC#B40F8FFD0CCCD8E4
(1739018029.025) RX 1F2#10640000001E030F
(1739018029.025) RX 284#000000000000B53B
(1739018029.026) RX 1C2#5D
(1739018029.029) RX 1DA#C1641800000102A0
(1739018029.030) RX 11A#014000AA800003CE
(1739018029.034) RX 1DB#FFC0C06A0000010B
(1739018029.035) RX 1D4#F70700000746007B
(1739018029.035) RX 1DC#B40F8FFD0130C9CE
(1739018029.035) RX 1F2#10640000001E000C
(1739018029.035) RX 50A#8572A00C8020
(1739018029.036) RX 55B#C940AA00E54010A5
(1739018029.036) RX 5BC#59032C26B3052092
(1739018029.036) RX 1C2#5E
(1739018029.039) RX 1DA#C164180000010325
(1739018029.040) RX 11A#014000AAC0000003
(1739018029.044) RX 1DB#FFC0C06A00000201
(1739018029.045) RX 1DC#B40F8FFD0520C64C
(1739018029.045) RX 1D4#F7070000474600BC
(1739018029.045) RX 1F2#10640000001E010D
(1739018029.045) RX 284#000000000000B63C
(1739018029.046) RX 1C2#5F
(1739018029.049) RX 1DA#C16418000001002F
(1739018029.050) RX 11A#0140005500000115
(1739018029.054) RX 1DB#FFC0C06A00000384
(1739018029.055) RX 1DC#B40F8FFD08C0CB1B
(1739018029.055) RX 1D4#F707000087460070
(1739018029.055) RX 1F2#10640000001E020E
(1739018029.055) RX 50B#000006C00060
(1739018029.056) RX 1C2#50
 6) RX 5BC#59032C26B3052092
(1739018029.036) RX 1C2#5E
(1739018029.039) RX 1DA#C164180000010325
(1739018029.040) RX 11A#014000AAC0000003
(1739018029.044) RX 1DB#FFC0C06A00000201
(1739018029.045) RX 1DC#B40F8FFD0520C64C
(1739018029.045) RX 1D4#F7070000474600BC
(1739018029.045) RX 1F2#10640000001E010D
(1739018029.045) RX 284#000000000000B63C
(1739018029.066) RX 1C2#51
(1739018029.069) RX 1DA#C1641800000102A0
(1739018029.070) RX 11A#014000AA800003CE
(1739018029.074) RX 1DB#FFC0C06A0000010B
(1739018029.075) RX 1DC#B40F8FFD0130C9CE
(1739018029.075) RX 1D4#F70700000746007B
(1739018029.076) RX 1F2#10640000001E000C
(1739018029.076) RX 1C2#52
(1739018029.077) RX 54A#100070020000002C
(1739018029.078) RX 54B#0108801204000000
(1739018029.079) RX 1DA#C164180000010325
(1739018029.080) RX 54C#6B66000000005800
(1739018029.080) RX 11A#014000AAC0000003
(1739018029.080) RX 54F#2101000007008A23
(1739018029.084) RX 1DB#FFC0C06A00000201
(1739018029.085) RX 1DC#B40F8FFD0520C64C
(1739018029.086) RX 1D4#F7070000474600BC
(1739018029.086) RX 1F2#10640000001E010D
(1739018029.086) RX 1C2#53
(1739018029.086) RX 284#000000000000B83E
(1739018029.089) RX 1DA#C16418000001002F
(1739018029.090) RX 11A#0140005500000115
(1739018029.094) RX 1DB#FFC0C06A00000384
(1739018029.095) RX 1DC#B40F8FFD08C0CB1B
(1739018029.096) RX 1D4#F707000087460070
(1739018029.096) RX 1F2#10640000001E020E
(1739018029.096) RX 1C2#54
(1739018029.096) RX 380#020410210000008D
(1739018029.097) RX 5BF#000000002800001A
(1739018029.099) RX 1DA#C1641800000101AA
(1739018029.100) RX 11A#01400055400002D8
(1739018029.104) RX 1DB#FFC0C06A0000008E
(1739018029.105) RX 1DC#B40F8FFD0CCCD8E4
(1739018029.106) RX 1D4#F7070000C74600B7
(1739018029.106) RX 1C2#55
(1739018029.107) RX 1F2#10640000001E030F
(1739018029.107) RX 284#000000000000B93F
(1739018029.109) RX 1DA#C1641800000102A0
(1739018029.109) RX 55A#002F2F005F315B68
(1739018029.110) RX 11A#014000AA800003CE
(1739018029.114) RX 1DB#FFC0C06A0000010B
(1739018029.115) RX 1DC#B40F8FFD0130C9CE
(1739018029.116) RX 1C2#56
(1739018029.116) RX 1D4#F70700000746007B
(1739018029.117) RX 1F2#10640000001E000C
(1739018029.117) RX 50C#000000005DC8
(1739018029.119) RX 1DA#C164180000010325
(1739018029.120) RX 11A#014000AAC0000003
(1739018029.125) RX 1DB#FFC0C06A00000201
(1739018029.125) RX 1DC#B40F8FFD0520C64C
(1739018029.126) RX 1C2#57
(1739018029.127) RX 1D4#F7070000474600BC
(1739018029.127) RX 1F2#10640000001E010D
(1739018029.127) RX 284#000000000000BA40
(1739018029.129) RX 1DA#C16418000001002F
(1739018029.130) RX 11A#0140005500000115
(1739018029.135) RX 1DB#FFC0C06A00000384
(1739018029.135) RX 1DC#B40F8FFD08C0CB1B
(1739018029.135) RX 55B#C9405500E5401167
(1739018029.136) RX 5BC#59032C26B3052092
(1739018029.136) RX 1C2#58
(1739018029.137) RX 1D4#F707000087460070
(1739018029.137) RX 1F2#10640000001E020E
(1739018029.137) RX 50A#8512A00C8020
(1739018029.139) RX 1DA#C1641800000101AA
(1739018029.140) RX 11A#01400055400002D8
(1739018029.145) RX 1DB#FFC0C06A0000008E
(1739018029.145) RX 1DC#B40F8FFD0CCCD8E4
(1739018029.146) RX 1C2#59
(1739018029.147) RX 1D4#F7070000C74600B7
(1739018029.147) RX 1F2#10640000001E030F
(1739018029.148) RX 284#000000000000BB41
(1739018029.149) RX 1DA#C1641800000102A0
(1739018029.150) RX 11A#014000AA800003CE
(1739018029.155) RX 1DB#FFC0C06A0000010B
(1739018029.155) RX 1DC#B40F8FFD0130C9CE
(1739018029.156) RX 1C2#5A
(1739018029.157) RX 1D4#F70700000746007B
(1739018029.158) RX 1F2#10640000001E000C
(1739018029.158) RX 50B#000006C00060
(1739018029.159) RX 1DA#C164180000010325
(1739018029.160) RX 11A#014000AAC0000003
(1739018029.165) RX 1DB#FFC0C06A00000201
(1739018029.165) RX 1DC#B40F8FFD0520C64C
(1739018029.166) RX 1C2#5B
(1739018029.168) RX 1D4#F7070000474600BC
(1739018029.168) RX 1F2#10640000001E010D
(1739018029.168) RX 284#000000000000BC42
(1739018029.169) RX 1DA#C16418000001002F
(1739018029.170) RX 11A#0140005500000115
(1739018029.175) RX 1DB#FFC0C06A00000384
(1739018029.175) RX 1DC#B40F8FFD08C0CB1B
(1739018029.176) RX 1C2#5C
(1739018029.177) RX 54A#9E0070020000002C
(1739018029.178) RX 54B#0108801204000000
(1739018029.178) RX 1D4#F707000087460070
(1739018029.178) RX 1F2#10640000001E020E
(1739018029.179) RX 54C#6B66000000005800
(1739018029.179) RX 1DA#C1641800000101AA
(1739018029.180) RX 54F#2101000007408A23
(1739018029.180) RX 11A#01400055400002D8
(1739018029.185) RX 1DB#FFC0C06A0000008E
(1739018029.185) RX 1DC#B40F8FFD0CCCD8E4
(1739018029.186) RX 1C2#5D
(1739018029.188) RX 1D4#F7070000C74600B7
(1739018029.188) RX 1F2#10640000001E030F
(1739018029.189) RX 284#000000000000BD43
(1739018029.189) RX 1DA#C1641800000102A0
(1739018029.190) RX 11A#014000AA800003CE
(1739018029.195) RX 1DB#FFC0C06A0000010B
(1739018029.195) RX 1DC#B40F8FFD0130C9CE
(1739018029.196) RX 380#020410210000009E
(1739018029.196) RX 5BF#000000002800002B
(1739018029.196) RX 1C2#5E
(1739018029.198) RX 1D4#F70700000746007B
(1739018029.199) RX 1F2#10640000001E000C
(1739018029.199) RX 1DA#C164180000010325
(1739018029.200) RX 11A#014000AAC0000003
(1739018029.205) RX 1DB#FFC0C06A00000201
(1739018029.205) RX 1DC#B40F8FFD0520C64C
(1739018029.206) RX 1C2#5F
(1739018029.209) RX 1D4#F7070000474600BC
(1739018029.209) RX 1F2#10640000001E010D
(1739018029.209) RX 284#000000000000BE44
(1739018029.209) RX 1DA#C16418000001002F
(1739018029.210) RX 55A#002F2F005F315B68
(1739018029.210) RX 11A#0140005500000115
(1739018029.215) RX 1DB#FFC0C06A00000384
(1739018029.215) RX 1DC#B40F8FFD08C0CB1B
(1739018029.216) RX 1C2#50
(1739018029.219) RX 1D4#F707000087460070
(1739018029.219) RX 1F2#10640000001E020E
(1739018029.219) RX 1DA#C1641800000101AA
(1739018029.220) RX 50C#00000001B231
(1739018029.220) RX 11A#01400055400002D8
(1739018029.225) RX 1DB#FFC0C06A0000008E
(1739018029.225) RX 1DC#B40F8FFD0CCCD8E4
(1739018029.226) RX 1C2#51
(1739018029.229) RX 1D4#F7070000C74600B7
(1739018029.229) RX 1DA#C1641800000102A0
(1739018029.230) RX 1F2#10640000001E030F
(1739018029.230) RX 284#000000000000BF45
(1739018029.230) RX 11A#014000AA800003CE
(1739018029.235) RX 1DB#FFC0C06A0000010B
(1739018029.235) RX 1DC#B40F8FFD0130C9CE
(1739018029.236) RX 55B#C940AA00E540122A
(1739018029.236) RX 5BC#59032C26B3052092
(1739018029.236) RX 1C2#52
(1739018029.239) RX 1DA#C164180000010325
(1739018029.239) RX 1D4#F70700000746007B
(1739018029.240) RX 11A#014000AAC0000003
(1739018029.240) RX 1F2#10640000001E000C
(1739018029.240) RX 50A#8532A00C8020
(1739018029.245) RX 1DB#FFC0C06A00000201
(1739018029.245) RX 1DC#B40F8FFD0520C64C
(1739018029.246) RX 1C2#53
(1739018029.249) RX 1DA#C16418000001002F
(1739018029.250) RX 1D4#F7070000474600BC
(1739018029.250) RX 1F2#10640000001E010D
(1739018029.250) RX 284#000000000000C046
(1739018029.250) RX 11A#0140005500000115
(1739018029.255) RX 1DB#FFC0C06A00000384
(1739018029.255) RX 1DC#B40F8FFD08C0CB1B
(1739018029.256) RX 1C2#54
(1739018029.259) RX 1DA#C1641800000101AA
(1739018029.260) RX 1D4#F707000087460070
(1739018029.260) RX 1F2#10640000001E020E
(1739018029.260) RX 50B#000006C00060
(1739018029.260) RX 11A#01400055400002D8
(1739018029.265) RX 1DB#FFC0C06A0000008E
(1739018029.265) RX 1DC#B40F8FFD0CCCD8E4
(1739018029.267) RX 1C2#55
(1739018029.269) RX 1DA#C1641800000102A0
(1739018029.270) RX 1D4#F7070000C74600B7
(1739018029.270) RX 1F2#10640000001E030F
(1739018029.271) RX 11A#014000AA800003CE
(1739018029.271) RX 284#000000000000C147
(1739018029.275) RX 1DB#FFC0C06A0000010B
(1739018029.275) RX 1DC#B40F8FFD0130C9CE
(1739018029.277) RX 54A#100070020000002C
(1739018029.277) RX 1C2#56
(1739018029.278) RX 54B#0108801204000000
(1739018029.279) RX 54C#6B66000000005800
(1739018029.279) RX 1DA#C164180000010325
(1739018029.280) RX 11A#014000AAC0000003
(1739018029.280) RX 54F#2101000007808A23
(1739018029.280) RX 1D4#F70700000746007B
(1739018029.281) RX 1F2#10640000001E000C
(1739018029.285) RX 1DB#FFC0C06A00000201
(1739018029.285) RX 1DC#B40F8FFD0520C64C
(1739018029.287) RX 1C2#57
(1739018029.289) RX 1DA#C16418000001002F
(1739018029.290) RX 11A#0140005500000115
(1739018029.291) RX 1D4#F7070000474600BC
(1739018029.291) RX 1F2#10640000001E010D
(1739018029.291) RX 284#000000000000C248
(1739018029.295) RX 1DB#FFC0C06A00000384
(1739018029.295) RX 1DC#B40F8FFD08C0CB1B
(1739018029.296) RX 380#02041021000000AF
(1739018029.296) RX 5BF#000000002800003C
(1739018029.297) RX 1C2#58
(1739018029.299) RX 1DA#C1641800000101AA
(1739018029.300) RX 11A#01400055400002D8
(1739018029.301) RX 1D4#F707000087460070
(1739018029.301) RX 1F2#10640000001E020E
(1739018029.305) RX 1DB#FFC0C06A0000008E
(1739018029.305) RX 1DC#B40F8FFD0CCCD8E4
(1739018029.307) RX 1C2#59
(1739018029.309) RX 1DA#C1641800000102A0
(1739018029.309) RX 55A#002F2F005F315B68
(1739018029.310) RX 11A#014000AA800003CE
(1739018029.311) RX 1D4#F7070000C74600B7
(1739018029.311) RX 1F2#10640000001E030F
(1739018029.312) RX 284#000000000000C349
(1739018029.315) RX 1DB#FFC0C06A0000010B
(1739018029.315) RX 1DC#B40F8FFD0130C9CE
(1739018029.317) RX 1C2#5A
(1739018029.319) RX 1DA#C164180000010325
(1739018029.320) RX 11A#014000AAC0000003
(1739018029.321) RX 1D4#F70700000746007B
(1739018029.322) RX 1F2#10640000001E000C
(1739018029.322) RX 50C#000000025D63
(1739018029.325) RX 1DB#FFC0C06A00000201
(1739018029.325) RX 1DC#B40F8FFD0520C64C
(1739018029.327) RX 1C2#5B
(1739018029.329) RX 1DA#C16418000001002F
(1739018029.330) RX 11A#0140005500000115
(1739018029.331) RX 1D4#F7070000474600BC
(1739018029.332) RX 1F2#10640000001E010D
(1739018029.332) RX 284#000000000000C44A
(1739018029.332) RX 5A9#9A44201304300000
(1739018029.335) RX 1DB#FFC0C06A00000384
(1739018029.336) RX 1DC#B40F8FFD08C0CB1B
(1739018029.336) RX 55B#C9405500E54013E8
(1739018029.336) RX 5BC#59032026B2054074
(1739018029.337) RX 1C2#5C
(1739018029.339) RX 1DA#C1641800000101AA
(1739018029.340) RX 11A#01400055400002D8
(1739018029.342) RX 1D4#F707000087460070
(1739018029.342) RX 1F2#10640000001E020E
(1739018029.342) RX 50A#8552A00C8020
(1739018029.345) RX 1DB#FFC0C06A0000008E
(1739018029.346) RX 1DC#B40F8FFD0CCCD8E4
(1739018029.346) RX 5C0#804C4C0004A01100
(1739018029.346) RX 5EB#E00FFFFFFFFFFFFF
(1739018029.347) RX 1C2#5D
(1739018029.349) RX 1DA#C1641800000102A0
(1739018029.350) RX 11A#014000AA800003CE
(1739018029.352) RX 1D4#F7070000C74600B7
(1739018029.352) RX 1F2#10640000001E030F
(1739018029.353) RX 284#000000000000C54B
(1739018029.355) RX 1DB#FFC0C06A0000010B
(1739018029.356) RX 1DC#B40F8FFD0130C9CE
(1739018029.357) RX 1C2#5E
(1739018029.359) RX 1DA#C164180000010325
(1739018029.360) RX 11A#014000AAC0000003
(1739018029.362) RX 1D4#F70700000746007B
(1739018029.362) RX 1F2#10640000001E000C
(1739018029.363) RX 50B#000006C00060
(1739018029.365) RX 1DB#FFC0C06A00000201
(1739018029.365) RX 1DC#B40F8FFD0520C64C
(1739018029.367) RX 1C2#5F
(1739018029.369) RX 1DA#C16418000001002F
(1739018029.370) RX 11A#0140005500000115
(1739018029.373) RX 1D4#F7070000474600BC
(1739018029.373) RX 1F2#10640000001E010D
(1739018029.373) RX 284#000000000000C64C
(1739018029.375) RX 1DB#FFC0C06A00000384
(1739018029.376) RX 1DC#B40F8FFD08C0CB1B
(1739018029.377) RX 54A#9E0070020000002C
(1739018029.377) RX 1C2#50
(1739018029.378) RX 54B#0108801204000000
(1739018029.379) RX 54C#6B66000000005800
(1739018029.379) RX 1DA#C1641800000101AA
(1739018029.380) RX 54F#2101000007C08A23
(1739018029.380) RX 11A#01400055400002D8
(1739018029.383) RX 1D4#F707000087460070
(1739018029.383) RX 1F2#10640000001E020E
(1739018029.385) RX 1DB#FFC0C06A0000008E
(1739018029.386) RX 1DC#B40F8FFD0CCCD8E4
(1739018029.387) RX 1C2#51
(1739018029.389) RX 1DA#C1641800000102A0
(1739018029.390) RX 11A#014000AA800003CE
(1739018029.393) RX 1D4#F7070000C74600B7
(1739018029.393) RX 1F2#10640000001E030F
(1739018029.393) RX 284#000000000000C74D
(1739018029.395) RX 1DB#FFC0C06A0000010B
(1739018029.396) RX 1DC#B40F8FFD0130C9CE
(1739018029.396) RX 380#02041021000000B0
(1739018029.396) RX 5BF#0000000028000009
(1739018029.397) RX 1C2#52
(1739018029.399) RX 1DA#C164180000010325
(1739018029.400) RX 11A#014000AAC0000003
(1739018029.403) RX 1D4#F70700000746007B
(1739018029.403) RX 1F2#10640000001E000C
(1739018029.404) RX 5B9#67FF67FF28
(1739018029.405) RX 1DB#FFC0C06A00000201
(1739018029.406) RX 1DC#B40F8FFD0520C64C
(1739018029.407) RX 1C2#53
(1739018029.409) RX 1DA#C16418000001002F
(1739018029.409) RX 55A#002F2F005F315B68
(1739018029.410) RX 11A#0140005500000115
(1739018029.414) RX 1D4#F7070000474600BC
(1739018029.414) RX 1F2#10640000001E010D
(1739018029.414) RX 284#000000000000C84E
(1739018029.415) RX 1DB#FFC0C06A00000384
(1739018029.416) RX 1DC#B40F8FFD08C0CB1B
(1739018029.417) RX 1C2#54
(1739018029.419) RX 1DA#C1641800000101AA
(1739018029.420) RX 11A#01400055400002D8
(1739018029.424) RX 1D4#F707000087460070
(1739018029.424) RX 1F2#10640000001E020E
(1739018029.424) RX 50C#00000003B29A
(1739018029.426) RX 1DB#FFC0C06A0000008E
(1739018029.426) RX 1DC#B40F8FFD0CCCD8E4
(1739018029.427) RX 1C2#55
(1739018029.429) RX 1DA#C1641800000102A0
(1739018029.430) RX 11A#014000AA800003CE
(1739018029.434) RX 1D4#F7070000C74600B7
(1739018029.434) RX 1F2#10640000001E030F
(1739018029.434) RX 284#000000000000C94F
(1739018029.436) RX 1DB#FFC0C06A0000010B
(1739018029.436) RX 1DC#B40F8FFD0130C9CE
(1739018029.436) RX 55B#C940AA00E54010A5
(1739018029.436) RX 5BC#59032026B2054074
(1739018029.437) RX 1C2#56
(1739018029.439) RX 1DA#C164180000010325
(1739018029.440) RX 11A#014000AAC0000003
(1739018029.444) RX 1D4#F70700000746007B
(1739018029.445) RX 1F2#10640000001E000C
(1739018029.445) RX 284#000000000000CA50
(1739018029.445) RX 50A#8572A00C8020
(1739018029.445) RX 1DB#FFC0C06A00000201
(1739018029.446) RX 1DC#B40F8FFD0520C64C
(1739018029.447) RX 1C2#57
(1739018029.449) RX 1DA#C16418000001002F
(1739018029.450) RX 11A#0140005500000115
(1739018029.454) RX 1D4#F7070000474600BC
(1739018029.455) RX 1F2#10640000001E010D
(1739018029.456) RX 1DB#FFC0C06A00000384
(1739018029.456) RX 1DC#B40F8FFD08C0CB1B
(1739018029.457) RX 1C2#58
(1739018029.459) RX 1DA#C1641800000101AA
(1739018029.460) RX 11A#01400055400002D8
(1739018029.465) RX 1D4#F707000087460070
(1739018029.465) RX 1F2#10640000001E020E
(1739018029.465) RX 284#000000000000CB51
(1739018029.465) RX 50B#000006C00060
(1739018029.466) RX 1DB#FFC0C06A0000008E
(1739018029.466) RX 1DC#B40F8FFD0CCCD8E4
(1739018029.467) RX 1C2#59
(1739018029.469) RX 1DA#C1641800000102A0
(1739018029.470) RX 11A#014000AA800003CE
(1739018029.475) RX 1D4#F7070000C74600B7
(1739018029.475) RX 1F2#10640000001E030F
(1739018029.476) RX 1DB#FFC0C06A0000010B
(1739018029.476) RX 1DC#B40F8FFD0130C9CE
(1739018029.477) RX 54A#100070020000002C
(1739018029.477) RX 1C2#5A
 AA00E54010A5
(1739018029.436) RX 5BC#59032026B2054074
(1739018029.437) RX 1C2#56
(1739018029.459) RX 1DA#C1641800000101AA
(1739018029.460) RX 11A#01400055400002D8
(1739018029.465) RX 1D4#F707000087460070
(1739018029.465) RX 1F2#10640000001E020E
(1739018029.465) RX 284#000000000000CB51
(1739018029.465) RX 50B#000006C00060
(1739018029.466) RX 1DB#FFC0C06A0000008E
(1739018029.466) RX 1DC#B40F8FF(1739018029.478) RX 54B#0108801204000000
(1739018029.479) RX 54C#6B66000000005800
(1739018029.479) RX 1DA#C164180000010325
(1739018029.480) RX 11A#014000AAC0000003
(1739018029.480) RX 54F#2101000007008A23
(1739018029.485) RX 1D4#F70700000746007B
(1739018029.485) RX 1F2#10640000001E000C
(1739018029.486) RX 1DB#FFC0C06A00000201
(1739018029.486) RX 284#000000000000CC52
(1739018029.486) RX 1DC#B40F8FFD0520C64C
(1739018029.487) RX 1C2#5B
(1739018029.489) RX 1DA#C16418000001002F
(1739018029.490) RX 11A#0140005500000115
(1739018029.495) RX 1D4#F7070000474600BC
(1739018029.496) RX 1DB#FFC0C06A00000384
(1739018029.496) RX 1F2#10640000001E010D
(1739018029.496) RX 1DC#B40F8FFD08C0CB1B
(1739018029.496) RX 380#020410210000008D
(1739018029.497) RX 5BF#000000002800001A
(1739018029.497) RX 1C2#5C
(1739018029.499) RX 1DA#C1641800000101AA
(1739018029.500) RX 11A#01400055400002D8
(1739018029.506) RX 1DB#FFC0C06A0000008E
(1739018029.506) RX 1D4#F707000087460070
(1739018029.506) RX 1DC#B40F8FFD0CCCD8E4
(1739018029.506) RX 1F2#10640000001E020E
(1739018029.507) RX 284#000000000000CD53
(1739018029.507) RX 1C2#5D
(1739018029.509) RX 1DA#C1641800000102A0
(1739018029.509) RX 55A#002F2F005F315B68
(1739018029.510) RX 11A#014000AA800003CE
(1739018029.516) RX 1DB#FFC0C06A0000010B
(1739018029.516) RX 1D4#F7070000C74600B7
(1739018029.516) RX 1DC#B40F8FFD0130C9CE
(1739018029.516) RX 1F2#10640000001E030F
(1739018029.517) RX 1C2#5E
(1739018029.519) RX 1DA#C164180000010325
(1739018029.520) RX 11A#014000AAC0000003
(1739018029.526) RX 1DB#FFC0C06A00000201
(1739018029.526) RX 1DC#B40F8FFD0520C64C
(1739018029.526) RX 1D4#F70700000746007B
(1739018029.526) RX 1F2#10640000001E000C
(1739018029.527) RX 284#000000000000CE54
(1739018029.527) RX 50C#000000005DC8
(1739018029.527) RX 1C2#5F
(1739018029.529) RX 1DA#C16418000001002F
(1739018029.530) RX 11A#0140005500000115
(1739018029.536) RX 1DB#FFC0C06A00000384
(1739018029.536) RX 1DC#B40F8FFD08C0CB1B
(1739018029.536) RX 1D4#F7070000474600BC
(1739018029.537) RX 1F2#10640000001E010D
(1739018029.537) RX 55B#C9405500E5401167
(1739018029.537) RX 5BC#59032026B2054074
(1739018029.537) RX 1C2#50
(1739018029.539) RX 1DA#C1641800000101AA
(1739018029.540) RX 11A#01400055400002D8
(1739018029.546) RX 1DB#FFC0C06A0000008E
(1739018029.546) RX 1DC#B40F8FFD0CCCD8E4
(1739018029.547) RX 1D4#F707000087460070
(1739018029.547) RX 1F2#10640000001E020E
(1739018029.547) RX 284#000000000000CF55
(1739018029.547) RX 1C2#51
(1739018029.547) RX 50A#8512A00C8020
(1739018029.549) RX 1DA#C1641800000102A0
(1739018029.550) RX 11A#014000AA800003CE
(1739018029.556) RX 1DB#FFC0C06A0000010B
(1739018029.556) RX 1DC#B40F8FFD0130C9CE
(1739018029.557) RX 1D4#F7070000C74600B7
(1739018029.557) RX 1F2#10640000001E030F
(1739018029.557) RX 1C2#52
(1739018029.559) RX 1DA#C164180000010325
(1739018029.560) RX 11A#014000AAC0000003
(1739018029.566) RX 1DB#FFC0C06A00000201
(1739018029.566) RX 1DC#B40F8FFD0520C64C
