(1739018182.779) RX 11A#014000AA800003CE
(1739018182.779) RX 1D4#F7070000474600BC
(1739018182.779) RX 1F2#10640000001E010D
(1739018182.781) RX 1DA#C064180000010028
(1739018182.781) RX 55A#002F2E005F315B68
(1739018182.781) RX 1DB#FDA0BF6A000001AE
(1739018182.782) RX 1DC#B40F8FFD0130C9CE
(1739018182.783) RX 1C2#59
(1739018182.787) RX 11A#014000AAC0000003
(1739018182.789) RX 1D4#F707000087460070
(1739018182.789) RX 1F2#10640000001E020E
(1739018182.790) RX 284#000000000000BD43
(1739018182.790) RX 50A#8512A00C8020
(1739018182.791) RX 1DA#C0641800000101AD
(1739018182.791) RX 1DB#FDA0BF6A000002A4
(1739018182.791) RX 1DC#B40F8FFD0520C64C
(1739018182.793) RX 1C2#5A
(1739018182.798) RX 11A#0140005500000115
(1739018182.799) RX 1D4#F7070000C74600B7
(1739018182.800) RX 1F2#10640000001E030F
(1739018182.801) RX 1DA#C0641800000102A7
(1739018182.801) RX 1DB#FDA0BF6A00000321
(1739018182.802) RX 1DC#B40F8FFD08C0CB1B
(1739018182.803) RX 1C2#5B
(1739018182.808) RX 11A#01400055400002D8
(1739018182.810) RX 1D4#F70700000746007B
(1739018182.810) RX 1F2#10640000001E000C
(1739018182.810) RX 284#000000000000BE44
(1739018182.810) RX 50B#000006C00060
(1739018182.811) RX 1DA#C064180000010322
(1739018182.811) RX 1DB#FD80BF6A0000007A
(1739018182.812) RX 1DC#B40F8FFD0CCCD8E4
(1739018182.813) RX 1C2#5C
(1739018182.818) RX 11A#014000AA800003CE
(1739018182.820) RX 1D4#F7070000474600BC
(1739018182.820) RX 1F2#10640000001E010D
(1739018182.821) RX 1DA#C064180000010028
(1739018182.821) RX 1DB#FD80BF6A000001FF
(1739018182.822) RX 1DC#B40F8FFD0130C9CE
(1739018182.823) RX 1C2#5D
(1739018182.827) RX 11A#014000AAC0000003
(1739018182.830) RX 1D4#F707000087460070
(1739018182.830) RX 1F2#10640000001E020E
(1739018182.831) RX 284#000000000000BF45
(1739018182.831) RX 1DA#C0641800000101AD
(1739018182.831) RX 1DB#FD80BF6A000002F5
(1739018182.831) RX 1DC#B40F8FFD0520C64C
(1739018182.833) RX 1C2#5E
(1739018182.835) RX 54A#9E0070072600002C
(1739018182.836) RX 54B#0076981214000001
(1739018182.837) RX 54C#6C66400000505800
(1739018182.838) RX 11A#0140005500000115
(1739018182.838) RX 54F#2201000007CF8A39
(1739018182.840) RX 1D4#F7070000C74600B7
(1739018182.841) RX 1DA#C0641800000102A7
(1739018182.841) RX 1F2#10640000001E030F
(1739018182.841) RX 1DB#FD60BF6A00000342
(1739018182.842) RX 1DC#B40F8FFD08C0CB1B
(1739018182.843) RX 1C2#5F
(1739018182.847) RX 380#020410210000008D
(1739018182.848) RX 5BF#000000002800001A
(1739018182.848) RX 11A#01400055400002D8
(1739018182.851) RX 1DA#C064180000010322
(1739018182.851) RX 1D4#F70700000746007B
(1739018182.851) RX 1F2#10640000001E000C
(1739018182.851) RX 1DB#FD40BF6A00000019
(1739018182.852) RX 284#000000000000C046
(1739018182.852) RX 1DC#B40F8FFD0CCCD8E4
(1739018182.853) RX 1C2#50
(1739018182.858) RX 11A#014000AA800003CE
(1739018182.861) RX 1DA#C064180000010028
(1739018182.861) RX 1D4#F7070000474600BC
(1739018182.861) RX 1F2#10640000001E010D
(1739018182.861) RX 284#000000000000C147
(1739018182.862) RX 1DB#FD40BF6A0000019C
(1739018182.862) RX 1DC#B40F8FFD0130C9CE
(1739018182.862) RX 55B#C9005500E3801278
(1739018182.863) RX 5BC#59032026B20620A0
(1739018182.863) RX 1C2#51
(1739018182.867) RX 11A#014000AAC0000003
(1739018182.871) RX 1DA#C0641800000101AD
(1739018182.871) RX 1D4#F707000087460070
(1739018182.871) RX 1DB#FD20BF6A00000265
(1739018182.872) RX 1F2#10640000001E020E
(1739018182.872) RX 1DC#B40F8FFD0520C64C
(1739018182.872) RX 50C#00000001B231
(1739018182.873) RX 1C2#52
(1739018182.878) RX 11A#0140005500000115
(1739018182.890) RX 1DA#C0641800000102A7
(1739018182.890) RX 55A#002F2E005F315B68
(1739018182.891) RX 1D4#F7070000C74600B7
(1739018182.891) RX 1DB#FD00BF6A000003B1
(1739018182.891) RX 1F2#10640000001E030F
(1739018182.891) RX 1DC#B40F8FFD08C0CB1B
(1739018182.891) RX 284#000000000000C248
(1739018182.892) RX 1C2#53
(1739018182.892) RX 11A#01400055400002D8
(1739018182.892) RX 1DA#C064180000010322
(1739018182.892) RX 1DB#FCE0BF6A0000008E
(1739018182.892) RX 1D4#F70700000746007B
(1739018182.892) RX 1DC#B40F8FFD0CCCD8E4
(1739018182.893) RX 1F2#10640000001E000C
(1739018182.893) RX 50A#8532A00C8020
(1739018182.893) RX 1C2#54
(1739018182.898) RX 11A#014000AA800003CE
(1739018182.901) RX 1DA#C064180000010028
(1739018182.902) RX 1DB#FCE0BF6A0000010B
(1739018182.902) RX 1DC#B40F8FFD0130C9CE
(1739018182.902) RX 1D4#F7070000474600BC
(1739018182.902) RX 1F2#10640000001E010D
(1739018182.903) RX 284#000000000000C349
(1739018182.903) RX 1C2#55
(1739018182.907) RX 11A#014000AAC0000003
(1739018182.911) RX 1DA#C0641800000101AD
(1739018182.912) RX 1DB#FCC0BF6A00000250
(1739018182.912) RX 1DC#B40F8FFD0520C64C
(1739018182.912) RX 1D4#F707000087460070
(1739018182.912) RX 1F2#10640000001E020E
(1739018182.913) RX 50B#000006C00060
(1739018182.913) RX 1C2#56
(1739018182.918) RX 11A#0140005500000115
(1739018182.921) RX 1DA#C0641800000102A7
(1739018182.922) RX 1DB#FCA0BF6A00000326
(1739018182.922) RX 1DC#B40F8FFD08C0CB1B
(1739018182.922) RX 1D4#F7070000C74600B7
(1739018182.923) RX 1F2#10640000001E030F
(1739018182.923) RX 284#000000000000C44A
(1739018182.923) RX 1C2#57
(1739018182.928) RX 11A#01400055400002D8
(1739018182.931) RX 1DA#C064180000010322
(1739018182.932) RX 1DB#FCA0BF6A0000002C
(1739018182.932) RX 1DC#B40F8FFD0CCCD8E4
(1739018182.933) RX 1D4#F70700000746007B
(1739018182.933) RX 1F2#10640000001E000C
(1739018182.933) RX 1C2#58
(1739018182.935) RX 54A#100070072600002C
(1739018182.936) RX 54B#0076981214000001
(1739018182.937) RX 54C#6C66400000505800
(1739018182.938) RX 11A#014000AA800003CE
(1739018182.938) RX 54F#22010000070F8A39
(1739018182.941) RX 1DA#C064180000010028
(1739018182.942) RX 1DB#FCA0BF6A000001A9
(1739018182.942) RX 1DC#B40F8FFD0130C9CE
(1739018182.943) RX 1D4#F7070000474600BC
(1739018182.943) RX 1C2#59
(1739018182.943) RX 1F2#10640000001E010D
(1739018182.944) RX 284#000000000000C54B
(1739018182.947) RX 11A#014000AAC0000003
(1739018182.947) RX 380#020410210000009E
(1739018182.948) RX 5BF#000000002800002B
(1739018182.951) RX 1DA#C0641800000101AD
(1739018182.952) RX 1DB#FCA0BF6A000002A3
(1739018182.952) RX 1DC#B40F8FFD0520C64C
(1739018182.953) RX 1D4#F707000087460070
(1739018182.953) RX 1C2#5A
(1739018182.953) RX 1F2#10640000001E020E
(1739018182.958) RX 11A#0140005500000115
(1739018182.961) RX 1DA#C0641800000102A7
(1739018182.962) RX 1DB#FCA0BF6A00000326
(1739018182.962) RX 1DC#B40F8FFD08C0CB1B
(1739018182.962) RX 55B#C900AA00E38013BA
(1739018182.963) RX 5BC#59032026B20620A0
(1739018182.963) RX 1C2#5B
(1739018182.963) RX 1D4#F7070000C74600B7
(1739018182.964) RX 1F2#10640000001E030F
(1739018182.964) RX 284#000000000000C64C
(1739018182.968) RX 11A#01400055400002D8
(1739018182.971) RX 1DA#C064180000010322
(1739018182.972) RX 1DB#FCA0BF6A0000002C
(1739018182.972) RX 1DC#B40F8FFD0CCCD8E4
(1739018182.973) RX 1C2#5C
(1739018182.974) RX 1D4#F70700000746007B
(1739018182.974) RX 1F2#10640000001E000C
(1739018182.974) RX 50C#00000002B20D
(1739018182.978) RX 11A#014000AA800003CE
(1739018182.981) RX 1DA#C064180000010028
(1739018182.981) RX 55A#002F2E005F315B68
(1739018182.982) RX 1DB#FCA0BF6A000001A9
(1739018182.982) RX 1DC#B40F8FFD0130C9CE
(1739018182.983) RX 1C2#5D
(1739018182.984) RX 1D4#F7070000474600BC
(1739018182.984) RX 1F2#10640000001E010D
(1739018182.984) RX 284#000000000000C74D
(1739018182.985) RX 5A9#643BB01304300000
(1739018182.987) RX 11A#014000AAC0000003
(1739018182.991) RX 1DA#C0641800000101AD
(1739018182.992) RX 1DB#FCA0BF6A000002A3
(1739018182.992) RX 1DC#B40F8FFD0520C64C
(1739018182.993) RX 1C2#5E
(1739018182.994) RX 1D4#F707000087460070
(1739018182.994) RX 1F2#10640000001E020E
(1739018182.995) RX 50A#8552A00C8020
(1739018182.998) RX 11A#0140005500000115
(1739018183.001) RX 1DA#C0641800000102A7
(1739018183.002) RX 1DB#FCA0BF6A00000326
(1739018183.002) RX 1DC#B40F8FFD08C0CB1B
(1739018183.003) RX 1C2#5F
(1739018183.004) RX 1D4#F7070000C74600B7
(1739018183.005) RX 1F2#10640000001E030F
(1739018183.005) RX 284#000000000000C84E
(1739018183.008) RX 11A#01400055400002D8
(1739018183.011) RX 1DA#C064180000010322
(1739018183.012) RX 1DB#FCA0BF6A0000002C
(1739018183.012) RX 1DC#B40F8FFD0CCCD8E4
(1739018183.013) RX 1C2#50
(1739018183.015) RX 1D4#F70700000746007B
(1739018183.015) RX 1F2#10640000001E000C
(1739018183.015) RX 50B#000006C00060
(1739018183.018) RX 11A#014000AA800003CE
(1739018183.021) RX 1DA#C064180000010028
(1739018183.022) RX 1DB#FCA0BF6A000001A9
(1739018183.022) RX 1DC#B40F8FFD0130C9CE
(1739018183.023) RX 1C2#51
(1739018183.025) RX 1D4#F7070000474600BC
(1739018183.025) RX 1F2#10640000001E010D
(1739018183.025) RX 284#000000000000C94F
(1739018183.027) RX 11A#014000AAC0000003
(1739018183.031) RX 1DA#C0641800000101AD
(1739018183.032) RX 1DB#FCA0BF6A000002A3
(1739018183.032) RX 1DC#B40F8FFD0520C64C
(1739018183.033) RX 1C2#52
(1739018183.035) RX 1D4#F707000087460070
(1739018183.035) RX 1F2#10640000001E020E
(1739018183.036) RX 54A#9E0070072600002C
(1739018183.036) RX 54B#0076981214000001
(1739018183.037) RX 54C#6C66400000505800
(1739018183.018) RX 11A#014000AA800003CE
(1739018183.021) RX 1DA#C064180000010028
(1739018183.022) RX 1DB#FCA0BF6A000001A9
(1739018183.022) RX 1DC#B40F8FFD0130C9CE
(1739018183.023) RX 1C2#51
(1739018183.025) RX 1D4#F7070000474600BC
(1739018183.025) RX 1F2#10640000001E010D
(1739018183.025) RX 284#000000000000C94F
(1739018183.047) RX 380#02041021000000AF
(1739018183.048) RX 11A#01400055400002D8
(1739018183.048) RX 5BF#000000002800003C
(1739018183.051) RX 1DA#C064180000010322
(1739018183.052) RX 1DB#FCA0BF6A0000002C
(1739018183.052) RX 1DC#B40F8FFD0CCCD8E4
(1739018183.053) RX 1C2#54
(1739018183.056) RX 1D4#F70700000746007B
(1739018183.056) RX 1F2#10640000001E000C
(1739018183.056) RX 5B9#67FF67FF28
(1739018183.058) RX 11A#014000AA800003CE
(1739018183.061) RX 1DA#C064180000010028
(1739018183.062) RX 1DB#FCA0BF2A00000137
(1739018183.062) RX 1DC#B40F8FFD0130C9CE
(1739018183.063) RX 55B#C900AA00E4001061
(1739018183.063) RX 5BC#59032026B20620A0
(1739018183.063) RX 1C2#55
(1739018183.066) RX 1D4#F7070000474600BC
(1739018183.066) RX 1F2#10640000001E010D
(1739018183.066) RX 284#000000000000CB51
(1739018183.067) RX 11A#014000AAC0000003
(1739018183.071) RX 1DA#C0641800000101AD
(1739018183.072) RX 1DB#FCA0BF2A0000023D
(1739018183.072) RX 1DC#B40F8FFD0520C64C
(1739018183.073) RX 1C2#56
(1739018183.076) RX 1D4#F707000087460070
(1739018183.076) RX 1F2#10640000001E020E
(1739018183.076) RX 50C#000000035DF4
(1739018183.078) RX 11A#0140005500000115
(1739018183.081) RX 1DA#C0641800000102A7
(1739018183.081) RX 55A#002F2E005F315B68
(1739018183.082) RX 1DB#FCA0BF2A000003B8
(1739018183.082) RX 1DC#B40F8FFD08C0CB1B
(1739018183.083) RX 1C2#57
(1739018183.086) RX 1D4#F7070000C74600B7
(1739018183.087) RX 1F2#10640000001E030F
(1739018183.087) RX 284#000000000000CC52
(1739018183.088) RX 11A#01400055400002D8
(1739018183.091) RX 1DA#C064180000010322
(1739018183.092) RX 1DB#FCC0BF2A00000041
(1739018183.092) RX 1DC#B40F8FFD0CCCD8E4
(1739018183.093) RX 1C2#58
(1739018183.097) RX 1D4#F70700000746007B
(1739018183.097) RX 1F2#10640000001E000C
(1739018183.097) RX 50A#8572A00C8020
(1739018183.098) RX 11A#014000AA800003CE
(1739018183.101) RX 1DA#C064180000010028
(1739018183.102) RX 1DB#FCE0BF6A0000010B
(1739018183.102) RX 1DC#B40F8FFD0130C9CE
(1739018183.103) RX 1C2#59
(1739018183.107) RX 1D4#F7070000474600BC
(1739018183.107) RX 1F2#10640000001E010D
(1739018183.107) RX 11A#014000AAC0000003
(1739018183.107) RX 284#000000000000CD53
(1739018183.111) RX 1DA#C0641800000101AD
(1739018183.112) RX 1DB#FD00BF6A00000234
(1739018183.112) RX 1DC#B40F8FFD0520C64C
(1739018183.113) RX 1C2#5A
(1739018183.117) RX 1D4#F707000087460070
(1739018183.117) RX 1F2#10640000001E020E
(1739018183.117) RX 50B#000006C00060
(1739018183.118) RX 11A#0140005500000115
(1739018183.121) RX 1DA#C0641800000102A7
(1739018183.122) RX 1DB#FD20BF6A000003E0
(1739018183.122) RX 1DC#B40F8FFD08C0CB1B
(1739018183.123) RX 1C2#5B
(1739018183.127) RX 1D4#F7070000C74600B7
(1739018183.128) RX 1F2#10640000001E030F
(1739018183.128) RX 284#000000000000CE54
(1739018183.128) RX 11A#01400055400002D8
(1739018183.131) RX 1DA#C064180000010322
(1739018183.132) RX 1DB#FD20BF6A000000EA
(1739018183.132) RX 1DC#B40F8FFD0CCCD8E4
(1739018183.133) RX 1C2#5C
(1739018183.135) RX 54A#100070072600002C
(1739018183.136) RX 54B#0076981214000001
(1739018183.137) RX 54C#6C66400000505800
(1739018183.137) RX 1D4#F70700000746007B
(1739018183.138) RX 1F2#10640000001E000C
(1739018183.138) RX 11A#014000AA800003CE
(1739018183.138) RX 54F#22010000078F8A39
(1739018183.141) RX 1DA#C064180000010028
(1739018183.142) RX 1DB#FD40BF6A0000019C
(1739018183.142) RX 1DC#B40F8FFD0130C9CE
(1739018183.143) RX 1C2#5D
(1739018183.147) RX 11A#014000AAC0000003
(1739018183.148) RX 380#02041021000000B0
(1739018183.148) RX 1D4#F7070000474600BC
(1739018183.148) RX 1F2#10640000001E010D
(1739018183.148) RX 284#000000000000CF55
(1739018183.149) RX 5BF#0000000028000009
(1739018183.151) RX 1DA#C0641800000101AD
(1739018183.152) RX 1DB#FD60BF6A000002C7
(1739018183.152) RX 1DC#B40F8FFD0520C64C
(1739018183.154) RX 1C2#5E
(1739018183.158) RX 11A#0140005500000115
(1739018183.158) RX 1D4#F707000087460070
(1739018183.158) RX 1F2#10640000001E020E
(1739018183.161) RX 1DA#C0641800000102A7
(1739018183.162) RX 1DB#FD80BF6A00000370
(1739018183.162) RX 1DC#B40F8FFD08C0CB1B
(1739018183.163) RX 55B#C9005500E40011A3
(1739018183.163) RX 5BC#59032026B20620A0
(1739018183.164) RX 1C2#5F
(1739018183.168) RX 11A#01400055400002D8
(1739018183.168) RX 1D4#F7070000C74600B7
(1739018183.169) RX 1F2#10640000001E030F
(1739018183.169) RX 284#000000000000D056
(1739018183.171) RX 1DA#C064180000010322
(1739018183.172) RX 1DB#FDA0BF6A0000002B
(1739018183.172) RX 1DC#B40F8FFD0CCCD8E4
(1739018183.174) RX 1C2#50
(1739018183.178) RX 11A#014000AA800003CE
(1739018183.178) RX 1D4#F70700000746007B
(1739018183.179) RX 1F2#10640000001E000C
(1739018183.179) RX 50C#00000000B2A6
(1739018183.181) RX 1DA#C064180000010028
(1739018183.181) RX 55A#002F2E005F315B68
(1739018183.182) RX 1DB#FDA0BF6A000001AE
(1739018183.182) RX 1DC#B40F8FFD0130C9CE
(1739018183.184) RX 1C2#51
(1739018183.187) RX 11A#014000AAC0000003
(1739018183.189) RX 1D4#F7070000474600BC
(1739018183.189) RX 1F2#10640000001E010D
(1739018183.189) RX 284#000000000000D157
(1739018183.191) RX 1DA#C0641800000101AD
(1739018183.192) RX 1DB#FDA0BF6A000002A4
(1739018183.192) RX 1DC#B40F8FFD0520C64C
(1739018183.194) RX 1C2#52
(1739018183.198) RX 11A#0140005500000115
(1739018183.199) RX 1D4#F707000087460070
(1739018183.199) RX 1F2#10640000001E020E
(1739018183.199) RX 50A#8512A00C8020
(1739018183.201) RX 1DA#C0641800000102A7
(1739018183.202) RX 1DB#FDA0BF6A00000321
(1739018183.203) RX 1DC#B40F8FFD08C0CB1B
(1739018183.204) RX 1C2#53
(1739018183.208) RX 11A#01400055400002D8
(1739018183.209) RX 1D4#F7070000C74600B7
(1739018183.209) RX 1F2#10640000001E030F
(1739018183.210) RX 284#000000000000D258
(1739018183.211) RX 1DA#C064180000010322
(1739018183.212) RX 1DB#FDA0BF6A0000002B
(1739018183.212) RX 1DC#B40F8FFD0CCCD8E4
(1739018183.214) RX 1C2#54
(1739018183.218) RX 11A#014000AA800003CE
(1739018183.219) RX 1D4#F70700000746007B
(1739018183.220) RX 1F2#10640000001E000C
(1739018183.220) RX 50B#000006C00060
(1739018183.221) RX 1DA#C064180000010028
(1739018183.222) RX 1DB#FDA0BF6A000001AE
(1739018183.223) RX 1DC#B40F8FFD0130C9CE
(1739018183.224) RX 1C2#55
(1739018183.227) RX 11A#014000AAC0000003
(1739018183.230) RX 1D4#F7070000474600BC
(1739018183.230) RX 1F2#10640000001E010D
(1739018183.230) RX 284#000000000000D359
(1739018183.231) RX 1DA#C0641800000101AD
(1739018183.232) RX 1DB#FDA0BF6A000002A4
(1739018183.233) RX 1DC#B40F8FFD0520C64C
(1739018183.234) RX 1C2#56
(1739018183.235) RX 54A#9E0070072600002C
(1739018183.236) RX 54B#0076981214000001
(1739018183.237) RX 54C#6C66400000505800
(1739018183.238) RX 11A#0140005500000115
(1739018183.238) RX 54F#2201000007CF8A39
(1739018183.240) RX 1D4#F707000087460070
(1739018183.240) RX 1F2#10640000001E020E
(1739018183.241) RX 1DA#C0641800000102A7
(1739018183.242) RX 1DB#FDA0BF6A00000321
(1739018183.243) RX 1DC#B40F8FFD08C0CB1B
(1739018183.244) RX 1C2#57
(1739018183.248) RX 380#020410210000008D
(1739018183.248) RX 11A#01400055400002D8
(1739018183.248) RX 5BF#000000002800001A
(1739018183.250) RX 1D4#F7070000C74600B7
(1739018183.250) RX 1F2#10640000001E030F
(1739018183.251) RX 1DA#C064180000010322
(1739018183.251) RX 284#000000000000D45A
(1739018183.252) RX 1DB#FDA0BF6A0000002B
(1739018183.253) RX 1DC#B40F8FFD0CCCD8E4
(1739018183.254) RX 1C2#58
(1739018183.258) RX 11A#014000AA800003CE
(1739018183.260) RX 1D4#F70700000746007B
(1739018183.261) RX 1DA#C064180000010028
(1739018183.261) RX 1F2#10640000001E000C
(1739018183.263) RX 1DB#FDA0BF6A000001AE
(1739018183.263) RX 1DC#B40F8FFD0130C9CE
(1739018183.263) RX 55B#C900AA00E40012EE
(1739018183.263) RX 5BC#59032C26B3064080
(1739018183.264) RX 1C2#59
(1739018183.267) RX 11A#014000AAC0000003
(1739018183.271) RX 1DA#C0641800000101AD
(1739018183.271) RX 1D4#F7070000474600BC
(1739018183.271) RX 1F2#10640000001E010D
(1739018183.271) RX 284#000000000000D55B
(1739018183.272) RX 1DB#FDA0BF6A000002A4
(1739018183.273) RX 1DC#B40F8FFD0520C64C
(1739018183.273) RX 5C0#404C4C0004E41100
(1739018183.274) RX 5EB#E00FFFFFFFFFFFFF
(1739018183.274) RX 1C2#5A
(1739018183.278) RX 11A#0140005500000115
(1739018183.281) RX 1DA#C0641800000102A7
(1739018183.281) RX 55A#002F2E005F315B68
(1739018183.281) RX 1D4#F707000087460070
(1739018183.281) RX 1F2#10640000001E020E
(1739018183.282) RX 284#000000000000D65C
(1739018183.282) RX 50C#000000015D5F
(1739018183.283) RX 1DB#FDA0BF6A00000321
(1739018183.283) RX 1DC#B40F8FFD08C0CB1B
(1739018183.284) RX 1C2#5B
(1739018183.288) RX 11A#01400055400002D8
(1739018183.291) RX 1DA#C064180000010322
(1739018183.291) RX 1D4#F7070000C74600B7
(1739018183.291) RX 1F2#10640000001E030F
(1739018183.292) RX 1DB#FDA0BF6A0000002B
(1739018183.293) RX 1DC#B40F8FFD0CCCD8E4
(1739018183.294) RX 1C2#5C
(1739018183.298) RX 11A#014000AA800003CE
(1739018183.301) RX 1DA#C064180000010028
(1739018183.301) RX 1D4#F70700000746007B
(1739018183.302) RX 1F2#10640000001E000C
(1739018183.302) RX 284#000000000000D75D
(1739018183.302) RX 50A#8532A00C8020
(1739018183.303) RX 1DB#FDA0BF6A000001AE
(1739018183.303) RX 1DC#B40F8FFD0130C9CE
(1739018183.304) RX 1C2#5D
(1739018183.307) RX 11A#014000AAC0000003
(1739018183.311) RX 1DA#C0641800000101AD
(1739018183.312) RX 1D4#F7070000474600BC
(1739018183.312) RX 1F2#10640000001E010D
(1739018183.312) RX 1DB#FDA0BF6A000002A4
(1739018183.313) RX 1DC#B40F8FFD0520C64C
(1739018183.314) RX 1C2#5E
(1739018183.318) RX 11A#0140005500000115
(1739018183.321) RX 1DA#C0641800000102A7
(1739018183.322) RX 1D4#F707000087460070
(1739018183.322) RX 1F2#10640000001E020E
(1739018183.322) RX 284#000000000000D85E
(1739018183.323) RX 50B#000006C00060
(1739018183.323) RX 1DB#FDA0BF6A00000321
(1739018183.323) RX 1DC#B40F8FFD08C0CB1B
(1739018183.324) RX 1C2#5F
(1739018183.328) RX 11A#01400055400002D8
(1739018183.331) RX 1DA#C064180000010322
(1739018183.332) RX 1D4#F7070000C74600B7
(1739018183.332) RX 1F2#10640000001E030F
(1739018183.333) RX 1DB#FDA0BF6A0000002B
(1739018183.333) RX 1DC#B40F8FFD0CCCD8E4
(1739018183.334) RX 1C2#50
(1739018183.335) RX 54A#100070072600002C
(1739018183.336) RX 54B#0076981214000001
(1739018183.337) RX 54C#6C66400000505800
(1739018183.338) RX 11A#014000AA800003CE
(1739018183.338) RX 54F#22010000070F8A39
(1739018183.341) RX 1DA#C064180000010028
(1739018183.342) RX 1D4#F70700000746007B
(1739018183.343) RX 1DB#FDA0BF6A000001AE
(1739018183.343) RX 1F2#10640000001E000C
(1739018183.343) RX 1DC#B40F8FFD0130C9CE
(1739018183.343) RX 284#000000000000D95F
(1739018183.344) RX 1C2#51
(1739018183.347) RX 11A#014000AAC0000003
(1739018183.348) RX 380#020410210000009E
(1739018183.348) RX 5BF#000000002800002B
(1739018183.351) RX 1DA#C0641800000101AD
(1739018183.353) RX 1DB#FDA0BF6A000002A4
(1739018183.353) RX 1D4#F7070000474600BC
(1739018183.353) RX 1DC#B40F8FFD0520C64C
(1739018183.353) RX 1F2#10640000001E010D
(1739018183.354) RX 1C2#52
(1739018183.358) RX 11A#0140005500000115
(1739018183.361) RX 1DA#C0641800000102A7
(1739018183.363) RX 1DB#FDA0BF6A00000321
(1739018183.363) RX 1D4#F707000087460070
(1739018183.363) RX 1DC#B40F8FFD08C0CB1B
(1739018183.364) RX 1F2#10640000001E020E
(1739018183.364) RX 284#000000000000DA60
(1739018183.364) RX 55B#C9005500E400132C
(1739018183.364) RX 5BC#59032C26B3064080
(1739018183.364) RX 1C2#53
(1739018183.368) RX 11A#01400055400002D8
(1739018183.371) RX 1DA#C064180000010322
(1739018183.373) RX 1DB#FDA0BF6A0000002B
(1739018183.373) RX 1DC#B40F8FFD0CCCD8E4
(1739018183.373) RX 1D4#F7070000C74600B7
(1739018183.373) RX 1F2#10640000001E030F
(1739018183.374) RX 1C2#54
(1739018183.378) RX 11A#014000AA800003CE
(1739018183.381) RX 1DA#C064180000010028
(1739018183.381) RX 55A#002F2E005F315B68
(1739018183.383) RX 1DB#FDA0BF6A000001AE
(1739018183.383) RX 1DC#B40F8FFD0130C9CE
(1739018183.383) RX 1D4#F70700000746007B
(1739018183.384) RX 1F2#10640000001E000C
(1739018183.384) RX 284#000000000000DB61
(1739018183.384) RX 50C#00000002B20D
(1739018183.384) RX 1C2#55
(1739018183.387) RX 11A#014000AAC0000003
(1739018183.391) RX 1DA#C0641800000101AD
(1739018183.393) RX 1DB#FDA0BF6A000002A4
(1739018183.393) RX 1DC#B40F8FFD0520C64C
(1739018183.394) RX 1D4#F7070000474600BC
(1739018183.394) RX 1F2#10640000001E010D
(1739018183.394) RX 1C2#56
(1739018183.398) RX 11A#0140005500000115
(1739018183.401) RX 1DA#C0641800000102A7
(1739018183.403) RX 1DB#FDA0BF6A00000321
(1739018183.403) RX 1DC#B40F8FFD08C0CB1B
(1739018183.404) RX 1D4#F707000087460070
(1739018183.404) RX 1F2#10640000001E020E
(1739018183.404) RX 1C2#57
(1739018183.404) RX 284#000000000000DC62
(1739018183.405) RX 50A#8552A00C8020
(1739018183.408) RX 11A#01400055400002D8
(1739018183.411) RX 1DA#C064180000010322
(1739018183.413) RX 1DB#FDA0BF6A0000002B
(1739018183.413) RX 1DC#B40F8FFD0CCCD8E4
(1739018183.414) RX 1D4#F7070000C74600B7
(1739018183.414) RX 1C2#58
(1739018183.414) RX 1F2#10640000001E030F
(1739018183.418) RX 11A#014000AA800003CE
(1739018183.421) RX 1DA#C064180000010028
(1739018183.423) RX 1DB#FDA0BF6A000001AE
(1739018183.423) RX 1DC#B40F8FFD0130C9CE
(1739018183.424) RX 1C2#59
(1739018183.424) RX 1D4#F70700000746007B
(1739018183.425) RX 1F2#10640000001E000C
(1739018183.425) RX 284#000000000000DD63
(1739018183.425) RX 50B#000006C00060
(1739018183.427) RX 11A#014000AAC0000003
(1739018183.431) RX 1DA#C0641800000101AD
(1739018183.433) RX 1DB#FDA0BF6A000002A4
(1739018183.433) RX 1DC#B40F8FFD0520C64C
(1739018183.434) RX 1C2#5A
(1739018183.435) RX 1D4#F7070000474600BC
(1739018183.435) RX 1F2#10640000001E010D
(1739018183.435) RX 54A#9E0070072600002C
(1739018183.436) RX 54B#0076981214000001
(1739018183.437) RX 54C#6C66400000505800
(1739018183.438) RX 11A#0140005500000115
(1739018183.438) RX 54F#22010000074F8A39
(1739018183.441) RX 1DA#C0641800000102A7
(1739018183.443) RX 1DB#FDA0BF6A00000321
(1739018183.443) RX 1DC#B40F8FFD08C0CB1B
(1739018183.444) RX 1C2#5B
(1739018183.445) RX 1D4#F707000087460070
(1739018183.445) RX 1F2#10640000001E020E
(1739018183.445) RX 284#000000000000DE64
(1739018183.448) RX 11A#01400055400002D8
(1739018183.448) RX 380#02041021000000AF
(1739018183.448) RX 5BF#000000002800003C
(1739018183.451) RX 1DA#C064180000010322
(1739018183.453) RX 1DB#FDA0BF6A0000002B
(1739018183.453) RX 1DC#B40F8FFD0CCCD8E4
(1739018183.454) RX 1C2#5C
(1739018183.455) RX 1D4#F7070000C74600B7
(1739018183.455) RX 1F2#10640000001E030F
(1739018183.458) RX 11A#014000AA800003CE
(1739018183.461) RX 1DA#C064180000010028
(1739018183.463) RX 1DB#FDA0BF6A000001AE
(1739018183.463) RX 1DC#B40F8FFD0130C9CE
(1739018183.464) RX 55B#C900AA00E4001061
(1739018183.464) RX 5BC#59032C26B3064080
(1739018183.464) RX 1C2#5D
(1739018183.465) RX 1D4#F70700000746007B
(1739018183.466) RX 1F2#10640000001E000C
(1739018183.466) RX 284#000000000000DF65
(1739018183.467) RX 11A#014000AAC0000003
(1739018183.471) RX 1DA#C0641800000101AD
(1739018183.473) RX 1DB#FDA0BF6A000002A4
(1739018183.473) RX 1DC#B40F8FFD0520C64C
(1739018183.474) RX 1C2#5E
(1739018183.476) RX 1D4#F7070000474600BC
(1739018183.476) RX 1F2#10640000001E010D
(1739018183.478) RX 11A#0140005500000115
(1739018183.481) RX 1DA#C0641800000102A7
(1739018183.481) RX 55A#002F2E005F315B68
(1739018183.483) RX 1DB#FDA0BF6A00000321
(1739018183.483) RX 1DC#B40F8FFD08C0CB1B
(1739018183.484) RX 1C2#5F
(1739018183.486) RX 1D4#F707000087460070
(1739018183.486) RX 1F2#10640000001E020E
(1739018183.486) RX 284#000000000000E066
(1739018183.487) RX 50C#000000035DF4
(1739018183.488) RX 11A#01400055400002D8
(1739018183.491) RX 1DA#C064180000010322
(1739018183.493) RX 1DB#FDA0BF6A0000002B
(1739018183.493) RX 1DC#B40F8FFD0CCCD8E4
(1739018183.494) RX 1C2#50
(1739018183.496) RX 1D4#F7070000C74600B7
(1739018183.496) RX 1F2#10640000001E030F
(1739018183.496) RX 5A9#643BB01304300000
(1739018183.498) RX 11A#014000AA800003CE
(1739018183.501) RX 1DA#C064180000010028
(1739018183.503) RX 1DB#FDA0BF6A000001AE
(1739018183.503) RX 1DC#B40F8FFD0130C9CE
(1739018183.504) RX 1C2#51
(1739018183.506) RX 1D4#F70700000746007B
(1739018183.507) RX 1F2#10640000001E000C
(1739018183.507) RX 284#000000000000E167
(1739018183.507) RX 11A#014000AAC0000003
(1739018183.507) RX 50A#8572A00C8020
(1739018183.511) RX 1DA#C0641800000101AD
(1739018183.513) RX 1DB#FDA0BF6A000002A4
(1739018183.513) RX 1DC#B40F8FFD0520C64C
(1739018183.514) RX 1C2#52
(1739018183.516) RX 1D4#F7070000474600BC
(1739018183.517) RX 1F2#10640000001E010D
(1739018183.518) RX 11A#0140005500000115
(1739018183.521) RX 1DA#C0641800000102A7
(1739018183.523) RX 1DB#FDA0BF6A00000321
(1739018183.523) RX 1DC#B40F8FFD08C0CB1B
(1739018183.524) RX 1C2#53
(1739018183.527) RX 1D4#F707000087460070
(1739018183.527) RX 1F2#10640000001E020E
(1739018183.527) RX 284#000000000000E268
(1739018183.527) RX 50B#000006C00060
(1739018183.528) RX 11A#01400055400002D8
(1739018183.531) RX 1DA#C064180000010322
(1739018183.533) RX 1DB#FDA0BF6A0000002B
(1739018183.533) RX 1DC#B40F8FFD0CCCD8E4
(1739018183.534) RX 1C2#54
(1739018183.535) RX 54A#100070072600002C
(1739018183.536) RX 54B#0076981214000001
(1739018183.537) RX 1D4#F7070000C74600B7
(1739018183.537) RX 1F2#10640000001E030F
(1739018183.537) RX 54C#6C66400000505800
(1739018183.538) RX 11A#014000AA800003CE
(1739018183.538) RX 54F#22010000078F8A39
(1739018183.541) RX 1DA#C064180000010028
(1739018183.543) RX 1DB#FDA0BF6A000001AE
(1739018183.543) RX 1DC#B40F8FFD0130C9CE
(1739018183.544) RX 1C2#55
(1739018183.547) RX 11A#014000AAC0000003
(1739018183.547) RX 1D4#F70700000746007B
(1739018183.548) RX 1F2#10640000001E000C
(1739018183.548) RX 284#000000000000E369
(1739018183.548) RX 380#02041021000000B0
(1739018183.548) RX 5BF#0000000028000009
(1739018183.551) RX 1DA#C0641800000101AD
(1739018183.553) RX 1DB#FDA0BF6A000002A4
(1739018183.553) RX 1DC#B40F8FFD0520C64C
(1739018183.554) RX 1C2#56
(1739018183.557) RX 1D4#F7070000474600BC
(1739018183.558) RX 1F2#10640000001E010D
(1739018183.558) RX 11A#0140005500000115
(1739018183.561) RX 1DA#C0641800000102A7
(1739018183.563) RX 1DB#FDA0BF6A00000321
(1739018183.564) RX 1DC#B40F8FFD08C0CB1B
(1739018183.564) RX 55B#C9005500E40011A3
(1739018183.564) RX 5BC#59032C26B3064080
(1739018183.564) RX 1C2#57
(1739018183.568) RX 11A#01400055400002D8
(1739018183.568) RX 1D4#F707000087460070
(1739018183.568) RX 1F2#10640000001E020E
(1739018183.568) RX 284#000000000000E46A
(1739018183.568) RX 5B9#67FF67FF28
(1739018183.571) RX 1DA#C064180000010322
(1739018183.573) RX 1DB#FDA0BF6A0000002B
(1739018183.573) RX 1DC#B40F8FFD0CCCD8E4
(1739018183.574) RX 1C2#58
(1739018183.578) RX 11A#014000AA800003CE
(1739018183.578) RX 1D4#F7070000C74600B7
(1739018183.578) RX 1F2#10640000001E030F
(1739018183.581) RX 1DA#C064180000010028
(1739018183.581) RX 55A#002F2E005F315B68
(1739018183.583) RX 1DB#FDA0BF6A000001AE
(1739018183.584) RX 1DC#B40F8FFD0130C9CE
(1739018183.584) RX 1C2#59
(1739018183.587) RX 11A#014000AAC0000003
(1739018183.588) RX 1D4#F70700000746007B
(1739018183.588) RX 1F2#10640000001E000C
(1739018183.589) RX 284#000000000000E56B
(1739018183.589) RX 50C#00000000B2A6
(1739018183.591) RX 1DA#C0641800000101AD
(1739018183.593) RX 1DB#FDA0BF6A000002A4
(1739018183.594) RX 1DC#B40F8FFD0520C64C
(1739018183.594) RX 1C2#5A
(1739018183.598) RX 11A#0140005500000115
(1739018183.598) RX 1D4#F7070000474600BC
(1739018183.599) RX 1F2#10640000001E010D
(1739018183.601) RX 1DA#C0641800000102A7
(1739018183.603) RX 1DB#FDA0BF6A00000321
(1739018183.604) RX 1DC#B40F8FFD08C0CB1B
(1739018183.605) RX 1C2#5B
(1739018183.608) RX 11A#01400055400002D8
(1739018183.609) RX 1D4#F707000087460070
(1739018183.609) RX 1F2#10640000001E020E
(1739018183.609) RX 284#000000000000E66C
(1739018183.609) RX 50A#8512A00C8020
(1739018183.611) RX 1DA#C064180000010322
(1739018183.613) RX 1DB#FDA0BF6A0000002B
(1739018183.614) RX 1DC#B40F8FFD0CCCD8E4
(1739018183.615) RX 1C2#5C
(1739018183.618) RX 11A#014000AA800003CE
(1739018183.619) RX 1D4#F7070000C74600B7
(1739018183.619) RX 1F2#10640000001E030F
(1739018183.621) RX 1DA#C064180000010028
(1739018183.623) RX 1DB#FDA0BF6A000001AE
(1739018183.624) RX 1DC#B40F8FFD0130C9CE
(1739018183.625) RX 1C2#5D
(1739018183.627) RX 11A#014000AAC0000003
(1739018183.629) RX 1D4#F70700000746007B
(1739018183.629) RX 1F2#10640000001E000C
(1739018183.630) RX 284#000000000000E76D
(1739018183.630) RX 50B#000006C00060
(1739018183.631) RX 1DA#C0641800000101AD
(1739018183.633) RX 1DB#FDA0BF6A000002A4
(1739018183.634) RX 1DC#B40F8FFD0520C64C
(1739018183.635) RX 1C2#5E
(1739018183.635) RX 54A#9E0070072600002C
(1739018183.636) RX 54B#0076981214000001
(1739018183.637) RX 54C#6C66400000505800
(1739018183.638) RX 11A#0140005500000115
(1739018183.638) RX 54F#2201000007CF8A39
(1739018183.639) RX 1D4#F7070000474600BC
(1739018183.640) RX 1F2#10640000001E010D
(1739018183.641) RX 1DA#C0641800000102A7
(1739018183.643) RX 1DB#FDA0BF6A00000321
(1739018183.644) RX 1DC#B40F8FFD08C0CB1B
(1739018183.645) RX 1C2#5F
(1739018183.648) RX 11A#01400055400002D8
(1739018183.648) RX 380#020410210000008D
(1739018183.648) RX 5BF#000000002800001A
(1739018183.650) RX 1D4#F707000087460070
(1739018183.650) RX 1F2#10640000001E020E
(1739018183.650) RX 284#000000000000E86E
(1739018183.651) RX 1DA#C064180000010322
(1739018183.653) RX 1DB#FD80BF6A0000007A
(1739018183.654) RX 1DC#B40F8FFD0CCCD8E4
(1739018183.655) RX 1C2#50
(1739018183.658) RX 11A#014000AA800003CE
(1739018183.660) RX 1D4#F7070000C74600B7
(1739018183.660) RX 1F2#10640000001E030F
(1739018183.661) RX 1DA#C064180000010028
(1739018183.664) RX 1DB#FD60BF6A000001CD
(1739018183.664) RX 1DC#B40F8FFD0130C9CE
(1739018183.664) RX 55B#C900AA00E40012EE
(1739018183.665) RX 5BC#59032C26B3064080
(1739018183.665) RX 1C2#51
(1739018183.667) RX 11A#014000AAC0000003
(1739018183.670) RX 1D4#F70700000746007B
(1739018183.670) RX 1F2#10640000001E000C
(1739018183.671) RX 1DA#C0641800000101AD
(1739018183.671) RX 284#000000000000E96F
(1739018183.673) RX 1DB#FD60BF6A000002C7
(1739018183.674) RX 1DC#B40F8FFD0520C64C
(1739018183.675) RX 1C2#52
(1739018183.678) RX 11A#0140005500000115
(1739018183.680) RX 1D4#F7070000474600BC
(1739018183.681) RX 1DA#C0641800000102A7
(1739018183.681) RX 1F2#10640000001E010D
(1739018183.681) RX 55A#002F2E005F315B68
(1739018183.684) RX 1DB#FD40BF6A00000313
(1739018183.684) RX 1DC#B40F8FFD08C0CB1B
(1739018183.685) RX 1C2#53
(1739018183.688) RX 11A#01400055400002D8
(1739018183.691) RX 1DA#C064180000010322
(1739018183.691) RX 1D4#F707000087460070
(1739018183.691) RX 1F2#10640000001E020E
(1739018183.691) RX 284#000000000000EA70
(1739018183.691) RX 50C#000000015D5F
(1739018183.694) RX 1DB#FD20BF6A000000EA
(1739018183.694) RX 1DC#B40F8FFD0CCCD8E4
(1739018183.695) RX 1C2#54
(1739018183.698) RX 11A#014000AA800003CE
(1739018183.701) RX 1DA#C064180000010028
(1739018183.701) RX 1D4#F7070000C74600B7
(1739018183.701) RX 1F2#10640000001E030F
(1739018183.701) RX 284#000000000000EB71
(1739018183.704) RX 1DB#FD00BF6A0000013E
(1739018183.704) RX 1DC#B40F8FFD0130C9CE
(1739018183.705) RX 1C2#55
(1739018183.707) RX 11A#014000AAC0000003
(1739018183.711) RX 1DA#C0641800000101AD
(1739018183.711) RX 1D4#F70700000746007B
(1739018183.711) RX 1F2#10640000001E000C
(1739018183.712) RX 50A#8532A00C8020
(1739018183.714) RX 1DB#FCE0BF6A00000201
(1739018183.714) RX 1DC#B40F8FFD0520C64C
(1739018183.715) RX 1C2#56
(1739018183.718) RX 11A#0140005500000115
(1739018183.721) RX 1DA#C0641800000102A7
(1739018183.721) RX 1D4#F7070000474600BC
(1739018183.722) RX 1F2#10640000001E010D
(1739018183.722) RX 284#000000000000EC72
(1739018183.724) RX 1DB#FCE0BF6A00000384
(1739018183.724) RX 1DC#B40F8FFD08C0CB1B
(1739018183.725) RX 1C2#57
(1739018183.728) RX 11A#01400055400002D8
(1739018183.731) RX 1DA#C064180000010322
(1739018183.732) RX 1D4#F707000087460070
(1739018183.732) RX 1F2#10640000001E020E
(1739018183.732) RX 50B#000006C00060
(1739018183.734) RX 1DB#FCC0BF6A000000DF
(1739018183.734) RX 1DC#B40F8FFD0CCCD8E4
(1739018183.735) RX 1C2#58
(1739018183.736) RX 54A#100070072600002C
(1739018183.737) RX 54B#0076981214000001
(1739018183.738) RX 54C#6C66400000505800
(1739018183.738) RX 11A#014000AA800003CE
(1739018183.739) RX 54F#22010000070F8A39
(1739018183.741) RX 1DA#C064180000010028
(1739018183.742) RX 1D4#F7070000C74600B7
(1739018183.742) RX 1F2#10640000001E030F
(1739018183.742) RX 284#000000000000ED73
(1739018183.744) RX 1DB#FCA0BF2A00000137
(1739018183.744) RX 1DC#B40F8FFD0130C9CE
(1739018183.745) RX 1C2#59
(1739018183.747) RX 11A#014000AAC0000003
(1739018183.748) RX 380#020410210000009E
(1739018183.748) RX 5BF#000000002800002B
(1739018183.751) RX 1DA#C0641800000101AD
(1739018183.752) RX 1D4#F70700000746007B
(1739018183.752) RX 1F2#10640000001E000C
(1739018183.754) RX 1DB#FCA0BF2A0000023D
(1739018183.754) RX 1DC#B40F8FFD0520C64C
(1739018183.755) RX 1C2#5A
(1739018183.758) RX 11A#0140005500000115
(1739018183.761) RX 1DA#C0641800000102A7
(1739018183.762) RX 1D4#F7070000474600BC
(1739018183.763) RX 1F2#10640000001E010D
(1739018183.763) RX 284#000000000000EE74
(1739018183.764) RX 1DB#FCA0BF6A00000326
(1739018183.764) RX 1DC#B40F8FFD08C0CB1B
(1739018183.765) RX 55B#C9005500E400132C
(1739018183.765) RX 5BC#59032026B2040080
(1739018183.765) RX 1C2#5B
(1739018183.768) RX 11A#01400055400002D8
(1739018183.771) RX 1DA#C064180000010322
(1739018183.773) RX 1D4#F707000087460070
(1739018183.773) RX 1F2#10640000001E020E
(1739018183.774) RX 1DB#FCA0BF6A0000002C
(1739018183.774) RX 1DC#B40F8FFD0CCCD8E4
(1739018183.775) RX 5C0#C04C4C0004541100
(1739018183.775) RX 5EB#E00FFFFFFFFFFFFF
(1739018183.775) RX 1C2#5C
(1739018183.778) RX 11A#014000AA800003CE
(1739018183.781) RX 1DA#C064180000010028
(1739018183.781) RX 55A#002F2E005F315B68
(1739018183.783) RX 1D4#F7070000C74600B7
(1739018183.783) RX 1F2#10640000001E030F
(1739018183.783) RX 284#000000000000EF75
(1739018183.784) RX 1DB#FCA0BF6A000001A9
(1739018183.784) RX 1DC#B40F8FFD0130C9CE
(1739018183.785) RX 1C2#5D
(1739018183.787) RX 11A#014000AAC0000003
(1739018183.790) RX 1DA#C0641800000101AD
(1739018183.793) RX 1D4#F70700000746007B
(1739018183.793) RX 1F2#10640000001E000C
(1739018183.794) RX 50C#00000002B20D
(1739018183.794) RX 1DB#FCA0BF6A000002A3
(1739018183.794) RX 1DC#B40F8FFD0520C64C
(1739018183.795) RX 1C2#5E
(1739018183.798) RX 11A#0140005500000115
(1739018183.801) RX 1DA#C0641800000102A7
(1739018183.803) RX 1D4#F7070000474600BC
(1739018183.804) RX 1F2#10640000001E010D
(1739018183.804) RX 284#000000000000F076
(1739018183.804) RX 1DB#FCA0BF6A00000326
(1739018183.804) RX 1DC#B40F8FFD08C0CB1B
(1739018183.805) RX 1C2#5F
(1739018183.807) RX 11A#01400055400002D8
(1739018183.810) RX 1DA#C064180000010322
(1739018183.814) RX 1D4#F707000087460070
(1739018183.814) RX 1F2#10640000001E020E
(1739018183.814) RX 1DB#FC80BF6A0000007D
(1739018183.814) RX 50A#8552A00C8020
(1739018183.814) RX 1DC#B40F8FFD0CCCD8E4
(1739018183.815) RX 1C2#50
(1739018183.818) RX 11A#014000AA800003CE
(1739018183.821) RX 1DA#C064180000010028
(1739018183.824) RX 1D4#F7070000C74600B7
(1739018183.824) RX 1DB#FC80BF6A000001F8
(1739018183.824) RX 1F2#10640000001E030F
(1739018183.825) RX 1DC#B40F8FFD0130C9CE
(1739018183.825) RX 284#000000000000F177
(1739018183.825) RX 1C2#51
(1739018183.827) RX 11A#014000AAC0000003
(1739018183.830) RX 1DA#C0641800000101AD
(1739018183.834) RX 1DB#FC80BF6A000002F2
(1739018183.834) RX 1D4#F70700000746007B
(1739018183.834) RX 1DC#B40F8FFD0520C64C
(1739018183.835) RX 1F2#10640000001E000C
(1739018183.835) RX 50B#000006C00060
(1739018183.835) RX 1C2#52
(1739018183.836) RX 54A#9E0070072600002C
(1739018183.837) RX 54B#0076981214000001
(1739018183.838) RX 54C#6C66400000505800
(1739018183.838) RX 11A#0140005500000115
(1739018183.839) RX 54F#22010000074F8A3A
(1739018183.841) RX 1DA#C0641800000102A7
(1739018183.844) RX 1DB#FC80BF2A000003E9
(1739018183.844) RX 1DC#B40F8FFD08C0CB1B
(1739018183.845) RX 1D4#F7070000474600BC
(1739018183.845) RX 1F2#10640000001E010D
(1739018183.845) RX 284#000000000000F278
(1739018183.845) RX 1C2#53
(1739018183.847) RX 11A#01400055400002D8
(1739018183.848) RX 380#02041021000000AF
(1739018183.849) RX 5BF#000000002800003C
(1739018183.850) RX 1DA#C064180000010322
(1739018183.854) RX 1DB#FC80BF2A000000E3
(1739018183.854) RX 1DC#B40F8FFD0CCCD8E4
(1739018183.855) RX 1D4#F707000087460070
(1739018183.855) RX 1F2#10640000001E020E
(1739018183.855) RX 1C2#54
(1739018183.858) RX 11A#014000AA800003CE
(1739018183.860) RX 1DA#C064180000010028
(1739018183.864) RX 1DB#FC80BF6A000001F8
(1739018183.864) RX 1DC#B40F8FFD0130C9CE
(1739018183.865) RX 55B#C900AA00E4001061
(1739018183.865) RX 1D4#F7070000C74600B7
(1739018183.865) RX 1F2#10640000001E030F
(1739018183.865) RX 284#000000000000F379
(1739018183.866) RX 5BC#59032026B2040080
(1739018183.866) RX 1C2#55
(1739018183.867) RX 11A#014000AAC0000003
(1739018183.870) RX 1DA#C0641800000101AD
(1739018183.874) RX 1DB#FCA0BF6A000002A3
(1739018183.874) RX 1DC#B40F8FFD0520C64C
(1739018183.875) RX 1D4#F70700000746007B
(1739018183.875) RX 1F2#10640000001E000C
(1739018183.875) RX 1C2#56
(1739018183.878) RX 11A#0140005500000115
(1739018183.880) RX 1DA#C0641800000102A7
(1739018183.881) RX 55A#002F2E005F315B68
(1739018183.884) RX 1DB#FCA0BF2A000003B8
(1739018183.884) RX 1DC#B40F8FFD08C0CB1B
(1739018183.885) RX 1C2#57
(1739018183.885) RX 1D4#F7070000474600BC
(1739018183.886) RX 1F2#10640000001E010D
(1739018183.886) RX 284#000000000000F47A
(1739018183.887) RX 11A#01400055400002D8
(1739018183.890) RX 1DA#C064180000010322
(1739018183.894) RX 1DB#FCA0BF2A000000B2
(1739018183.894) RX 1DC#B40F8FFD0CCCD8E4
(1739018183.895) RX 1C2#58
(1739018183.896) RX 1D4#F707000087460070
(1739018183.896) RX 1F2#10640000001E020E
(1739018183.896) RX 50C#000000035DF4
(1739018183.898) RX 11A#014000AA800003CE
(1739018183.900) RX 1DA#C064180000010028
(1739018183.904) RX 1DB#FCC0BF2A000001C4
(1739018183.905) RX 1DC#B40F8FFD0130C9CE
(1739018183.905) RX 1C2#59
(1739018183.906) RX 1D4#F7070000C74600B7
(1739018183.906) RX 1F2#10640000001E030F
(1739018183.906) RX 284#000000000000F57B
(1739018183.907) RX 11A#014000AAC0000003
(1739018183.910) RX 1DA#C0641800000101AD
(1739018183.914) RX 1DB#FCC0BF2A000002CE
(1739018183.914) RX 1DC#B40F8FFD0520C64C
(1739018183.915) RX 1C2#5A
(1739018183.916) RX 1D4#F70700000746007B
(1739018183.916) RX 1F2#10640000001E000C
(1739018183.916) RX 50A#8572A00C8020
(1739018183.918) RX 11A#0140005500000115
(1739018183.920) RX 1DA#C0641800000102A7
(1739018183.924) RX 1DB#FCE0BF6A00000384
(1739018183.925) RX 1DC#B40F8FFD08C0CB1B
(1739018183.925) RX 1C2#5B
(1739018183.926) RX 1D4#F7070000474600BC
(1739018183.926) RX 1F2#10640000001E010D
(1739018183.927) RX 284#000000000000F67C
(1739018183.928) RX 11A#01400055400002D8
(1739018183.930) RX 1DA#C064180000010322
(1739018183.934) RX 1DB#FD00BF6A000000BB
(1739018183.935) RX 1DC#B40F8FFD0CCCD8E4
(1739018183.935) RX 1C2#5C
(1739018183.936) RX 54A#100070072600002C
(1739018183.936) RX 1D4#F707000087460070
(1739018183.937) RX 1F2#10640000001E020E
(1739018183.937) RX 50B#000006C00060
(1739018183.937) RX 54B#0076981214000001
(1739018183.938) RX 54C#6C66400000505800
(1739018183.938) RX 11A#014000AA800003CE
(1739018183.939) RX 54F#22010000078F8A3A
(1739018183.940) RX 1DA#C064180000010028
(1739018183.944) RX 1DB#FD20BF6A0000016F
(1739018183.945) RX 1DC#B40F8FFD0130C9CE
(1739018183.945) RX 1C2#5D
(1739018183.947) RX 1D4#F7070000C74600B7
(1739018183.947) RX 1F2#10640000001E030F
(1739018183.947) RX 11A#014000AAC0000003
(1739018183.948) RX 284#000000000000F77D
(1739018183.948) RX 380#02041021000000B0
(1739018183.949) RX 5BF#0000000028000009
(1739018183.950) RX 1DA#C0641800000101AD
(1739018183.954) RX 1DB#FD40BF6A00000296
(1739018183.955) RX 1DC#B40F8FFD0520C64C
(1739018183.955) RX 1C2#5E
(1739018183.957) RX 1D4#F70700000746007B
(1739018183.957) RX 1F2#10640000001E000C
(1739018183.958) RX 11A#0140005500000115
(1739018183.960) RX 1DA#C0641800000102A7
(1739018183.964) RX 1DB#FD60BF6A00000342
(1739018183.965) RX 1DC#B40F8FFD08C0CB1B
(1739018183.965) RX 55B#C9005500E40011A3
(1739018183.965) RX 5BC#59032026B2040080
(1739018183.966) RX 1C2#5F
(1739018183.967) RX 1D4#F7070000474600BC
(1739018183.967) RX 11A#01400055400002D8
(1739018183.968) RX 1F2#10640000001E010D
(1739018183.968) RX 284#000000000000F87E
(1739018183.970) RX 1DA#C064180000010322
(1739018183.974) RX 1DB#FD60BF6A00000048
(1739018183.975) RX 1DC#B40F8FFD0CCCD8E4
(1739018183.975) RX 1C2#50
(1739018183.977) RX 1D4#F707000087460070
(1739018183.978) RX 1F2#10640000001E020E
(1739018183.978) RX 11A#014000AA800003CE
(1739018183.980) RX 1DA#C064180000010028
(1739018183.981) RX 55A#002F2E005F315B68
(1739018183.984) RX 1DB#FD80BF6A000001FF
(1739018183.985) RX 1DC#B40F8FFD0130C9CE
(1739018183.985) RX 1C2#51
(1739018183.987) RX 11A#014000AAC0000003
(1739018183.988) RX 1D4#F7070000C74600B7
(1739018183.988) RX 1F2#10640000001E030F
(1739018183.988) RX 284#000000000000F97F
(1739018183.990) RX 1DA#C0641800000101AD
(1739018183.994) RX 1DB#FDA0BF6A000002A4
(1739018183.995) RX 1DC#B40F8FFD0520C64C
(1739018183.995) RX 1C2#52
(1739018183.998) RX 11A#0140005500000115
(1739018183.998) RX 1D4#F70700000746007B
(1739018183.998) RX 1F2#10640000001E000C
(1739018183.998) RX 50C#00000000B2A6
(1739018184.000) RX 1DA#C0641800000102A7
(1739018184.004) RX 1DB#FDA0BF6A00000321
(1739018184.005) RX 1DC#B40F8FFD08C0CB1B
(1739018184.005) RX 1C2#53
(1739018184.008) RX 11A#01400055400002D8
(1739018184.008) RX 1D4#F7070000474600BC
(1739018184.008) RX 1F2#10640000001E010D
(1739018184.009) RX 284#000000000000FA80
(1739018184.009) RX 5A9#643BB01304300000
(1739018184.010) RX 1DA#C064180000010322
(1739018184.014) RX 1DB#FDA0BF6A0000002B
(1739018184.015) RX 1DC#B40F8FFD0CCCD8E4
(1739018184.015) RX 1C2#54
(1739018184.018) RX 11A#014000AA800003CE
(1739018184.018) RX 1D4#F707000087460070
(1739018184.019) RX 1F2#10640000001E020E
(1739018184.019) RX 50A#8512A00C8020
(1739018184.020) RX 1DA#C064180000010028
(1739018184.025) RX 1DB#FDA0BF6A000001AE
(1739018184.025) RX 1DC#B40F8FFD0130C9CE
(1739018184.025) RX 1C2#55
(1739018184.027) RX 11A#014000AAC0000003
(1739018184.029) RX 1D4#F7070000C74600B7
(1739018184.029) RX 1F2#10640000001E030F
(1739018184.029) RX 284#000000000000FB81
(1739018184.030) RX 1DA#C0641800000101AD
(1739018184.034) RX 1DB#FDA0BF6A000002A4
(1739018184.035) RX 1DC#B40F8FFD0520C64C
(1739018184.036) RX 1C2#56
(1739018184.036) RX 54A#9E0070072600002C
(1739018184.037) RX 54B#0076981214000001
(1739018184.038) RX 11A#0140005500000115
(1739018184.038) RX 54C#6C66400000505800
(1739018184.039) RX 54F#2201000007CF8A3A
(1739018184.039) RX 1D4#F70700000746007B
(1739018184.039) RX 1F2#10640000001E000C
(1739018184.039) RX 50B#000006C00060
(1739018184.040) RX 1DA#C0641800000102A7
(1739018184.045) RX 1DB#FDA0BF6A00000321
(1739018184.045) RX 1DC#B40F8FFD08C0CB1B
(1739018184.046) RX 1C2#57
(1739018184.047) RX 11A#01400055400002D8
(1739018184.048) RX 380#020410210000008D
(1739018184.049) RX 5BF#000000002800001A
(1739018184.049) RX 1D4#F7070000474600BC
(1739018184.049) RX 1F2#10640000001E010D
(1739018184.050) RX 284#000000000000FC82
(1739018184.050) RX 1DA#C064180000010322
(1739018184.055) RX 1DB#FDA0BF6A0000002B
(1739018184.055) RX 1DC#B40F8FFD0CCCD8E4
(1739018184.056) RX 1C2#58
(1739018184.058) RX 11A#014000AA800003CE
(1739018184.059) RX 1D4#F707000087460070
(1739018184.060) RX 1F2#10640000001E020E
(1739018184.060) RX 1DA#C064180000010028
(1739018184.065) RX 1DB#FDA0BF6A000001AE
(1739018184.065) RX 1DC#B40F8FFD0130C9CE
(1739018184.065) RX 55B#C900AA00E40012EE
(1739018184.066) RX 5BC#59032026B2040080
(1739018184.066) RX 1C2#59
(1739018184.067) RX 11A#014000AAC0000003
(1739018184.070) RX 1D4#F7070000C74600B7
(1739018184.070) RX 1F2#10640000001E030F
(1739018184.070) RX 284#000000000000FD83
(1739018184.070) RX 1DA#C0641800000101AD
(1739018184.075) RX 1DB#FDA0BF6A000002A4
(1739018184.075) RX 1DC#B40F8FFD0520C64C
(1739018184.076) RX 1C2#5A
(1739018184.078) RX 11A#0140005500000115
(1739018184.080) RX 1D4#F70700000746007B
(1739018184.080) RX 1F2#10640000001E000C
(1739018184.080) RX 5B9#67FF67FF28
(1739018184.081) RX 1DA#C0641800000102A7
(1739018184.081) RX 55A#002F2E005F315B68
(1739018184.085) RX 1DB#FDA0BF6A00000321
(1739018184.085) RX 1DC#B40F8FFD08C0CB1B
(1739018184.086) RX 1C2#5B
(1739018184.087) RX 11A#01400055400002D8
(1739018184.090) RX 1D4#F7070000474600BC
(1739018184.090) RX 1F2#10640000001E010D
(1739018184.091) RX 1DA#C064180000010322
(1739018184.091) RX 284#000000000000FE84
(1739018184.095) RX 1DB#FDA0BF6A0000002B
(1739018184.095) RX 1DC#B40F8FFD0CCCD8E4
(1739018184.096) RX 1C2#5C
(1739018184.098) RX 11A#014000AA800003CE
(1739018184.100) RX 1D4#F707000087460070
(1739018184.101) RX 1DA#C064180000010028
(1739018184.101) RX 1F2#10640000001E020E
(1739018184.101) RX 50C#000000015D5F
(1739018184.105) RX 1DB#FDA0BF6A000001AE
(1739018184.105) RX 1DC#B40F8FFD0130C9CE
(1739018184.106) RX 1C2#5D
(1739018184.107) RX 11A#014000AAC0000003
(1739018184.110) RX 1DA#C0641800000101AD
(1739018184.111) RX 1D4#F7070000C74600B7
(1739018184.111) RX 1F2#10640000001E030F
(1739018184.111) RX 284#000000000000FF85
(1739018184.115) RX 1DB#FDA0BF6A000002A4
(1739018184.115) RX 1DC#B40F8FFD0520C64C
(1739018184.116) RX 1C2#5E
(1739018184.118) RX 11A#0140005500000115
(1739018184.120) RX 1DA#C0641800000102A7
(1739018184.121) RX 1D4#F70700000746007B
(1739018184.121) RX 1F2#10640000001E000C
(1739018184.121) RX 284#0000000000000086
(1739018184.122) RX 50A#8532A00C8020
(1739018184.125) RX 1DB#FDA0BF6A00000321
(1739018184.125) RX 1DC#B40F8FFD08C0CB1B
(1739018184.126) RX 1C2#5F
(1739018184.127) RX 11A#01400055400002D8
(1739018184.130) RX 1DA#C064180000010322
(1739018184.131) RX 1D4#F7070000474600BC
(1739018184.131) RX 1F2#10640000001E010D
(1739018184.135) RX 1DB#FDA0BF6A0000002B
(1739018184.135) RX 1DC#B40F8FFD0CCCD8E4
(1739018184.136) RX 54A#100070072600002C
(1739018184.136) RX 1C2#50
(1739018184.137) RX 54B#0076981214000001
(1739018184.138) RX 11A#014000AA800003CE
(1739018184.138) RX 54C#6C66400000505800
(1739018184.139) RX 54F#22010000070F8A3A
(1739018184.140) RX 1DA#C064180000010028
(1739018184.141) RX 1D4#F707000087460070
(1739018184.142) RX 1F2#10640000001E020E
(1739018184.142) RX 284#0000000000000187
(1739018184.142) RX 50B#000006C00060
(1739018184.145) RX 1DB#FDA0BF6A000001AE
(1739018184.145) RX 1DC#B40F8FFD0130C9CE
(1739018184.146) RX 1C2#51
(1739018184.147) RX 11A#014000AAC0000003
(1739018184.149) RX 380#020410210000009E
(1739018184.149) RX 5BF#000000002800002B
(1739018184.150) RX 1DA#C0641800000101AD
(1739018184.152) RX 1D4#F7070000C74600B7
(1739018184.152) RX 1F2#10640000001E030F
(1739018184.155) RX 1DB#FDA0BF6A000002A4
(1739018184.155) RX 1DC#B40F8FFD0520C64C
(1739018184.156) RX 1C2#52
(1739018184.158) RX 11A#0140005500000115
(1739018184.160) RX 1DA#C0641800000102A7
(1739018184.162) RX 1D4#F70700000746007B
(1739018184.162) RX 1F2#10640000001E000C
(1739018184.162) RX 284#0000000000000288
 1739018184.140) RX 1DA#C064180000010028
(1739018184.141) RX 1D4#F707000087460070
(1739018184.142) RX 1F2#10640000001E020E
(1739018184.142) RX 284#0000000000000187
(1739018184.142) RX 50B#000006C00060
(1739018184.145) RX 1DB#FDA0BF6A000001AE
(1739018184.145) RX 1DC#B40F8FFD0130C9CE
(1739018184.146) RX 1C2#51
(1739018184.147) RX 11A#014000AAC0000003
(1739018184.149) RX 380#020410210000009E
(1739018184.149) RX 5BF#000000002800002B
(1739018184.150) RX 1DA#C0641800000101AD
(1739018184.152) RX 1D4#F7070000C74600B7
(1739018184.165) RX 1DB#FDA0BF6A00000321
(1739018184.165) RX 1DC#B40F8FFD08C0CB1B
(1739018184.166) RX 55B#C9005500E400132C
(1739018184.166) RX 5BC#59032026B2040080
(1739018184.166) RX 1C2#53
(1739018184.168) RX 11A#01400055400002D8
(1739018184.170) RX 1DA#C064180000010322
(1739018184.172) RX 1D4#F7070000474600BC
(1739018184.172) RX 1F2#10640000001E010D
(1739018184.175) RX 1DB#FDA0BF6A0000002B
(1739018184.175) RX 1DC#B40F8FFD0CCCD8E4
(1739018184.176) RX 1C2#54
(1739018184.178) RX 11A#014000AA800003CE
(1739018184.180) RX 1DA#C064180000010028
(1739018184.181) RX 55A#002F2E005F315B68
(1739018184.182) RX 1D4#F707000087460070
(1739018184.183) RX 1F2#10640000001E020E
(1739018184.183) RX 284#0000000000000389
(1739018184.185) RX 1DB#FDA0BF6A000001AE
(1739018184.185) RX 1DC#B40F8FFD0130C9CE
(1739018184.186) RX 1C2#55
(1739018184.187) RX 11A#014000AAC0000003
(1739018184.190) RX 1DA#C0641800000101AD
(1739018184.193) RX 1D4#F7070000C74600B7
(1739018184.193) RX 1F2#10640000001E030F
(1739018184.195) RX 1DB#FDA0BF6A000002A4
(1739018184.195) RX 1DC#B40F8FFD0520C64C
(1739018184.196) RX 1C2#56
(1739018184.198) RX 11A#0140005500000115
(1739018184.200) RX 1DA#C0641800000102A7
(1739018184.203) RX 1D4#F70700000746007B
(1739018184.203) RX 1F2#10640000001E000C
(1739018184.203) RX 284#000000000000048A
(1739018184.204) RX 50C#00000002B20D
(1739018184.205) RX 1DB#FDA0BF6A00000321
(1739018184.206) RX 1DC#B40F8FFD08C0CB1B
(1739018184.206) RX 1C2#57
(1739018184.207) RX 11A#01400055400002D8
(1739018184.210) RX 1DA#C064180000010322
(1739018184.213) RX 1D4#F7070000474600BC
(1739018184.213) RX 1F2#10640000001E010D
(1739018184.215) RX 1DB#FDA0BF6A0000002B
(1739018184.215) RX 1DC#B40F8FFD0CCCD8E4
(1739018184.216) RX 1C2#58
(1739018184.218) RX 11A#014000AA800003CE
(1739018184.220) RX 1DA#C064180000010028
(1739018184.223) RX 1D4#F707000087460070
(1739018184.224) RX 1F2#10640000001E020E
(1739018184.224) RX 284#000000000000058B
(1739018184.224) RX 50A#8552A00C8020
(1739018184.225) RX 1DB#FDA0BF6A000001AE
(1739018184.225) RX 1DC#B40F8FFD0130C9CE
(1739018184.226) RX 1C2#59
(1739018184.227) RX 11A#014000AAC0000003
(1739018184.230) RX 1DA#C0641800000101AD
(1739018184.234) RX 1D4#F7070000C74600B7
(1739018184.234) RX 1F2#10640000001E030F
(1739018184.235) RX 1DB#FDA0BF6A000002A4
(1739018184.235) RX 1DC#B40F8FFD0520C64C
(1739018184.236) RX 54A#9E0070072600002C
(1739018184.236) RX 1C2#5A
(1739018184.237) RX 54B#0076981214000001
(1739018184.238) RX 11A#0140005500000115
(1739018184.238) RX 54C#6C66400000505800
(1739018184.239) RX 54F#22010000074F8A3A
(1739018184.240) RX 1DA#C0641800000102A7
(1739018184.244) RX 1D4#F70700000746007B
(1739018184.244) RX 1F2#10640000001E000C
(1739018184.244) RX 284#000000000000068C
(1739018184.245) RX 50B#000006C00060
(1739018184.245) RX 1DB#FDA0BF6A00000321
(1739018184.245) RX 1DC#B40F8FFD08C0CB1B
(1739018184.246) RX 1C2#5B
(1739018184.248) RX 11A#01400055400002D8
(1739018184.249) RX 380#02041021000000AF
(1739018184.249) RX 5BF#000000002800003C
(1739018184.250) RX 1DA#C064180000010322
(1739018184.254) RX 1D4#F7070000474600BC
(1739018184.254) RX 1F2#10640000001E010D
(1739018184.255) RX 1DB#FDA0BF6A0000002B
(1739018184.256) RX 1DC#B40F8FFD0CCCD8E4
(1739018184.256) RX 1C2#5C
(1739018184.258) RX 11A#014000AA800003CE
(1739018184.260) RX 1DA#C064180000010028
(1739018184.264) RX 1D4#F707000087460070
(1739018184.265) RX 1F2#10640000001E020E
(1739018184.265) RX 284#000000000000078D
(1739018184.265) RX 1DB#FDA0BF6A000001AE
(1739018184.266) RX 1DC#B40F8FFD0130C9CE
(1739018184.266) RX 55B#C900AA00E4001061
(1739018184.266) RX 1C2#5D
(1739018184.267) RX 5BC#59032C26B3052092
(1739018184.267) RX 11A#014000AAC0000003
(1739018184.270) RX 1DA#C0641800000101AD
(1739018184.275) RX 1D4#F7070000C74600B7
(1739018184.275) RX 1F2#10640000001E030F
(1739018184.275) RX 1DB#FDA0BF6A000002A4
(1739018184.276) RX 1DC#B40F8FFD0520C64C
(1739018184.276) RX 5C0#804C4C0004A01100
(1739018184.277) RX 1C2#5E
(1739018184.277) RX 5EB#E00FFFFFFFFFFFFF
(1739018184.278) RX 11A#0140005500000115
(1739018184.280) RX 1DA#C0641800000102A7
(1739018184.281) RX 55A#002F2E005F315B68
(1739018184.285) RX 1D4#F70700000746007B
(1739018184.285) RX 1F2#10640000001E000C
(1739018184.285) RX 1DB#FDA0BF6A00000321
(1739018184.286) RX 284#000000000000088E
(1739018184.286) RX 1DC#B40F8FFD08C0CB1B
(1739018184.286) RX 1C2#5F
(1739018184.287) RX 11A#01400055400002D8
(1739018184.290) RX 1DA#C064180000010322
(1739018184.295) RX 1D4#F7070000474600BC
(1739018184.295) RX 1DB#FDA0BF6A0000002B
(1739018184.295) RX 1F2#10640000001E010D
(1739018184.296) RX 1DC#B40F8FFD0CCCD8E4
(1739018184.296) RX 1C2#50
(1739018184.298) RX 11A#014000AA800003CE
(1739018184.300) RX 1DA#C064180000010028
(1739018184.305) RX 1D4#F707000087460070
(1739018184.306) RX 1DB#FDA0BF6A000001AE
(1739018184.306) RX 1F2#10640000001E020E
(1739018184.306) RX 1DC#B40F8FFD0130C9CE
(1739018184.306) RX 284#000000000000098F
(1739018184.306) RX 50C#000000035DF4
(1739018184.307) RX 1C2#51
(1739018184.307) RX 11A#014000AAC0000003
(1739018184.310) RX 1DA#C0641800000101AD
(1739018184.315) RX 1DB#FDA0BF6A000002A4
(1739018184.315) RX 1D4#F7070000C74600B7
(1739018184.316) RX 1DC#B40F8FFD0520C64C
(1739018184.316) RX 1F2#10640000001E030F
(1739018184.316) RX 1C2#52
(1739018184.318) RX 11A#0140005500000115
(1739018184.320) RX 1DA#C0641800000102A7
(1739018184.325) RX 1DB#FDA0BF6A00000321
(1739018184.326) RX 1DC#B40F8FFD08C0CB1B
(1739018184.326) RX 1D4#F70700000746007B
(1739018184.326) RX 1F2#10640000001E000C
(1739018184.326) RX 1C2#53
(1739018184.327) RX 284#0000000000000A90
(1739018184.327) RX 50A#8572A00C8020
(1739018184.327) RX 11A#01400055400002D8
(1739018184.330) RX 1DA#C064180000010322
(1739018184.335) RX 1DB#FDA0BF6A0000002B
(1739018184.336) RX 1DC#B40F8FFD0CCCD8E4
(1739018184.336) RX 1D4#F7070000474600BC
(1739018184.336) RX 1F2#10640000001E010D
(1739018184.336) RX 1C2#54
(1739018184.337) RX 54A#100070072600002C
(1739018184.337) RX 54B#0076981214000001
(1739018184.338) RX 11A#014000AA800003CE
(1739018184.338) RX 54C#6C66400000505800
(1739018184.339) RX 54F#22010000078F8A3A
(1739018184.340) RX 1DA#C064180000010028
(1739018184.345) RX 1DB#FDA0BF6A000001AE
(1739018184.346) RX 1DC#B40F8FFD0130C9CE
(1739018184.346) RX 1D4#F707000087460070
(1739018184.346) RX 1C2#55
(1739018184.347) RX 1F2#10640000001E020E
(1739018184.347) RX 284#0000000000000B91
(1739018184.347) RX 11A#014000AAC0000003
(1739018184.347) RX 50B#000006C00060
(1739018184.349) RX 380#02041021000000B0
(1739018184.349) RX 5BF#0000000028000009
(1739018184.350) RX 1DA#C0641800000101AD
(1739018184.355) RX 1DB#FDA0BF6A000002A4
(1739018184.356) RX 1DC#B40F8FFD0520C64C
(1739018184.356) RX 1C2#56
(1739018184.357) RX 1D4#F7070000C74600B7
(1739018184.357) RX 1F2#10640000001E030F
(1739018184.358) RX 11A#0140005500000115
(1739018184.360) RX 1DA#C0641800000102A7
(1739018184.366) RX 1DB#FDA0BF6A00000321
(1739018184.366) RX 1DC#B40F8FFD08C0CB1B
(1739018184.366) RX 55B#C9005500E40011A3
(1739018184.366) RX 5BC#59032C26B3052092
(1739018184.367) RX 1D4#F70700000746007B
(1739018184.367) RX 1C2#57
(1739018184.367) RX 1F2#10640000001E000C
(1739018184.367) RX 284#0000000000000C92
(1739018184.368) RX 11A#01400055400002D8
(1739018184.370) RX 1DA#C064180000010322
(1739018184.375) RX 1DB#FDA0BF6A0000002B
(1739018184.376) RX 1DC#B40F8FFD0CCCD8E4
(1739018184.376) RX 1C2#58
(1739018184.377) RX 1D4#F7070000474600BC
(1739018184.377) RX 1F2#10640000001E010D
(1739018184.378) RX 11A#014000AA800003CE
(1739018184.380) RX 1DA#C064180000010028
(1739018184.381) RX 55A#002F2E005F315B68
(1739018184.386) RX 1DB#FDA0BF6A000001AE
(1739018184.386) RX 1DC#B40F8FFD0130C9CE
(1739018184.386) RX 1C2#59
(1739018184.387) RX 11A#014000AAC0000003
(1739018184.387) RX 1D4#F707000087460070
(1739018184.387) RX 1F2#10640000001E020E
(1739018184.388) RX 284#0000000000000D93
(1739018184.390) RX 1DA#C0641800000101AD
(1739018184.395) RX 1DB#FDA0BF6A000002A4
(1739018184.396) RX 1DC#B40F8FFD0520C64C
(1739018184.396) RX 1C2#5A
(1739018184.397) RX 1D4#F7070000C74600B7
(1739018184.398) RX 1F2#10640000001E030F
(1739018184.398) RX 11A#0140005500000115
(1739018184.400) RX 1DA#C0641800000102A7
(1739018184.406) RX 1DB#FDA0BF6A00000321
(1739018184.406) RX 1DC#B40F8FFD08C0CB1B
(1739018184.406) RX 1C2#5B
(1739018184.407) RX 11A#01400055400002D8
(1739018184.408) RX 1D4#F70700000746007B
(1739018184.408) RX 1F2#10640000001E000C
(1739018184.408) RX 284#0000000000000E94
(1739018184.408) RX 50C#00000000B2A6
(1739018184.410) RX 1DA#C064180000010322
(1739018184.416) RX 1DB#FDA0BF6A0000002B
(1739018184.416) RX 1DC#B40F8FFD0CCCD8E4
(1739018184.416) RX 1C2#5C
(1739018184.418) RX 11A#014000AA800003CE
(1739018184.418) RX 1D4#F7070000474600BC
(1739018184.418) RX 1F2#10640000001E010D
(1739018184.420) RX 1DA#C064180000010028
(1739018184.426) RX 1DB#FDA0BF6A000001AE
(1739018184.426) RX 1DC#B40F8FFD0130C9CE
(1739018184.426) RX 1C2#5D
(1739018184.427) RX 11A#014000AAC0000003
(1739018184.428) RX 1D4#F707000087460070
(1739018184.428) RX 1F2#10640000001E020E
(1739018184.429) RX 284#0000000000000F95
(1739018184.429) RX 50A#8512A00C8020
(1739018184.430) RX 1DA#C0641800000101AD
(1739018184.436) RX 1DB#FDA0BF6A000002A4
(1739018184.436) RX 1DC#B40F8FFD0520C64C
(1739018184.436) RX 54A#9E0070072600002C
(1739018184.436) RX 1C2#5E
(1739018184.437) RX 54B#0076981214000001
(1739018184.438) RX 11A#0140005500000115
(1739018184.438) RX 54C#6C66400000505800
(1739018184.438) RX 1D4#F7070000C74600B7
(1739018184.439) RX 1F2#10640000001E030F
(1739018184.439) RX 54F#2201000007CF8A3A
(1739018184.440) RX 1DA#C0641800000102A7
(1739018184.446) RX 1DB#FDA0BF6A00000321
(1739018184.446) RX 1DC#B40F8FFD08C0CB1B
(1739018184.446) RX 1C2#5F
(1739018184.447) RX 11A#01400055400002D8
(1739018184.449) RX 1D4#F70700000746007B
(1739018184.449) RX 1F2#10640000001E000C
(1739018184.449) RX 284#0000000000001096
(1739018184.449) RX 380#020410210000008D
(1739018184.450) RX 50B#000006C00060
(1739018184.450) RX 5BF#000000002800001A
(1739018184.450) RX 1DA#C064180000010322
(1739018184.456) RX 1DB#FDA0BF6A0000002B
(1739018184.456) RX 1DC#B40F8FFD0CCCD8E4
(1739018184.456) RX 1C2#50
(1739018184.458) RX 11A#014000AA800003CE
(1739018184.459) RX 1D4#F7070000474600BC
(1739018184.459) RX 1F2#10640000001E010D
(1739018184.460) RX 1DA#C064180000010028
(1739018184.466) RX 1DB#FDA0BF6A000001AE
(1739018184.466) RX 1DC#B40F8FFD0130C9CE
(1739018184.467) RX 55B#C900AA00E40012EE
(1739018184.467) RX 5BC#59032C26B3052092
(1739018184.467) RX 11A#014000AAC0000003
(1739018184.467) RX 1C2#51
(1739018184.469) RX 1D4#F707000087460070
(1739018184.469) RX 1F2#10640000001E020E
(1739018184.470) RX 284#0000000000001197
(1739018184.470) RX 1DA#C0641800000101AD
(1739018184.476) RX 1DB#FD80BF6A000002F5
(1739018184.476) RX 1DC#B40F8FFD0520C64C
(1739018184.477) RX 1C2#52
(1739018184.478) RX 11A#0140005500000115
(1739018184.479) RX 1D4#F7070000C74600B7
(1739018184.480) RX 1F2#10640000001E030F
(1739018184.480) RX 1DA#C0641800000102A7
(1739018184.481) RX 55A#002F2E005F315B68
(1739018184.486) RX 1DB#FD60BF6A00000342
(1739018184.486) RX 1DC#B40F8FFD08C0CB1B
(1739018184.487) RX 1C2#53
(1739018184.487) RX 11A#01400055400002D8
(1739018184.490) RX 1D4#F70700000746007B
(1739018184.490) RX 1F2#10640000001E000C
(1739018184.490) RX 284#0000000000001298
(1739018184.490) RX 1DA#C064180000010322
(1739018184.496) RX 1DB#FD40BF6A00000019
(1739018184.496) RX 1DC#B40F8FFD0CCCD8E4
(1739018184.497) RX 1C2#54
(1739018184.498) RX 11A#014000AA800003CE
(1739018184.500) RX 1D4#F7070000474600BC
(1739018184.500) RX 1F2#10640000001E010D
(1739018184.500) RX 1DA#C064180000010028
(1739018184.506) RX 1DB#FD40BF6A0000019C
(1739018184.506) RX 1DC#B40F8FFD0130C9CE
(1739018184.507) RX 1C2#55
(1739018184.507) RX 11A#014000AAC0000003
(1739018184.510) RX 1D4#F707000087460070
(1739018184.510) RX 1DA#C0641800000101AD
(1739018184.511) RX 1F2#10640000001E020E
(1739018184.511) RX 284#0000000000001399
(1739018184.511) RX 50C#000000015D5F
(1739018184.516) RX 1DB#FD20BF6A00000265
(1739018184.516) RX 1DC#B40F8FFD0520C64C
(1739018184.517) RX 1C2#56
(1739018184.518) RX 11A#0140005500000115
(1739018184.520) RX 1D4#F7070000C74600B7
(1739018184.521) RX 1DA#C0641800000102A7
(1739018184.521) RX 1F2#10640000001E030F
(1739018184.521) RX 5A9#643BB01304300000
(1739018184.526) RX 1DB#FD00BF6A000003B1
(1739018184.526) RX 1DC#B40F8FFD08C0CB1B
(1739018184.527) RX 1C2#57
(1739018184.527) RX 11A#01400055400002D8
(1739018184.530) RX 1DA#C064180000010322
(1739018184.531) RX 1D4#F70700000746007B
(1739018184.531) RX 1F2#10640000001E000C
(1739018184.531) RX 284#000000000000149A
(1739018184.531) RX 50A#8532A00C8020
(1739018184.536) RX 1DB#FCE0BF6A0000008E
(1739018184.536) RX 1DC#B40F8FFD0CCCD8E4
(1739018184.536) RX 54A#100070072600002C
(1739018184.537) RX 1C2#58
(1739018184.537) RX 54B#0076981214000001
(1739018184.538) RX 11A#014000AA800003CE
(1739018184.538) RX 54C#6C66400000505800
(1739018184.539) RX 54F#22010000070F8A3A
(1739018184.540) RX 1DA#C064180000010028
(1739018184.541) RX 1D4#F7070000474600BC
(1739018184.541) RX 1F2#10640000001E010D
(1739018184.541) RX 284#000000000000159B
(1739018184.546) RX 1DB#FCC0BF6A0000015A
(1739018184.546) RX 1DC#B40F8FFD0130C9CE
(1739018184.547) RX 1C2#59
(1739018184.547) RX 11A#014000AAC0000003
(1739018184.549) RX 380#020410210000009E
(1739018184.549) RX 5BF#000000002800002B
(1739018184.550) RX 1DA#C0641800000101AD
(1739018184.551) RX 1D4#F707000087460070
(1739018184.551) RX 1F2#10640000001E020E
(1739018184.552) RX 50B#000006C00060
(1739018184.556) RX 1DB#FCA0BF6A000002A3
(1739018184.556) RX 1DC#B40F8FFD0520C64C
(1739018184.557) RX 1C2#5A
(1739018184.558) RX 11A#0140005500000115
(1739018184.560) RX 1DA#C0641800000102A7
(1739018184.561) RX 1D4#F7070000C74600B7
(1739018184.562) RX 1F2#10640000001E030F
(1739018184.562) RX 284#000000000000169C
(1739018184.566) RX 1DB#FCA0BF2A000003B8
(1739018184.566) RX 1DC#B40F8FFD08C0CB1B
(1739018184.567) RX 55B#C9005500E3001342
(1739018184.567) RX 5BC#59032C26B3052092
(1739018184.567) RX 1C2#5B
(1739018184.568) RX 11A#01400055400002D8
(1739018184.570) RX 1DA#C064180000010322
(1739018184.572) RX 1D4#F70700000746007B
(1739018184.572) RX 1F2#10640000001E000C
(1739018184.576) RX 1DB#FCA0BF2A000000B2
(1739018184.576) RX 1DC#B40F8FFD0CCCD8E4
(1739018184.577) RX 1C2#5C
(1739018184.578) RX 11A#014000AA800003CE
(1739018184.580) RX 1DA#C064180000010028
(1739018184.581) RX 55A#002F2E005F315B68
(1739018184.582) RX 1D4#F7070000474600BC
(1739018184.582) RX 1F2#10640000001E010D
(1739018184.582) RX 284#000000000000179D
(1739018184.586) RX 1DB#FCA0BF6A000001A9
(1739018184.586) RX 1DC#B40F8FFD0130C9CE
(1739018184.587) RX 1C2#5D
(1739018184.587) RX 11A#014000AAC0000003
(1739018184.590) RX 1DA#C0641800000101AD
(1739018184.592) RX 1D4#F707000087460070
(1739018184.592) RX 1F2#10640000001E020E
(1739018184.593) RX 5B9#67FF67FF28
(1739018184.596) RX 1DB#FCA0BF6A000002A3
(1739018184.596) RX 1DC#B40F8FFD0520C64C
(1739018184.597) RX 1C2#5E
(1739018184.598) RX 11A#0140005500000115
(1739018184.600) RX 1DA#C0641800000102A7
(1739018184.602) RX 1D4#F7070000C74600B7
(1739018184.603) RX 1F2#10640000001E030F
(1739018184.603) RX 284#000000000000189E
(1739018184.606) RX 1DB#FC80BF2A000003E9
(1739018184.606) RX 1DC#B40F8FFD08C0CB1B
(1739018184.607) RX 1C2#5F
(1739018184.607) RX 11A#01400055400002D8
(1739018184.610) RX 1DA#C064180000010322
(1739018184.613) RX 1D4#F70700000746007B
(1739018184.613) RX 1F2#10640000001E000C
(1739018184.613) RX 50C#00000002B20D
(1739018184.616) RX 1DB#FC80BF2A000000E3
(1739018184.616) RX 1DC#B40F8FFD0CCCD8E4
(1739018184.617) RX 1C2#50
(1739018184.618) RX 11A#014000AA800003CE
(1739018184.620) RX 1DA#C064180000010028
(1739018184.623) RX 1D4#F7070000474600BC
(1739018184.623) RX 1F2#10640000001E010D
(1739018184.623) RX 284#000000000000199F
(1739018184.626) RX 1DB#FC80BF2A00000166
(1739018184.626) RX 1DC#B40F8FFD0130C9CE
(1739018184.627) RX 11A#014000AAC0000003
(1739018184.627) RX 1C2#51
(1739018184.630) RX 1DA#C0641800000101AD
(1739018184.633) RX 1D4#F707000087460070
(1739018184.633) RX 1F2#10640000001E020E
(1739018184.633) RX 50A#8552A00C8020
(1739018184.616) RX 1DB#FC80BF2A000000E3
(1739018184.616) RX 1DC#B40F8FFD0CCCD8E4
(1739018184.617) RX 1C2#50
(1739018184.618) RX 11A#014000AA800003CE
(1739018184.620) RX 1DA#C064180000010028
(1739018184.623) RX 1D4#F7070000474600BC
(1739018184.623) RX 1F2#10640000001E010D
(1739018184.623) RX 284#0000000000001(1739018184.636) RX 1DB#FC80BF2A0000026C
(1739018184.636) RX 54A#9E0070072600002C
(1739018184.637) RX 1DC#B40F8FFD0520C64C
(1739018184.637) RX 1C2#52
(1739018184.637) RX 54B#0076981214000001
(1739018184.638) RX 11A#0140005500000115
(1739018184.638) RX 54C#6C66400000505800
(1739018184.639) RX 54F#22010000074F8A3A
(1739018184.640) RX 1DA#C0641800000102A7
(1739018184.643) RX 1D4#F7070000C74600B7
(1739018184.644) RX 1F2#10640000001E030F
(1739018184.644) RX 284#0000000000001AA0
(1739018184.646) RX 1DB#FC80BF2A000003E9
(1739018184.647) RX 1DC#B40F8FFD08C0CB1B
(1739018184.647) RX 1C2#53
(1739018184.648) RX 11A#01400055400002D8
(1739018184.649) RX 380#02041021000000AF
(1739018184.649) RX 5BF#000000002800003C
(1739018184.650) RX 1DA#C064180000010322
(1739018184.654) RX 1D4#F70700000746007B
(1739018184.654) RX 1F2#10640000001E000C
(1739018184.654) RX 50B#000006C00060
(1739018184.656) RX 1DB#FCA0BF2A000000B2
(1739018184.656) RX 1DC#B40F8FFD0CCCD8E4
(1739018184.657) RX 1C2#54
(1739018184.658) RX 11A#014000AA800003CE
(1739018184.660) RX 1DA#C064180000010028
(1739018184.664) RX 1D4#F7070000474600BC
(1739018184.664) RX 1F2#10640000001E010D
 1739018184.623) RX 284#0000000000001(1739018184.636) RX 1DB#FC80BF2A0000026C
(1739018184.636) RX 54A#9E0070072600002C
(1739018184.637) RX 1DC#B40F8FFD0520C64C
(1739018184.637) RX 1C2#52
(1739018184.637) RX 54B#0076981214000001
(1739018184.638) RX 11A#0140005500000115
(1739018184.638) RX 54C#6C66400000505800
(1739018184.639) RX 54F#22010000074F8A3A
(1739018184.640) RX 1DA#C0641800000102A7
(1739018184.643) RX 1D4#F7070000C74600B7
(1739018184.644) RX 1F2#10640000001E030F
(1739018184.644) RX 284#0000000000001AA0
(1739018184.646) RX 1DB#FC80BF2A000003E9
(1739018184.647) RX 1DC#B40F8FFD08C0CB1B
(1739018184.647) RX 1C2#53
(1739018184.648) RX 11A#01400055400002D8
(1739018184.649) RX 380#02041021000000AF
(1739018184.649) RX 5BF#000000002800003C
(1739018184.650) RX 1DA#C064180000010322
(1739018184.664) RX 284#0000000000001BA1
(1739018184.666) RX 1DB#FCA0BF2A00000137
(1739018184.667) RX 1DC#B40F8FFD0130C9CE
(1739018184.667) RX 11A#014000AAC0000003
(1739018184.667) RX 55B#C900AA00E300100F
(1739018184.668) RX 5BC#59032C26B3052092
(1739018184.668) RX 1C2#55
(1739018184.670) RX 1DA#C0641800000101AD
(1739018184.674) RX 1D4#F707000087460070
(1739018184.674) RX 1F2#10640000001E020E
(1739018184.676) RX 1DB#FCA0BF2A0000023D
(1739018184.677) RX 1DC#B40F8FFD0520C64C
(1739018184.677) RX 1C2#56
(1739018184.678) RX 11A#0140005500000115
(1739018184.680) RX 1DA#C0641800000102A7
(1739018184.681) RX 55A#002F2E005F315B68
(1739018184.684) RX 1D4#F7070000C74600B7
(1739018184.685) RX 1F2#10640000001E030F
(1739018184.685) RX 284#0000000000001CA2
(1739018184.686) RX 1DB#FCA0BF2A000003B8
(1739018184.687) RX 1DC#B40F8FFD08C0CB1B
(1739018184.687) RX 1C2#57
(1739018184.687) RX 11A#01400055400002D8
(1739018184.690) RX 1DA#C064180000010322
(1739018184.694) RX 1D4#F70700000746007B
(1739018184.695) RX 1F2#10640000001E000C
(1739018184.696) RX 1DB#FCA0BF2A000000B2
(1739018184.697) RX 1DC#B40F8FFD0CCCD8E4
(1739018184.697) RX 1C2#58
(1739018184.698) RX 11A#014000AA800003CE
(1739018184.700) RX 1DA#C064180000010028
(1739018184.705) RX 1D4#F7070000474600BC
(1739018184.705) RX 1F2#10640000001E010D
 1739018184.685) RX 1F2#10640000001E030F
(1739018184.685) RX 284#0000000000001CA2
(1739018184.686) RX 1DB#FCA0BF2A000003B8
(1739018184.687) RX 1DC#B40F8FFD08C0CB1B
(1739018184.687) RX 1C2#57
(1739018184.687) RX 11A#01400055400002D8
(1739018184.690) RX 1DA#C064180000010322
(1739018184.694) RX 1D4#F70700000746007B
(1739018184.695) RX 1F2#10640000001E000C
(1739018184.705) RX 284#0000000000001DA3
(1739018184.706) RX 1DB#FCA0BF2A00000137
(1739018184.707) RX 1DC#B40F8FFD0130C9CE
(1739018184.707) RX 11A#014000AAC0000003
(1739018184.707) RX 1C2#59
(1739018184.710) RX 1DA#C0641800000101AD
(1739018184.715) RX 1D4#F707000087460070
(1739018184.715) RX 1F2#10640000001E020E
(1739018184.715) RX 50C#000000035DF4
(1739018184.716) RX 1DB#FCA0BF2A0000023D
(1739018184.717) RX 1DC#B40F8FFD0520C64C
(1739018184.717) RX 1C2#5A
(1739018184.718) RX 11A#0140005500000115
(1739018184.720) RX 1DA#C0641800000102A7
(1739018184.725) RX 1D4#F7070000C74600B7
(1739018184.725) RX 1F2#10640000001E030F
(1739018184.726) RX 284#0000000000001EA4
(1739018184.726) RX 1DB#FCA0BF2A000003B8
(1739018184.727) RX 1DC#B40F8FFD08C0CB1B
(1739018184.727) RX 1C2#5B
(1739018184.727) RX 11A#01400055400002D8
(1739018184.730) RX 1DA#C064180000010322
(1739018184.735) RX 1D4#F70700000746007B
(1739018184.736) RX 1F2#10640000001E000C
(1739018184.736) RX 50A#8572A00C8020
(1739018184.736) RX 54A#100070072600002C
(1739018184.737) RX 1DB#FCA0BF2A000000B2
(1739018184.737) RX 1DC#B40F8FFD0CCCD8E4
(1739018184.737) RX 1C2#5C
(1739018184.737) RX 54B#0076981214000001
(1739018184.738) RX 11A#014000AA800003CE
(1739018184.738) RX 54C#6C66400000505800
(1739018184.739) RX 54F#22010000078F8A3A
(1739018184.740) RX 1DA#C064180000010028
(1739018184.746) RX 1D4#F7070000474600BC
(1739018184.746) RX 1F2#10640000001E010D
(1739018184.746) RX 284#0000000000001FA5
(1739018184.747) RX 1DB#FCA0BF2A00000137
(1739018184.747) RX 1DC#B40F8FFD0130C9CE
(1739018184.747) RX 11A#014000AAC0000003
(1739018184.747) RX 1C2#5D
(1739018184.749) RX 380#02041021000000B0
(1739018184.749) RX 5BF#0000000028000009
(1739018184.750) RX 1DA#C0641800000101AD
(1739018184.756) RX 1D4#F707000087460070
(1739018184.756) RX 1F2#10640000001E020E
(1739018184.756) RX 50B#000006C00060
(1739018184.757) RX 1DB#FC80BF2A0000026C
(1739018184.757) RX 1DC#B40F8FFD0520C64C
(1739018184.757) RX 1C2#5E
(1739018184.758) RX 11A#0140005500000115
(1739018184.760) RX 1DA#C0641800000102A7
(1739018184.766) RX 1D4#F7070000C74600B7
(1739018184.766) RX 1F2#10640000001E030F
(1739018184.767) RX 284#00000000000020A6
(1739018184.767) RX 1DB#FC80BF2A000003E9
(1739018184.767) RX 1DC#B40F8FFD08C0CB1B
(1739018184.767) RX 11A#01400055400002D8
(1739018184.768) RX 1C2#5F
(1739018184.768) RX 55B#C9005500E30011CD
(1739018184.768) RX 5BC#59032026B2054074
(1739018184.770) RX 1DA#C064180000010322
(1739018184.776) RX 1D4#F70700000746007B
(1739018184.777) RX 1DB#FC80BF2A000000E3
(1739018184.777) RX 1F2#10640000001E000C
(1739018184.777) RX 1DC#B40F8FFD0CCCD8E4
(1739018184.777) RX 1C2#50
(1739018184.778) RX 11A#014000AA800003CE
(1739018184.778) RX 5C0#404C4C0004E41100
(1739018184.778) RX 5EB#E00FFFFFFFFFFFFF
(1739018184.780) RX 1DA#C064180000010028
(1739018184.781) RX 55A#002F2E005F315B68
(1739018184.787) RX 1DB#FC80BF2A00000166
(1739018184.787) RX 1D4#F7070000474600BC
(1739018184.787) RX 11A#014000AAC0000003
(1739018184.787) RX 1DC#B40F8FFD0130C9CE
(1739018184.788) RX 1F2#10640000001E010D
(1739018184.788) RX 1C2#51
(1739018184.788) RX 284#00000000000021A7
(1739018184.790) RX 1DA#C0641800000101AD
(1739018184.797) RX 1DB#FCA0BF2A0000023D
(1739018184.797) RX 1DC#B40F8FFD0520C64C
(1739018184.797) RX 1D4#F707000087460070
(1739018184.797) RX 1F2#10640000001E020E
(1739018184.798) RX 1C2#52
(1739018184.798) RX 11A#0140005500000115
(1739018184.800) RX 1DA#C0641800000102A7
(1739018184.807) RX 1DB#FCA0BF2A000003B8
(1739018184.807) RX 1DC#B40F8FFD08C0CB1B
(1739018184.807) RX 1D4#F7070000C74600B7
(1739018184.807) RX 11A#01400055400002D8
(1739018184.808) RX 1C2#53
(1739018184.808) RX 1F2#10640000001E030F
(1739018184.808) RX 284#00000000000022A8
(1739018184.810) RX 1DA#C064180000010322
(1739018184.817) RX 1DB#FCC0BF2A00000041
(1739018184.817) RX 1DC#B40F8FFD0CCCD8E4
(1739018184.817) RX 1D4#F70700000746007B
(1739018184.818) RX 1C2#54
(1739018184.818) RX 11A#014000AA800003CE
(1739018184.818) RX 1F2#10640000001E000C
(1739018184.818) RX 50C#00000000B2A6
(1739018184.820) RX 1DA#C064180000010028
(1739018184.827) RX 1DB#FCE0BF6A0000010B
(1739018184.827) RX 11A#014000AAC0000003
(1739018184.827) RX 1DC#B40F8FFD0130C9CE
(1739018184.828) RX 1D4#F7070000474600BC
(1739018184.828) RX 1C2#55
(1739018184.828) RX 1F2#10640000001E010D
(1739018184.828) RX 284#00000000000023A9
(1739018184.830) RX 1DA#C0641800000101AD
(1739018184.836) RX 54A#9E0070072600002C
(1739018184.837) RX 1DB#FD00BF6A00000234
(1739018184.837) RX 1DC#B40F8FFD0520C64C
(1739018184.837) RX 54B#0076981214000001
(1739018184.838) RX 1C2#56
(1739018184.838) RX 11A#0140005500000115
(1739018184.838) RX 1D4#F707000087460070
(1739018184.838) RX 1F2#10640000001E020E
(1739018184.838) RX 50A#8512A00C8020
(1739018184.839) RX 54C#6C66400000505800
(1739018184.839) RX 54F#2201000007CF8A3A
(1739018184.840) RX 1DA#C0641800000102A7
(1739018184.847) RX 1DB#FD20BF6A000003E0
(1739018184.847) RX 1DC#B40F8FFD08C0CB1B
(1739018184.847) RX 11A#01400055400002D8
(1739018184.848) RX 1C2#57
(1739018184.848) RX 1D4#F7070000C74600B7
(1739018184.848) RX 1F2#10640000001E030F
(1739018184.849) RX 284#00000000000024AA
(1739018184.849) RX 380#020410210000008D
(1739018184.849) RX 5BF#000000002800001A
(1739018184.850) RX 1DA#C064180000010322
(1739018184.857) RX 1DB#FD40BF6A00000019
(1739018184.857) RX 1DC#B40F8FFD0CCCD8E4
(1739018184.857) RX 1C2#58
(1739018184.858) RX 11A#014000AA800003CE
(1739018184.858) RX 1D4#F70700000746007B
(1739018184.859) RX 1F2#10640000001E000C
(1739018184.859) RX 50B#000006C00060
(1739018184.860) RX 1DA#C064180000010028
(1739018184.867) RX 11A#014000AAC0000003
(1739018184.867) RX 1DB#FD40BF6A0000019C
(1739018184.867) RX 1DC#B40F8FFD0130C9CE
(1739018184.868) RX 55B#C900AA00E3C012A2
(1739018184.868) RX 1C2#59
(1739018184.868) RX 5BC#59032026B2054074
(1739018184.869) RX 1D4#F7070000474600BC
(1739018184.869) RX 1F2#10640000001E010D
(1739018184.869) RX 284#00000000000025AB
(1739018184.870) RX 1DA#C0641800000101AD
(1739018184.877) RX 1DB#FD60BF6A000002C7
(1739018184.877) RX 1DC#B40F8FFD0520C64C
(1739018184.877) RX 1C2#5A
(1739018184.878) RX 11A#0140005500000115
(1739018184.879) RX 1D4#F707000087460070
(1739018184.879) RX 1F2#10640000001E020E
(1739018184.880) RX 1DA#C0641800000102A7
(1739018184.881) RX 55A#002F2E005F315B68
(1739018184.887) RX 1DB#FD80BF6A00000370
(1739018184.887) RX 1DC#B40F8FFD08C0CB1B
(1739018184.887) RX 11A#01400055400002D8
(1739018184.888) RX 1C2#5B
(1739018184.889) RX 1D4#F7070000C74600B7
(1739018184.889) RX 1F2#10640000001E030F
(1739018184.890) RX 284#00000000000026AC
(1739018184.890) RX 1DA#C064180000010322
(1739018184.897) RX 1DB#FDA0BF6A0000002B
(1739018184.897) RX 1DC#B40F8FFD0CCCD8E4
(1739018184.898) RX 1C2#5C
(1739018184.898) RX 11A#014000AA800003CE
(1739018184.899) RX 1D4#F70700000746007B
(1739018184.900) RX 1F2#10640000001E000C
(1739018184.900) RX 1DA#C064180000010028
(1739018184.907) RX 1DB#FDA0BF6A000001AE
(1739018184.907) RX 11A#014000AAC0000003
(1739018184.907) RX 1DC#B40F8FFD0130C9CE
(1739018184.908) RX 1C2#5D
(1739018184.910) RX 1D4#F7070000474600BC
(1739018184.910) RX 1F2#10640000001E010D
(1739018184.910) RX 284#00000000000027AD
(1739018184.910) RX 1DA#C0641800000101AD
(1739018184.917) RX 1DB#FDA0BF6A000002A4
(1739018184.917) RX 1DC#B40F8FFD0520C64C
(1739018184.918) RX 1C2#5E
(1739018184.918) RX 11A#0140005500000115
(1739018184.920) RX 1D4#F707000087460070
(1739018184.920) RX 1F2#10640000001E020E
(1739018184.920) RX 1DA#C0641800000102A7
(1739018184.921) RX 50C#000000015D5F
(1739018184.927) RX 1DB#FDA0BF6A00000321
(1739018184.927) RX 1DC#B40F8FFD08C0CB1B
(1739018184.928) RX 11A#01400055400002D8
(1739018184.928) RX 1C2#5F
(1739018184.930) RX 1D4#F7070000C74600B7
(1739018184.930) RX 1DA#C064180000010322
(1739018184.931) RX 1F2#10640000001E030F
(1739018184.931) RX 284#00000000000028AE
(1739018184.936) RX 54A#100070072600002C
(1739018184.937) RX 1DB#FDA0BF6A0000002B
(1739018184.937) RX 1DC#B40F8FFD0CCCD8E4
(1739018184.938) RX 54B#0076981214000001
(1739018184.938) RX 11A#014000AA800003CE
(1739018184.938) RX 1C2#50
(1739018184.938) RX 54C#6C66400000505800
(1739018184.939) RX 54F#22010000070F8A3A
(1739018184.940) RX 1DA#C064180000010028
(1739018184.941) RX 1D4#F70700000746007B
(1739018184.941) RX 1F2#10640000001E000C
(1739018184.941) RX 50A#8532A00C8020
(1739018184.947) RX 11A#014000AAC0000003
(1739018184.947) RX 1DB#FDA0BF6A000001AE
(1739018184.947) RX 1DC#B40F8FFD0130C9CE
(1739018184.948) RX 1C2#51
(1739018184.949) RX 380#020410210000009E
(1739018184.950) RX 5BF#000000002800002B
(1739018184.950) RX 1DA#C0641800000101AD
(1739018184.951) RX 1D4#F7070000474600BC
(1739018184.951) RX 1F2#10640000001E010D
(1739018184.951) RX 284#00000000000029AF
(1739018184.957) RX 1DB#FDA0BF6A000002A4
(1739018184.957) RX 1DC#B40F8FFD0520C64C
(1739018184.958) RX 11A#0140005500000115
(1739018184.958) RX 1C2#52
(1739018184.960) RX 1DA#C0641800000102A7
(1739018184.961) RX 1D4#F707000087460070
(1739018184.961) RX 1F2#10640000001E020E
(1739018184.961) RX 284#0000000000002AB0
(1739018184.962) RX 50B#000006C00060
(1739018184.967) RX 1DB#FDA0BF6A00000321
(1739018184.967) RX 11A#01400055400002D8
(1739018184.968) RX 1DC#B40F8FFD08C0CB1B
(1739018184.968) RX 55B#C9005500E3C01360
(1739018184.968) RX 5BC#59032026B2054074
(1739018184.968) RX 1C2#53
(1739018184.970) RX 1DA#C064180000010322
(1739018184.971) RX 1D4#F7070000C74600B7
(1739018184.971) RX 1F2#10640000001E030F
(1739018184.977) RX 1DB#FDA0BF6A0000002B
(1739018184.977) RX 1DC#B40F8FFD0CCCD8E4
(1739018184.978) RX 11A#014000AA800003CE
(1739018184.978) RX 1C2#54
(1739018184.980) RX 1DA#C064180000010028
(1739018184.981) RX 55A#002F2E005F315B68
(1739018184.981) RX 1D4#F70700000746007B
(1739018184.982) RX 1F2#10640000001E000C
(1739018184.982) RX 284#0000000000002BB1
(1739018184.987) RX 11A#014000AAC0000003
(1739018184.987) RX 1DB#FDA0BF6A000001AE
(1739018184.988) RX 1DC#B40F8FFD0130C9CE
(1739018184.988) RX 1C2#55
(1739018184.990) RX 1DA#C0641800000101AD
(1739018184.992) RX 1D4#F7070000474600BC
(1739018184.992) RX 1F2#10640000001E010D
(1739018184.997) RX 1DB#FDA0BF6A000002A4
(1739018184.997) RX 1DC#B40F8FFD0520C64C
(1739018184.998) RX 11A#0140005500000115
(1739018184.998) RX 1C2#56
(1739018185.000) RX 1DA#C0641800000102A7
(1739018185.002) RX 1D4#F707000087460070
(1739018185.002) RX 1F2#10640000001E020E
(1739018185.002) RX 284#0000000000002CB2
(1739018185.007) RX 1DB#FDA0BF6A00000321
(1739018185.007) RX 11A#01400055400002D8
(1739018185.008) RX 1DC#B40F8FFD08C0CB1B
(1739018185.008) RX 1C2#57
(1739018185.010) RX 1DA#C064180000010322
(1739018185.012) RX 1D4#F7070000C74600B7
(1739018185.012) RX 1F2#10640000001E030F
(1739018185.017) RX 1DB#FDA0BF6A0000002B
(1739018185.018) RX 1DC#B40F8FFD0CCCD8E4
(1739018185.018) RX 11A#014000AA800003CE
(1739018185.018) RX 1C2#58
(1739018185.020) RX 1DA#C064180000010028
(1739018185.022) RX 1D4#F70700000746007B
(1739018185.023) RX 1F2#10640000001E000C
(1739018185.023) RX 284#0000000000002DB3
(1739018185.023) RX 50C#00000002B20D
(1739018185.027) RX 11A#014000AAC0000003
(1739018185.027) RX 1DB#FDA0BF6A000001AE
(1739018185.028) RX 1DC#B40F8FFD0130C9CE
(1739018185.028) RX 1C2#59
(1739018185.030) RX 1DA#C0641800000101AD
(1739018185.033) RX 1D4#F7070000474600BC
(1739018185.033) RX 1F2#10640000001E010D
(1739018185.033) RX 5A9#643BB01304300000
(1739018185.037) RX 54A#9E0070072600002C
(1739018185.037) RX 1DB#FDA0BF6A000002A4
(1739018185.038) RX 54B#0076981214000001
(1739018185.038) RX 11A#0140005500000115
(1739018185.038) RX 1DC#B40F8FFD0520C64C
(1739018185.038) RX 1C2#5A
(1739018185.039) RX 54C#6C66400000505800
(1739018185.040) RX 54F#22010000074F8A3A
(1739018185.040) RX 1DA#C0641800000102A7
(1739018185.043) RX 1D4#F707000087460070
(1739018185.043) RX 1F2#10640000001E020E
(1739018185.043) RX 284#0000000000002EB4
(1739018185.044) RX 50A#8552A00C8020
(1739018185.047) RX 1DB#FDA0BF6A00000321
(1739018185.048) RX 11A#01400055400002D8
(1739018185.048) RX 1DC#B40F8FFD08C0CB1B
(1739018185.048) RX 1C2#5B
(1739018185.049) RX 380#02041021000000AF
(1739018185.050) RX 5BF#000000002800003C
(1739018185.050) RX 1DA#C064180000010322
(1739018185.053) RX 1D4#F7070000C74600B7
(1739018185.053) RX 1F2#10640000001E030F
(1739018185.057) RX 1DB#FDA0BF6A0000002B
(1739018185.058) RX 1DC#B40F8FFD0CCCD8E4
(1739018185.058) RX 11A#014000AA800003CE
(1739018185.058) RX 1C2#5C
(1739018185.060) RX 1DA#C064180000010028
(1739018185.063) RX 1D4#F70700000746007B
(1739018185.064) RX 1F2#10640000001E000C
(1739018185.064) RX 284#0000000000002FB5
(1739018185.064) RX 50B#000006C00060
(1739018185.067) RX 11A#014000AAC0000003
(1739018185.067) RX 1DB#FDA0BF6A000001AE
(1739018185.068) RX 1DC#B40F8FFD0130C9CE
(1739018185.068) RX 55B#C900AA00E3C0102D
(1739018185.068) RX 1C2#5D
(1739018185.069) RX 5BC#59032026B2054074
(1739018185.070) RX 1DA#C0641800000101AD
(1739018185.074) RX 1D4#F7070000474600BC
(1739018185.074) RX 1F2#10640000001E010D
(1739018185.077) RX 1DB#FDA0BF6A000002A4
(1739018185.078) RX 1DC#B40F8FFD0520C64C
(1739018185.078) RX 11A#0140005500000115
(1739018185.078) RX 1C2#5E
(1739018185.080) RX 1DA#C0641800000102A7
(1739018185.081) RX 55A#002F2E005F315B68
(1739018185.084) RX 1D4#F707000087460070
(1739018185.084) RX 1F2#10640000001E020E
(1739018185.084) RX 284#00000000000030B6
(1739018185.087) RX 11A#01400055400002D8
(1739018185.088) RX 1DB#FDA0BF6A00000321
(1739018185.088) RX 1DC#B40F8FFD08C0CB1B
(1739018185.088) RX 1C2#5F
(1739018185.090) RX 1DA#C064180000010322
(1739018185.094) RX 1D4#F7070000C74600B7
(1739018185.094) RX 1F2#10640000001E030F
(1739018185.097) RX 1DB#FDA0BF6A0000002B
(1739018185.098) RX 11A#014000AA800003CE
(1739018185.098) RX 1DC#B40F8FFD0CCCD8E4
(1739018185.098) RX 1C2#50
(1739018185.100) RX 1DA#C064180000010028
(1739018185.104) RX 1D4#F70700000746007B
(1739018185.104) RX 1F2#10640000001E000C
(1739018185.105) RX 284#00000000000031B7
(1739018185.105) RX 5B9#67FF67FF28
(1739018185.107) RX 11A#014000AAC0000003
(1739018185.108) RX 1DB#FDA0BF6A000001AE
(1739018185.108) RX 1DC#B40F8FFD0130C9CE
(1739018185.108) RX 1C2#51
(1739018185.110) RX 1DA#C0641800000101AD
(1739018185.115) RX 1D4#F7070000474600BC
(1739018185.115) RX 1F2#10640000001E010D
(1739018185.117) RX 1DB#FDA0BF6A000002A4
(1739018185.118) RX 11A#0140005500000115
(1739018185.118) RX 1DC#B40F8FFD0520C64C
(1739018185.118) RX 1C2#52
(1739018185.120) RX 1DA#C0641800000102A7
(1739018185.125) RX 1D4#F707000087460070
(1739018185.125) RX 1F2#10640000001E020E
(1739018185.125) RX 284#00000000000032B8
(1739018185.125) RX 50C#000000035DF4
(1739018185.127) RX 11A#01400055400002D8
(1739018185.128) RX 1DB#FDA0BF6A00000321
(1739018185.128) RX 1DC#B40F8FFD08C0CB1B
(1739018185.128) RX 1C2#53
(1739018185.130) RX 1DA#C064180000010322
(1739018185.135) RX 1D4#F7070000C74600B7
(1739018185.135) RX 1F2#10640000001E030F
(1739018185.137) RX 54A#100070072600002C
(1739018185.138) RX 1DB#FDA0BF6A0000002B
(1739018185.138) RX 11A#014000AA800003CE
(1739018185.138) RX 1DC#B40F8FFD0CCCD8E4
(1739018185.138) RX 54B#0076981214000001
(1739018185.138) RX 1C2#54
(1739018185.140) RX 54C#6C66400000505800
(1739018185.140) RX 1DA#C064180000010028
(1739018185.141) RX 54F#22010000078F8A3A
(1739018185.145) RX 1D4#F70700000746007B
(1739018185.146) RX 1F2#10640000001E000C
(1739018185.146) RX 284#00000000000033B9
(1739018185.146) RX 50A#8572A00C8020
(1739018185.147) RX 11A#014000AAC0000003
(1739018185.148) RX 1DB#FDA0BF6A000001AE
(1739018185.148) RX 1DC#B40F8FFD0130C9CE
(1739018185.148) RX 1C2#55
(1739018185.150) RX 380#02041021000000B0
(1739018185.150) RX 5BF#0000000028000009
(1739018185.150) RX 1DA#C0641800000101AD
(1739018185.155) RX 1D4#F7070000474600BC
(1739018185.156) RX 1F2#10640000001E010D
(1739018185.158) RX 1DB#FDA0BF6A000002A4
(1739018185.158) RX 11A#0140005500000115
(1739018185.158) RX 1DC#B40F8FFD0520C64C
(1739018185.158) RX 1C2#56
(1739018185.160) RX 1DA#C0641800000102A7
(1739018185.166) RX 1D4#F707000087460070
(1739018185.166) RX 1F2#10640000001E020E
(1739018185.166) RX 284#00000000000034BA
(1739018185.166) RX 50B#000006C00060
(1739018185.167) RX 11A#01400055400002D8
(1739018185.168) RX 1DB#FDA0BF6A00000321
(1739018185.168) RX 1DC#B40F8FFD08C0CB1B
(1739018185.168) RX 1C2#57
(1739018185.169) RX 55B#C9005500E3C011EF
(1739018185.169) RX 5BC#59032026B2054074
(1739018185.170) RX 1DA#C064180000010322
(1739018185.176) RX 1D4#F7070000C74600B7
(1739018185.176) RX 1F2#10640000001E030F
(1739018185.178) RX 1DB#FDA0BF6A0000002B
(1739018185.178) RX 11A#014000AA800003CE
(1739018185.178) RX 1DC#B40F8FFD0CCCD8E4
(1739018185.178) RX 1C2#58
(1739018185.180) RX 1DA#C064180000010028
(1739018185.180) RX 55A#002F2E005F315B68
(1739018185.186) RX 1D4#F70700000746007B
(1739018185.187) RX 1F2#10640000001E000C
(1739018185.187) RX 284#00000000000035BB
(1739018185.187) RX 11A#014000AAC0000003
(1739018185.188) RX 1DB#FDA0BF6A000001AE
(1739018185.188) RX 1DC#B40F8FFD0130C9CE
(1739018185.188) RX 1C2#59
(1739018185.190) RX 1DA#C0641800000101AD
(1739018185.196) RX 1D4#F7070000474600BC
(1739018185.197) RX 1F2#10640000001E010D
(1739018185.198) RX 11A#0140005500000115
(1739018185.198) RX 1DB#FDA0BF6A000002A4
(1739018185.198) RX 1DC#B40F8FFD0520C64C
(1739018185.198) RX 1C2#5A
(1739018185.200) RX 1DA#C0641800000102A7
(1739018185.207) RX 1D4#F707000087460070
(1739018185.207) RX 1F2#10640000001E020E
(1739018185.207) RX 284#00000000000036BC
(1739018185.207) RX 11A#01400055400002D8
(1739018185.208) RX 1DB#FDA0BF6A00000321
(1739018185.208) RX 1DC#B40F8FFD08C0CB1B
(1739018185.208) RX 1C2#5B
(1739018185.210) RX 1DA#C064180000010322
(1739018185.217) RX 1D4#F7070000C74600B7
(1739018185.217) RX 1F2#10640000001E030F
(1739018185.218) RX 11A#014000AA800003CE
(1739018185.218) RX 1DB#FDA0BF6A0000002B
(1739018185.218) RX 1DC#B40F8FFD0CCCD8E4
(1739018185.218) RX 1C2#5C
(1739018185.220) RX 1DA#C064180000010028
(1739018185.227) RX 11A#014000AAC0000003
(1739018185.227) RX 1D4#F70700000746007B
(1739018185.227) RX 1F2#10640000001E000C
(1739018185.228) RX 284#00000000000037BD
(1739018185.228) RX 1DB#FDA0BF6A000001AE
(1739018185.228) RX 50C#00000000B2A6
(1739018185.228) RX 1DC#B40F8FFD0130C9CE
(1739018185.229) RX 1C2#5D
(1739018185.230) RX 1DA#C0641800000101AD
(1739018185.237) RX 54A#9E0070072600002C
(1739018185.237) RX 1D4#F7070000474600BC
(1739018185.238) RX 1F2#10640000001E010D
(1739018185.238) RX 11A#0140005500000115
(1739018185.238) RX 1DB#FDA0BF6A000002A4
(1739018185.238) RX 54B#0076981214000001
(1739018185.239) RX 1DC#B40F8FFD0520C64C
(1739018185.239) RX 1C2#5E
(1739018185.240) RX 54C#6C66400000505800
(1739018185.240) RX 1DA#C0641800000102A7
(1739018185.241) RX 54F#2201000007CF8A3A
(1739018185.247) RX 11A#01400055400002D8
(1739018185.248) RX 1D4#F707000087460070
(1739018185.248) RX 1DB#FDA0BF6A00000321
(1739018185.248) RX 1F2#10640000001E020E
(1739018185.248) RX 1DC#B40F8FFD08C0CB1B
(1739018185.249) RX 284#00000000000038BE
(1739018185.249) RX 1C2#5F
(1739018185.249) RX 50A#8512A00C8020
(1739018185.250) RX 380#020410210000008D
(1739018185.250) RX 5BF#000000002800001A
(1739018185.250) RX 1DA#C064180000010322
(1739018185.258) RX 11A#014000AA800003CE
(1739018185.258) RX 1DB#FDA0BF6A0000002B
(1739018185.258) RX 1D4#F7070000C74600B7
(1739018185.258) RX 1DC#B40F8FFD0CCCD8E4
(1739018185.259) RX 1F2#10640000001E030F
(1739018185.259) RX 1C2#50
(1739018185.260) RX 1DA#C064180000010028
(1739018185.267) RX 11A#014000AAC0000003
(1739018185.268) RX 1DB#FDA0BF6A000001AE
(1739018185.268) RX 1D4#F70700000746007B
(1739018185.269) RX 1DC#B40F8FFD0130C9CE
(1739018185.269) RX 1F2#10640000001E000C
(1739018185.269) RX 284#00000000000039BF
(1739018185.269) RX 50B#000006C00060
(1739018185.269) RX 55B#C900AA00E3C012A2
(1739018185.270) RX 1C2#51
(1739018185.270) RX 5BC#59032C26B30620A0
(1739018185.270) RX 1DA#C0641800000101AD
(1739018185.278) RX 11A#0140005500000115
(1739018185.278) RX 1DB#FDA0BF6A000002A4
(1739018185.278) RX 1D4#F7070000474600BC
(1739018185.279) RX 1DC#B40F8FFD0520C64C
(1739018185.279) RX 1F2#10640000001E010D
(1739018185.279) RX 1C2#52
(1739018185.279) RX 5C0#C04C4C0004541100
(1739018185.280) RX 5EB#E00FFFFFFFFFFFFF
(1739018185.280) RX 1DA#C0641800000102A7
(1739018185.280) RX 55A#002F2E005F315B68
(1739018185.287) RX 11A#01400055400002D8
(1739018185.288) RX 1DB#FDA0BF6A00000321
(1739018185.288) RX 1DC#B40F8FFD08C0CB1B
(1739018185.289) RX 1D4#F707000087460070
(1739018185.289) RX 1C2#53
(1739018185.289) RX 1F2#10640000001E020E
(1739018185.289) RX 284#0000000000003AC0
(1739018185.290) RX 1DA#C064180000010322
(1739018185.298) RX 11A#014000AA800003CE
(1739018185.298) RX 1DB#FD80BF6A0000007A
(1739018185.298) RX 1DC#B40F8FFD0CCCD8E4
(1739018185.298) RX 1C2#54
(1739018185.299) RX 1D4#F7070000C74600B7
(1739018185.299) RX 1F2#10640000001E030F
(1739018185.300) RX 1DA#C064180000010028
(1739018185.307) RX 11A#014000AAC0000003
(1739018185.308) RX 1DB#FD60BF6A000001CD
(1739018185.308) RX 1DC#B40F8FFD0130C9CE
(1739018185.309) RX 1C2#55
(1739018185.309) RX 1D4#F70700000746007B
(1739018185.309) RX 1F2#10640000001E000C
(1739018185.310) RX 284#0000000000003BC1
(1739018185.310) RX 1DA#C0641800000101AD
(1739018185.318) RX 11A#0140005500000115
(1739018185.318) RX 1DB#FD40BF6A00000296
(1739018185.318) RX 1DC#B40F8FFD0520C64C
(1739018185.319) RX 1C2#56
(1739018185.319) RX 1D4#F7070000474600BC
(1739018185.320) RX 1F2#10640000001E010D
(1739018185.320) RX 1DA#C0641800000102A7
(1739018185.328) RX 11A#01400055400002D8
(1739018185.328) RX 1DB#FD40BF6A00000313
(1739018185.329) RX 1DC#B40F8FFD08C0CB1B
(1739018185.329) RX 1C2#57
(1739018185.330) RX 1D4#F707000087460070
(1739018185.330) RX 1F2#10640000001E020E
(1739018185.330) RX 284#0000000000003CC2
(1739018185.330) RX 1DA#C064180000010322
(1739018185.331) RX 50C#000000015D5F
(1739018185.337) RX 54A#100070072600002C
(1739018185.338) RX 11A#014000AA800003CE
(1739018185.338) RX 54B#0076981214000001
(1739018185.338) RX 1DB#FD20BF6A000000EA
(1739018185.339) RX 1DC#B40F8FFD0CCCD8E4
(1739018185.339) RX 54C#6C66400000505800
(1739018185.339) RX 1C2#58
(1739018185.340) RX 54F#22010000070F8A3A
(1739018185.340) RX 1D4#F7070000C74600B7
(1739018185.340) RX 1DA#C064180000010028
(1739018185.341) RX 1F2#10640000001E030F
(1739018185.347) RX 11A#014000AAC0000003
(1739018185.348) RX 1DB#FD00BF6A0000013E
(1739018185.348) RX 1DC#B40F8FFD0130C9CE
(1739018185.349) RX 1C2#59
(1739018185.350) RX 380#020410210000009E
(1739018185.350) RX 5BF#000000002800002B
(1739018185.350) RX 1D4#F70700000746007B
(1739018185.350) RX 1DA#C0641800000101AD
(1739018185.351) RX 1F2#10640000001E000C
(1739018185.351) RX 284#0000000000003DC3
(1739018185.351) RX 50A#8532A00C8020
(1739018185.358) RX 11A#0140005500000115
(1739018185.358) RX 1DB#FCE0BF6A00000201
(1739018185.359) RX 1DC#B40F8FFD0520C64C
(1739018185.359) RX 1C2#5A
(1739018185.360) RX 1DA#C0641800000102A7
(1739018185.360) RX 1D4#F7070000474600BC
(1739018185.361) RX 1F2#10640000001E010D
(1739018185.367) RX 11A#01400055400002D8
(1739018185.368) RX 1DB#FCC0BF6A000003D5
(1739018185.369) RX 1DC#B40F8FFD08C0CB1B
(1739018185.369) RX 55B#C9005500E3C01360
(1739018185.369) RX 1C2#5B
(1739018185.369) RX 5BC#59032C26B30620A0
(1739018185.370) RX 1DA#C064180000010322
(1739018185.371) RX 1D4#F707000087460070
(1739018185.371) RX 1F2#10640000001E020E
(1739018185.371) RX 284#0000000000003EC4
(1739018185.371) RX 50B#000006C00060
(1739018185.378) RX 11A#014000AA800003CE
(1739018185.378) RX 1DB#FCA0BF6A0000002C
(1739018185.379) RX 1DC#B40F8FFD0CCCD8E4
(1739018185.379) RX 1C2#5C
(1739018185.380) RX 1DA#C064180000010028
(1739018185.380) RX 55A#002F2E005F315B68
(1739018185.381) RX 1D4#F7070000C74600B7
(1739018185.381) RX 1F2#10640000001E030F
(1739018185.381) RX 284#0000000000003FC5
(1739018185.387) RX 11A#014000AAC0000003
(1739018185.388) RX 1DB#FCA0BF2A00000137
(1739018185.389) RX 1DC#B40F8FFD0130C9CE
(1739018185.389) RX 1C2#5D
(1739018185.390) RX 1DA#C0641800000101AD
(1739018185.391) RX 1D4#F70700000746007B
(1739018185.391) RX 1F2#10640000001E000C
(1739018185.398) RX 11A#0140005500000115
(1739018185.398) RX 1DB#FCA0BF2A0000023D
(1739018185.399) RX 1DC#B40F8FFD0520C64C
(1739018185.399) RX 1C2#5E
(1739018185.400) RX 1DA#C0641800000102A7
(1739018185.401) RX 1D4#F7070000474600BC
(1739018185.402) RX 1F2#10640000001E010D
(1739018185.402) RX 284#00000000000040C6
(1739018185.407) RX 11A#01400055400002D8
(1739018185.408) RX 1DB#FCA0BF2A000003B8
(1739018185.409) RX 1DC#B40F8FFD08C0CB1B
(1739018185.409) RX 1C2#5F
(1739018185.410) RX 1DA#C064180000010322
(1739018185.412) RX 1D4#F707000087460070
(1739018185.412) RX 1F2#10640000001E020E
(1739018185.418) RX 11A#014000AA800003CE
(1739018185.419) RX 1DB#FCA0BF2A000000B2
(1739018185.419) RX 1DC#B40F8FFD0CCCD8E4
(1739018185.419) RX 1C2#50
(1739018185.420) RX 1DA#C064180000010028
(1739018185.422) RX 1D4#F7070000C74600B7
(1739018185.422) RX 1F2#10640000001E030F
(1739018185.422) RX 284#00000000000041C7
(1739018185.427) RX 11A#014000AAC0000003
(1739018185.428) RX 1DB#FC80BF2A00000166
(1739018185.429) RX 1DC#B40F8FFD0130C9CE
(1739018185.429) RX 1C2#51
(1739018185.430) RX 1DA#C0641800000101AD
(1739018185.432) RX 1D4#F70700000746007B
(1739018185.432) RX 1F2#10640000001E000C
(1739018185.432) RX 50C#00000002B20D
(1739018185.437) RX 54A#9E0070072600002C
(1739018185.438) RX 11A#0140005500000115
(1739018185.438) RX 54B#0076981214000001
(1739018185.439) RX 1DB#FC80BF2A0000026C
(1739018185.439) RX 54C#6C66400000505800
(1739018185.439) RX 1DC#B40F8FFD0520C64C
(1739018185.439) RX 1C2#52
(1739018185.440) RX 54F#22010000074F8A3A
(1739018185.440) RX 1DA#C0641800000102A7
(1739018185.442) RX 1D4#F7070000474600BC
(1739018185.443) RX 1F2#10640000001E010D
(1739018185.443) RX 284#00000000000042C8
(1739018185.448) RX 11A#01400055400002D8
(1739018185.448) RX 1DB#FC80BF2A000003E9
(1739018185.449) RX 1DC#B40F8FFD08C0CB1B
(1739018185.449) RX 1C2#53
(1739018185.450) RX 380#02041021000000AF
(1739018185.450) RX 5BF#000000002800003C
(1739018185.450) RX 1DA#C064180000010322
(1739018185.453) RX 1D4#F707000087460070
(1739018185.453) RX 1F2#10640000001E020E
(1739018185.453) RX 50A#8552A00C8020
(1739018185.458) RX 11A#014000AA800003CE
(1739018185.459) RX 1DB#FC80BF2A000000E3
(1739018185.459) RX 1DC#B40F8FFD0CCCD8E4
(1739018185.459) RX 1C2#54
(1739018185.460) RX 1DA#C064180000010028
(1739018185.463) RX 1D4#F7070000C74600B7
(1739018185.463) RX 1F2#10640000001E030F
(1739018185.463) RX 284#00000000000043C9
(1739018185.467) RX 11A#014000AAC0000003
