(1739018645.539) RX 1D4#F7070000474600BC
(1739018645.539) RX 1F2#10640000001E010D
(1739018645.539) RX 284#0000000000001FA5
(1739018645.544) RX 11A#014000AA800003CE
(1739018645.546) RX 1DA#C0641800000101AD
(1739018645.546) RX 1DB#FF00BF2A000001AE
(1739018645.547) RX 1DC#B40F8FFD0130C9CE
(1739018645.547) RX 1C2#52
(1739018645.547) RX 55B#C740AA00E58010AD
(1739018645.547) RX 5BC#59032C26B305209A
(1739018645.549) RX 1D4#F707000087460070
(1739018645.549) RX 1F2#10640000001E020E
(1739018645.550) RX 5B9#67FF67FF28
(1739018645.550) RX 11A#014000AAC0000003
(1739018645.556) RX 1DB#FF00BF2A000002A4
(1739018645.556) RX 1DA#C0641800000102A7
(1739018645.556) RX 1DC#B40F8FFD0520C64C
(1739018645.557) RX 1C2#53
(1739018645.557) RX 5C0#C04C4C0004541100
(1739018645.557) RX 5EB#E00FFFFFFFFFFFFF
(1739018645.559) RX 1D4#F7070000C74600B7
(1739018645.560) RX 1F2#10640000001E030F
(1739018645.560) RX 284#00000000000020A6
(1739018645.561) RX 11A#0140005500000115
(1739018645.566) RX 1DB#FF00BF2A00000321
(1739018645.566) RX 1DA#C064180000010322
(1739018645.566) RX 1DC#B40F8FFD08C0CB1B
(1739018645.567) RX 1C2#54
(1739018645.570) RX 1D4#F70700000746007B
(1739018645.570) RX 1F2#10640000001E000C
(1739018645.570) RX 50C#000000025D63
(1739018645.571) RX 11A#01400055400002D8
(1739018645.571) RX 54A#9E0070072600002C
(1739018645.572) RX 54B#004898120C000001
(1739018645.573) RX 54C#7866400000405800
(1739018645.574) RX 54F#2B01000007C88A60
(1739018645.576) RX 1DB#FF00BF2A0000002B
(1739018645.576) RX 1DA#C064180000010028
(1739018645.576) RX 1DC#B40F8FFD0CCCD8E4
(1739018645.577) RX 1C2#55
(1739018645.580) RX 1D4#F7070000474600BC
(1739018645.580) RX 1F2#10640000001E010D
(1739018645.580) RX 284#00000000000021A7
(1739018645.581) RX 11A#014000AA800003CE
(1739018645.586) RX 1DA#C0641800000101AD
(1739018645.586) RX 1DB#FF00BF2A000001AE
(1739018645.587) RX 1DC#B40F8FFD0130C9CE
(1739018645.587) RX 1C2#56
(1739018645.590) RX 11A#014000AAC0000003
(1739018645.590) RX 1D4#F707000087460070
(1739018645.591) RX 1F2#10640000001E020E
(1739018645.591) RX 50A#8552A00D8020
(1739018645.596) RX 1DB#FF00BF2A000002A4
(1739018645.596) RX 1DA#C0641800000102A7
(1739018645.596) RX 1DC#B40F8FFD0520C64C
(1739018645.597) RX 55A#00302F005F315B08
(1739018645.597) RX 1C2#57
(1739018645.600) RX 1D4#F7070000C74600B7
(1739018645.601) RX 1F2#10640000001E030F
(1739018645.601) RX 11A#0140005500000115
(1739018645.601) RX 284#00000000000022A8
(1739018645.604) RX 380#02041021000000B0
(1739018645.604) RX 5BF#0000000028000009
(1739018645.606) RX 1DA#C064180000010322
(1739018645.606) RX 1DB#FF00BF2A00000321
(1739018645.607) RX 1DC#B40F8FFD08C0CB1B
(1739018645.607) RX 1C2#58
(1739018645.610) RX 11A#01400055400002D8
(1739018645.611) RX 1D4#F70700000746007B
(1739018645.611) RX 1F2#10640000001E000C
(1739018645.611) RX 50B#000006C00060
(1739018645.616) RX 1DA#C064180000010028
(1739018645.616) RX 1DB#FF00BF2A0000002B
(1739018645.617) RX 1DC#B40F8FFD0CCCD8E4
(1739018645.617) RX 1C2#59
(1739018645.621) RX 11A#014000AA800003CE
(1739018645.621) RX 1D4#F7070000474600BC
(1739018645.621) RX 1F2#10640000001E010D
(1739018645.622) RX 284#00000000000023A9
(1739018645.626) RX 1DA#C0641800000101AD
(1739018645.626) RX 1DB#FF00BF2A000001AE
(1739018645.627) RX 1DC#B40F8FFD0130C9CE
(1739018645.627) RX 1C2#5A
(1739018645.630) RX 11A#014000AAC0000003
(1739018645.631) RX 1D4#F707000087460070
(1739018645.631) RX 1F2#10640000001E020E
(1739018645.636) RX 1DA#C0641800000102A7
(1739018645.636) RX 1DB#FF00BF2A000002A4
(1739018645.637) RX 1DC#B40F8FFD0520C64C
(1739018645.637) RX 1C2#5B
(1739018645.641) RX 11A#0140005500000115
(1739018645.641) RX 1D4#F7070000C74600B7
(1739018645.642) RX 1F2#10640000001E030F
(1739018645.642) RX 284#00000000000024AA
(1739018645.648) RX 1DA#C064180000010322
(1739018645.649) RX 1DB#FF00BF2A00000321
(1739018645.649) RX 1C2#5C
(1739018645.649) RX 1DC#B40F8FFD08C0CB1B
(1739018645.649) RX 55B#C7405500E580116F
(1739018645.649) RX 5BC#59032C26B305209A
(1739018645.651) RX 11A#01400055400002D8
(1739018645.652) RX 1D4#F70700000746007B
(1739018645.652) RX 1F2#10640000001E000C
(1739018645.656) RX 1DA#C064180000010028
(1739018645.656) RX 1DB#FF00BF2A0000002B
(1739018645.657) RX 1DC#B40F8FFD0CCCD8E4
(1739018645.657) RX 1C2#5D
(1739018645.661) RX 11A#014000AA800003CE
(1739018645.662) RX 1D4#F7070000474600BC
(1739018645.662) RX 1F2#10640000001E010D
(1739018645.662) RX 284#00000000000025AB
(1739018645.666) RX 1DA#C0641800000101AD
(1739018645.666) RX 1DB#FF00BF2A000001AE
(1739018645.667) RX 1DC#B40F8FFD0130C9CE
(1739018645.667) RX 1C2#5E
(1739018645.670) RX 11A#014000AAC0000003
(1739018645.671) RX 54A#100070072600002C
(1739018645.672) RX 1D4#F707000087460070
(1739018645.672) RX 1F2#10640000001E020E
(1739018645.673) RX 284#00000000000026AC
(1739018645.673) RX 50C#00000003B29A
(1739018645.673) RX 54B#004898120C000001
(1739018645.674) RX 54C#7866400000405800
(1739018645.675) RX 54F#2B01000007088A60
(1739018645.676) RX 1DA#C0641800000102A7
(1739018645.676) RX 1DB#FF00BF2A000002A4
(1739018645.677) RX 1DC#B40F8FFD0520C64C
(1739018645.677) RX 1C2#5F
(1739018645.681) RX 11A#0140005500000115
(1739018645.682) RX 1D4#F7070000C74600B7
(1739018645.683) RX 1F2#10640000001E030F
(1739018645.686) RX 1DA#C064180000010322
(1739018645.686) RX 1DB#FF00BF2A00000321
(1739018645.687) RX 1DC#B40F8FFD08C0CB1B
(1739018645.687) RX 1C2#50
(1739018645.690) RX 11A#01400055400002D8
(1739018645.693) RX 1D4#F70700000746007B
(1739018645.693) RX 1F2#10640000001E000C
(1739018645.693) RX 284#00000000000027AD
(1739018645.693) RX 50A#8572A00D8020
(1739018645.696) RX 1DA#C064180000010028
(1739018645.696) RX 55A#00302F005F315B08
(1739018645.696) RX 1DB#FF00BF2A0000002B
(1739018645.697) RX 1DC#B40F8FFD0CCCD8E4
(1739018645.697) RX 1C2#51
(1739018645.701) RX 11A#014000AA800003CE
(1739018645.703) RX 1D4#F7070000474600BC
(1739018645.703) RX 1F2#10640000001E010D
(1739018645.704) RX 380#020410210000008D
(1739018645.704) RX 5BF#000000002800001A
(1739018645.706) RX 1DA#C0641800000101AD
(1739018645.706) RX 1DB#FF00BF2A000001AE
(1739018645.707) RX 1DC#B40F8FFD0130C9CE
(1739018645.707) RX 1C2#52
(1739018645.710) RX 11A#014000AAC0000003
(1739018645.713) RX 1D4#F707000087460070
(1739018645.713) RX 1F2#10640000001E020E
(1739018645.714) RX 284#00000000000028AE
(1739018645.714) RX 50B#000006C00060
(1739018645.716) RX 1DA#C0641800000102A7
(1739018645.716) RX 1DB#FF00BF2A000002A4
(1739018645.717) RX 1DC#B40F8FFD0520C64C
(1739018645.717) RX 1C2#53
(1739018645.721) RX 11A#0140005500000115
(1739018645.723) RX 1D4#F7070000C74600B7
(1739018645.724) RX 1F2#10640000001E030F
(1739018645.726) RX 1DA#C064180000010322
(1739018645.726) RX 1DB#FF00BF2A00000321
(1739018645.727) RX 1C2#54
(1739018645.727) RX 1DC#B40F8FFD08C0CB1B
(1739018645.730) RX 11A#01400055400002D8
(1739018645.734) RX 1D4#F70700000746007B
(1739018645.734) RX 1F2#10640000001E000C
(1739018645.734) RX 284#00000000000029AF
(1739018645.736) RX 1DA#C064180000010028
(1739018645.736) RX 1DB#FF00BF2A0000002B
(1739018645.737) RX 1DC#B40F8FFD0CCCD8E4
(1739018645.737) RX 1C2#55
(1739018645.741) RX 11A#014000AA800003CE
(1739018645.744) RX 1D4#F7070000474600BC
(1739018645.744) RX 1F2#10640000001E010D
(1739018645.746) RX 1DA#C0641800000101AD
(1739018645.747) RX 1DB#FF00BF2A000001AE
(1739018645.747) RX 1C2#56
(1739018645.747) RX 1DC#B40F8FFD0130C9CE
(1739018645.747) RX 55B#C740AA00E5801222
(1739018645.748) RX 5BC#59032C26B305209A
(1739018645.750) RX 11A#014000AAC0000003
(1739018645.754) RX 1D4#F707000087460070
(1739018645.754) RX 1F2#10640000001E020E
(1739018645.755) RX 284#0000000000002AB0
(1739018645.756) RX 1DA#C0641800000102A7
(1739018645.756) RX 1DB#FF00BF2A000002A4
(1739018645.757) RX 1C2#57
(1739018645.757) RX 1DC#B40F8FFD0520C64C
(1739018645.761) RX 11A#0140005500000115
(1739018645.764) RX 1D4#F7070000C74600B7
(1739018645.765) RX 1F2#10640000001E030F
(1739018645.766) RX 1DA#C064180000010322
(1739018645.767) RX 1DB#FF00BF2A00000321
(1739018645.767) RX 1C2#58
(1739018645.767) RX 1DC#B40F8FFD08C0CB1B
(1739018645.770) RX 11A#01400055400002D8
(1739018645.771) RX 54A#9E0070072600002C
(1739018645.772) RX 54B#004898120C000001
(1739018645.773) RX 54C#7866400000405800
(1739018645.774) RX 54F#2B01000007488A60
(1739018645.775) RX 1D4#F70700000746007B
(1739018645.775) RX 1F2#10640000001E000C
(1739018645.775) RX 284#0000000000002BB1
(1739018645.775) RX 50C#000000005DC8
(1739018645.776) RX 1DA#C064180000010028
(1739018645.777) RX 1DB#FF00BF2A0000002B
(1739018645.777) RX 1DC#B40F8FFD0CCCD8E4
(1739018645.777) RX 1C2#59
(1739018645.781) RX 11A#014000AA800003CE
(1739018645.785) RX 1D4#F7070000474600BC
(1739018645.785) RX 1F2#10640000001E010D
(1739018645.786) RX 1DA#C0641800000101AD
(1739018645.787) RX 1DB#FF00BF2A000001AE
(1739018645.787) RX 1C2#5A
(1739018645.787) RX 1DC#B40F8FFD0130C9CE
(1739018645.790) RX 11A#014000AAC0000003
(1739018645.795) RX 1D4#F707000087460070
(1739018645.795) RX 1F2#10640000001E020E
(1739018645.796) RX 284#0000000000002CB2
(1739018645.796) RX 50A#8512A00D8020
(1739018645.796) RX 1DA#C0641800000102A7
(1739018645.796) RX 55A#00302F005F315B08
(1739018645.797) RX 1DB#FF00BF2A000002A4
(1739018645.797) RX 1DC#B40F8FFD0520C64C
(1739018645.797) RX 1C2#5B
(1739018645.801) RX 11A#0140005500000115
(1739018645.804) RX 380#020410210000009E
(1739018645.804) RX 5BF#000000002800002B
(1739018645.805) RX 1D4#F7070000C74600B7
(1739018645.805) RX 1F2#10640000001E030F
(1739018645.806) RX 1DA#C064180000010322
(1739018645.807) RX 1DB#FF00BF2A00000321
(1739018645.807) RX 1C2#5C
(1739018645.807) RX 1DC#B40F8FFD08C0CB1B
(1739018645.811) RX 11A#01400055400002D8
(1739018645.816) RX 1D4#F70700000746007B
(1739018645.816) RX 1F2#10640000001E000C
(1739018645.816) RX 1DA#C064180000010028
(1739018645.816) RX 284#0000000000002DB3
(1739018645.816) RX 50B#000006C00060
(1739018645.817) RX 1DB#FF00BF2A0000002B
(1739018645.817) RX 1C2#5D
(1739018645.817) RX 1DC#B40F8FFD0CCCD8E4
(1739018645.821) RX 11A#014000AA800003CE
(1739018645.826) RX 1D4#F7070000474600BC
(1739018645.826) RX 1F2#10640000001E010D
(1739018645.826) RX 1DA#C0641800000101AD
(1739018645.827) RX 1DB#FF00BF2A000001AE
(1739018645.827) RX 1C2#5E
(1739018645.828) RX 1DC#B40F8FFD0130C9CE
(1739018645.830) RX 11A#014000AAC0000003
(1739018645.836) RX 1DA#C0641800000102A7
(1739018645.836) RX 1D4#F707000087460070
(1739018645.836) RX 1F2#10640000001E020E
(1739018645.837) RX 284#0000000000002EB4
(1739018645.837) RX 1DB#FF00BF2A000002A4
(1739018645.837) RX 1C2#5F
(1739018645.837) RX 1DC#B40F8FFD0520C64C
(1739018645.841) RX 11A#0140005500000115
(1739018645.846) RX 1DA#C064180000010322
(1739018645.846) RX 1D4#F7070000C74600B7
(1739018645.846) RX 1F2#10640000001E030F
(1739018645.847) RX 1C2#50
(1739018645.847) RX 1DB#FEE0BF2A00000314
(1739018645.848) RX 1DC#B40F8FFD08C0CB1B
(1739018645.848) RX 55B#C7405500E58013E0
(1739018645.848) RX 5BC#59032C26B305209A
(1739018645.851) RX 11A#01400055400002D8
(1739018645.856) RX 1DA#C064180000010028
(1739018645.856) RX 1D4#F70700000746007B
(1739018645.857) RX 1F2#10640000001E000C
(1739018645.857) RX 1DB#FEC0BF2A0000004F
(1739018645.857) RX 284#0000000000002FB5
(1739018645.857) RX 1C2#51
(1739018645.858) RX 1DC#B40F8FFD0CCCD8E4
(1739018645.861) RX 11A#014000AA800003CE
(1739018645.866) RX 1DA#C0641800000101AD
(1739018645.867) RX 1D4#F7070000474600BC
(1739018645.867) RX 1DB#FEA0BF2A00000139
(1739018645.867) RX 1F2#10640000001E010D
(1739018645.867) RX 1DC#B40F8FFD0130C9CE
(1739018645.868) RX 1C2#52
(1739018645.870) RX 11A#014000AAC0000003
(1739018645.871) RX 54A#100070072600002C
(1739018645.872) RX 54B#004898120C000001
(1739018645.873) RX 54C#7866400000405800
(1739018645.874) RX 54F#2B01000007888A60
(1739018645.876) RX 1DA#C0641800000102A7
(1739018645.877) RX 1DB#FE80BF2A00000262
(1739018645.877) RX 1D4#F707000087460070
(1739018645.877) RX 1DC#B40F8FFD0520C64C
(1739018645.878) RX 1F2#10640000001E020E
(1739018645.878) RX 1C2#53
(1739018645.878) RX 284#00000000000030B6
(1739018645.878) RX 50C#00000001B231
(1739018645.881) RX 11A#0140005500000115
(1739018645.886) RX 1DA#C064180000010322
(1739018645.887) RX 1DB#FE80BF2A000003E7
(1739018645.887) RX 1DC#B40F8FFD08C0CB1B
(1739018645.887) RX 1D4#F7070000C74600B7
(1739018645.888) RX 1C2#54
(1739018645.888) RX 1F2#10640000001E030F
(1739018645.890) RX 11A#01400055400002D8
(1739018645.896) RX 1DA#C064180000010028
(1739018645.896) RX 55A#00302F005F315B08
(1739018645.897) RX 1DB#FE60BF2A000000DF
(1739018645.897) RX 1DC#B40F8FFD0CCCD8E4
(1739018645.897) RX 1D4#F70700000746007B
(1739018645.898) RX 1C2#55
(1739018645.898) RX 1F2#10640000001E000C
(1739018645.898) RX 284#00000000000031B7
(1739018645.898) RX 50A#8532A00D8020
(1739018645.901) RX 11A#014000AA800003CE
(1739018645.904) RX 380#02041021000000AF
(1739018645.904) RX 5BF#000000002800003C
(1739018645.906) RX 1DA#C0641800000101AD
(1739018645.907) RX 1DB#FE40BF2A0000010B
(1739018645.907) RX 1DC#B40F8FFD0130C9CE
(1739018645.907) RX 1C2#56
(1739018645.908) RX 1D4#F7070000474600BC
(1739018645.908) RX 1F2#10640000001E010D
(1739018645.910) RX 11A#014000AAC0000003
(1739018645.916) RX 1DA#C0641800000102A7
(1739018645.917) RX 1DB#FE20BF2A000002F2
(1739018645.917) RX 1DC#B40F8FFD0520C64C
(1739018645.917) RX 1C2#57
(1739018645.918) RX 1D4#F707000087460070
(1739018645.918) RX 1F2#10640000001E020E
(1739018645.918) RX 284#00000000000032B8
(1739018645.919) RX 50B#000006C00060
(1739018645.921) RX 11A#0140005500000115
(1739018645.926) RX 1DA#C064180000010322
(1739018645.927) RX 1DB#FE00BF2A00000326
(1739018645.927) RX 1C2#58
(1739018645.928) RX 1DC#B40F8FFD08C0CB1B
(1739018645.928) RX 1D4#F7070000C74600B7
(1739018645.928) RX 1F2#10640000001E030F
(1739018645.931) RX 11A#01400055400002D8
(1739018645.936) RX 1DA#C064180000010028
(1739018645.937) RX 1DB#FDE0BF2A00000017
(1739018645.937) RX 1DC#B40F8FFD0CCCD8E4
(1739018645.937) RX 1C2#59
(1739018645.938) RX 1D4#F70700000746007B
(1739018645.939) RX 1F2#10640000001E000C
(1739018645.939) RX 284#00000000000033B9
(1739018645.941) RX 11A#014000AA800003CE
(1739018645.946) RX 1DA#C0641800000101AD
(1739018645.947) RX 1DB#FDE0BEEA00000142
(1739018645.947) RX 1C2#5A
(1739018645.948) RX 1DC#B40F8FFD0130C9CE
(1739018645.948) RX 55B#C740AA00E58010AD
(1739018645.948) RX 5BC#59032C26B305209A
(1739018645.949) RX 1D4#F7070000474600BC
(1739018645.949) RX 1F2#10640000001E010D
(1739018645.950) RX 11A#014000AAC0000003
(1739018645.956) RX 1DA#C0641800000102A7
(1739018645.957) RX 1DB#FDE0BEEA00000248
(1739018645.957) RX 1DC#B40F8FFD0520C64C
(1739018645.958) RX 1C2#5B
(1739018645.959) RX 1D4#F707000087460070
(1739018645.959) RX 1F2#10640000001E020E
(1739018645.959) RX 284#00000000000034BA
(1739018645.961) RX 11A#0140005500000115
(1739018645.966) RX 1DA#C064180000010322
(1739018645.967) RX 1DB#FDE0BEEA000003CD
(1739018645.967) RX 1DC#B40F8FFD08C0CB1B
(1739018645.968) RX 1C2#5C
(1739018645.969) RX 1D4#F7070000C74600B7
(1739018645.969) RX 1F2#10640000001E030F
(1739018645.970) RX 11A#01400055400002D8
(1739018645.971) RX 54A#9E0070072600002C
(1739018645.972) RX 54B#004898120C000001
(1739018645.973) RX 54C#7866400000405800
(1739018645.974) RX 54F#2B01000007C88A60
(1739018645.976) RX 1DA#C064180000010028
(1739018645.977) RX 1DB#FDE0BEEA000000C7
(1739018645.977) RX 1DC#B40F8FFD0CCCD8E4
(1739018645.978) RX 1C2#5D
(1739018645.980) RX 1D4#F70700000746007B
(1739018645.980) RX 1F2#10640000001E000C
(1739018645.980) RX 284#00000000000035BB
(1739018645.980) RX 50C#000000025D63
(1739018645.981) RX 11A#014000AA800003CE
(1739018645.986) RX 1DA#C0641800000101AD
(1739018645.987) RX 1DB#FDE0BEEA00000142
(1739018645.987) RX 1DC#B40F8FFD0130C9CE
(1739018645.988) RX 1C2#5E
(1739018645.990) RX 1D4#F7070000474600BC
(1739018645.990) RX 1F2#10640000001E010D
(1739018645.990) RX 11A#014000AAC0000003
(1739018645.990) RX 5A9#643BB01304300000
(1739018645.996) RX 1DA#C0641800000102A7
(1739018645.996) RX 55A#00302F005F315B08
(1739018645.997) RX 1DB#FDE0BEEA00000248
(1739018645.997) RX 1DC#B40F8FFD0520C64C
(1739018645.998) RX 1C2#5F
(1739018646.000) RX 1D4#F707000087460070
(1739018646.000) RX 1F2#10640000001E020E
(1739018646.000) RX 284#00000000000036BC
(1739018646.001) RX 50A#8552A00D8020
(1739018646.001) RX 11A#0140005500000115
(1739018646.004) RX 380#02041021000000B0
(1739018646.004) RX 5BF#0000000028000009
(1739018646.006) RX 1DA#C064180000010322
(1739018646.007) RX 1DB#FDE0BEEA000003CD
(1739018646.007) RX 1C2#50
(1739018646.008) RX 1DC#B40F8FFD08C0CB1B
(1739018646.010) RX 1D4#F7070000C74600B7
(1739018646.010) RX 1F2#10640000001E030F
(1739018646.011) RX 11A#01400055400002D8
(1739018646.016) RX 1DA#C064180000010028
(1739018646.017) RX 1DB#FE00BEEA000000FC
(1739018646.017) RX 1DC#B40F8FFD0CCCD8E4
(1739018646.018) RX 1C2#51
(1739018646.020) RX 1D4#F70700000746007B
(1739018646.021) RX 1F2#10640000001E000C
(1739018646.021) RX 11A#014000AA800003CE
(1739018646.021) RX 284#00000000000037BD
(1739018646.021) RX 50B#000006C00060
(1739018646.026) RX 1DA#C0641800000101AD
(1739018646.027) RX 1DB#FE20BEEA00000128
(1739018646.027) RX 1C2#52
(1739018646.028) RX 1DC#B40F8FFD0130C9CE
(1739018646.030) RX 11A#014000AAC0000003
(1739018646.031) RX 1D4#F7070000474600BC
(1739018646.031) RX 1F2#10640000001E010D
(1739018646.036) RX 1DA#C0641800000102A7
(1739018646.037) RX 1DB#FE40BEEA000002D1
(1739018646.038) RX 1DC#B40F8FFD0520C64C
(1739018646.038) RX 1C2#53
(1739018646.041) RX 11A#0140005500000115
(1739018646.041) RX 1D4#F707000087460070
(1739018646.041) RX 1F2#10640000001E020E
(1739018646.041) RX 284#00000000000038BE
(1739018646.046) RX 1DA#C064180000010322
(1739018646.047) RX 1DB#FE60BF2A000003D5
(1739018646.048) RX 1C2#54
(1739018646.048) RX 1DC#B40F8FFD08C0CB1B
(1739018646.048) RX 55B#C7405500E580116F
(1739018646.049) RX 5BC#59032026B205407A
(1739018646.050) RX 11A#01400055400002D8
(1739018646.051) RX 1D4#F7070000C74600B7
(1739018646.051) RX 1F2#10640000001E030F
(1739018646.056) RX 1DA#C064180000010028
(1739018646.057) RX 1DB#FE80BF2A000000ED
(1739018646.058) RX 1C2#55
(1739018646.058) RX 1DC#B40F8FFD0CCCD8E4
(1739018646.058) RX 5C0#804C4C0004A01100
(1739018646.059) RX 5EB#E00FFFFFFFFFFFFF
(1739018646.061) RX 11A#014000AA800003CE
(1739018646.061) RX 1D4#F70700000746007B
(1739018646.062) RX 1F2#10640000001E000C
(1739018646.062) RX 284#00000000000039BF
(1739018646.062) RX 5B9#67FF67FF28
(1739018646.066) RX 1DA#C0641800000101AD
(1739018646.067) RX 1DB#FE80BF2A00000168
(1739018646.068) RX 1C2#56
(1739018646.068) RX 1DC#B40F8FFD0130C9CE
(1739018646.070) RX 11A#014000AAC0000003
(1739018646.071) RX 54A#100070072600002C
(1739018646.072) RX 1D4#F7070000474600BC
(1739018646.072) RX 1F2#10640000001E010D
(1739018646.072) RX 54B#004898120C000001
(1739018646.073) RX 54C#7866400000405800
(1739018646.074) RX 54F#2B01000007088A60
(1739018646.076) RX 1DA#C0641800000102A7
(1739018646.077) RX 1DB#FEA0BF2A00000233
(1739018646.078) RX 1DC#B40F8FFD0520C64C
(1739018646.078) RX 1C2#57
(1739018646.081) RX 11A#0140005500000115
(1739018646.082) RX 1D4#F707000087460070
(1739018646.082) RX 1F2#10640000001E020E
(1739018646.082) RX 284#0000000000003AC0
(1739018646.083) RX 50C#00000003B29A
(1739018646.086) RX 1DA#C064180000010322
(1739018646.087) RX 1DB#FEC0BF2A00000345
(1739018646.088) RX 1C2#58
(1739018646.088) RX 1DC#B40F8FFD08C0CB1B
(1739018646.091) RX 11A#01400055400002D8
(1739018646.092) RX 1D4#F7070000C74600B7
(1739018646.092) RX 1F2#10640000001E030F
(1739018646.093) RX 284#0000000000003BC1
(1739018646.096) RX 1DA#C064180000010028
(1739018646.096) RX 55A#00302F005F315B08
(1739018646.097) RX 1DB#FEE0BF2A0000001E
(1739018646.098) RX 1C2#59
(1739018646.098) RX 1DC#B40F8FFD0CCCD8E4
(1739018646.101) RX 11A#014000AA800003CE
(1739018646.102) RX 1D4#F70700000746007B
(1739018646.103) RX 1F2#10640000001E000C
(1739018646.103) RX 50A#8572A00D8020
(1739018646.104) RX 380#020410210000008D
(1739018646.104) RX 5BF#000000002800001A
(1739018646.106) RX 1DA#C0641800000101AD
(1739018646.108) RX 1DB#FF00BF2A000001AE
(1739018646.108) RX 1C2#5A
(1739018646.108) RX 1DC#B40F8FFD0130C9CE
(1739018646.110) RX 11A#014000AAC0000003
(1739018646.113) RX 1D4#F7070000474600BC
(1739018646.113) RX 1F2#10640000001E010D
(1739018646.113) RX 284#0000000000003CC2
(1739018646.116) RX 1DA#C0641800000102A7
(1739018646.117) RX 1DB#FF00BF2A000002A4
(1739018646.118) RX 1C2#5B
(1739018646.118) RX 1DC#B40F8FFD0520C64C
(1739018646.121) RX 11A#0140005500000115
(1739018646.123) RX 1D4#F707000087460070
(1739018646.123) RX 1F2#10640000001E020E
(1739018646.123) RX 50B#000006C00060
(1739018646.126) RX 1DA#C064180000010322
(1739018646.128) RX 1DB#FF00BF2A00000321
(1739018646.128) RX 1C2#5C
(1739018646.128) RX 1DC#B40F8FFD08C0CB1B
(1739018646.131) RX 11A#01400055400002D8
(1739018646.133) RX 1D4#F7070000C74600B7
(1739018646.133) RX 1F2#10640000001E030F
(1739018646.134) RX 284#0000000000003DC3
(1739018646.136) RX 1DA#C064180000010028
(1739018646.138) RX 1DB#FF00BF2A0000002B
(1739018646.138) RX 1C2#5D
(1739018646.138) RX 1DC#B40F8FFD0CCCD8E4
(1739018646.141) RX 11A#014000AA800003CE
(1739018646.143) RX 1D4#F70700000746007B
(1739018646.144) RX 1F2#10640000001E000C
(1739018646.146) RX 1DA#C0641800000101AD
(1739018646.148) RX 1DB#FF00BF2A000001AE
(1739018646.148) RX 1C2#5E
(1739018646.148) RX 1DC#B40F8FFD0130C9CE
(1739018646.148) RX 55B#C740AA00E4001266
(1739018646.149) RX 5BC#59032026B205407A
(1739018646.150) RX 11A#014000AAC0000003
(1739018646.154) RX 1D4#F7070000474600BC
(1739018646.154) RX 1F2#10640000001E010D
(1739018646.154) RX 284#0000000000003EC4
(1739018646.156) RX 1DA#C0641800000102A7
(1739018646.158) RX 1DB#FF00BF2A000002A4
(1739018646.158) RX 1C2#5F
(1739018646.158) RX 1DC#B40F8FFD0520C64C
(1739018646.161) RX 11A#0140005500000115
(1739018646.164) RX 1D4#F707000087460070
(1739018646.164) RX 1F2#10640000001E020E
(1739018646.166) RX 1DA#C064180000010322
(1739018646.168) RX 1DB#FF00BF2A00000321
(1739018646.168) RX 1C2#50
(1739018646.168) RX 1DC#B40F8FFD08C0CB1B
(1739018646.171) RX 11A#01400055400002D8
(1739018646.172) RX 54A#9E0070072600002C
(1739018646.173) RX 54B#004898120C000001
(1739018646.174) RX 54C#7866400000405800
(1739018646.174) RX 1D4#F7070000C74600B7
(1739018646.174) RX 1F2#10640000001E030F
(1739018646.175) RX 284#0000000000003FC5
(1739018646.175) RX 54F#2B01000007488A60
(1739018646.176) RX 1DA#C064180000010028
(1739018646.178) RX 1DB#FF00BF2A0000002B
(1739018646.178) RX 1C2#51
(1739018646.178) RX 1DC#B40F8FFD0CCCD8E4
(1739018646.181) RX 11A#014000AA800003CE
(1739018646.184) RX 1D4#F70700000746007B
(1739018646.185) RX 1F2#10640000001E000C
(1739018646.185) RX 50C#000000005DC8
(1739018646.186) RX 1DA#C0641800000101AD
(1739018646.188) RX 1DB#FF00BF2A000001AE
(1739018646.188) RX 1C2#52
(1739018646.188) RX 1DC#B40F8FFD0130C9CE
(1739018646.190) RX 11A#014000AAC0000003
(1739018646.194) RX 1D4#F7070000474600BC
(1739018646.195) RX 1F2#10640000001E010D
(1739018646.195) RX 284#00000000000040C6
(1739018646.196) RX 1DA#C0641800000102A7
(1739018646.196) RX 55A#00302F005F315B08
(1739018646.198) RX 1DB#FF00BF2A000002A4
(1739018646.198) RX 1C2#53
(1739018646.198) RX 1DC#B40F8FFD0520C64C
(1739018646.201) RX 11A#0140005500000115
(1739018646.204) RX 380#020410210000009E
(1739018646.204) RX 5BF#000000002800002B
(1739018646.205) RX 1D4#F707000087460070
(1739018646.205) RX 1F2#10640000001E020E
(1739018646.205) RX 50A#8512A00D8020
(1739018646.206) RX 1DA#C064180000010322
(1739018646.208) RX 1DB#FF00BF2A00000321
(1739018646.208) RX 1C2#54
(1739018646.208) RX 1DC#B40F8FFD08C0CB1B
(1739018646.210) RX 11A#01400055400002D8
(1739018646.215) RX 1D4#F7070000C74600B7
(1739018646.215) RX 1F2#10640000001E030F
(1739018646.215) RX 284#00000000000041C7
(1739018646.216) RX 1DA#C064180000010028
(1739018646.218) RX 1DB#FF00BF2A0000002B
(1739018646.218) RX 1C2#55
(1739018646.218) RX 1DC#B40F8FFD0CCCD8E4
(1739018646.221) RX 11A#014000AA800003CE
(1739018646.225) RX 1D4#F70700000746007B
(1739018646.225) RX 1F2#10640000001E000C
(1739018646.226) RX 50B#000006C00060
(1739018646.226) RX 1DA#C0641800000101AD
(1739018646.228) RX 1DB#FF00BF2A000001AE
(1739018646.228) RX 1C2#56
(1739018646.228) RX 1DC#B40F8FFD0130C9CE
(1739018646.230) RX 11A#014000AAC0000003
(1739018646.235) RX 1D4#F7070000474600BC
(1739018646.236) RX 1F2#10640000001E010D
(1739018646.236) RX 1DA#C0641800000102A7
(1739018646.236) RX 284#00000000000042C8
(1739018646.238) RX 1DB#FF00BF2A000002A4
(1739018646.238) RX 1C2#57
(1739018646.238) RX 1DC#B40F8FFD0520C64C
(1739018646.241) RX 11A#0140005500000115
(1739018646.246) RX 1D4#F707000087460070
(1739018646.246) RX 1DA#C064180000010322
(1739018646.246) RX 1F2#10640000001E020E
(1739018646.248) RX 1DB#FF00BF2A00000321
(1739018646.248) RX 1C2#58
(1739018646.248) RX 1DC#B40F8FFD08C0CB1B
(1739018646.249) RX 55B#C7405500E40013A4
(1739018646.249) RX 5BC#59032026B205407A
(1739018646.250) RX 11A#01400055400002D8
(1739018646.256) RX 1DA#C064180000010028
(1739018646.256) RX 1D4#F7070000C74600B7
(1739018646.256) RX 1F2#10640000001E030F
(1739018646.257) RX 284#00000000000043C9
(1739018646.258) RX 1DB#FF20BF2A0000007A
(1739018646.258) RX 1C2#59
(1739018646.258) RX 1DC#B40F8FFD0CCCD8E4
(1739018646.261) RX 11A#014000AA800003CE
(1739018646.266) RX 1DA#C0641800000101AD
(1739018646.266) RX 1D4#F70700000746007B
(1739018646.266) RX 1F2#10640000001E000C
(1739018646.268) RX 1DB#FF20BF2A000001FF
(1739018646.268) RX 1C2#5A
(1739018646.268) RX 1DC#B40F8FFD0130C9CE
(1739018646.270) RX 11A#014000AAC0000003
(1739018646.272) RX 54A#100070072600002C
(1739018646.273) RX 54B#004898120C000001
(1739018646.274) RX 54C#7866400000405800
(1739018646.275) RX 54F#2B01000007888A60
(1739018646.276) RX 1DA#C0641800000102A7
(1739018646.277) RX 1D4#F7070000474600BC
(1739018646.277) RX 1F2#10640000001E010D
(1739018646.277) RX 284#00000000000044CA
(1739018646.278) RX 1DB#FF20BF2A000002F5
(1739018646.278) RX 1C2#5B
(1739018646.279) RX 1DC#B40F8FFD0520C64C
(1739018646.281) RX 11A#0140005500000115
(1739018646.286) RX 1DA#C064180000010322
(1739018646.287) RX 1D4#F707000087460070
(1739018646.287) RX 1F2#10640000001E020E
(1739018646.287) RX 50C#00000001B231
(1739018646.288) RX 1C2#5C
(1739018646.288) RX 1DB#FF00BF2A00000321
(1739018646.289) RX 1DC#B40F8FFD08C0CB1B
(1739018646.290) RX 11A#01400055400002D8
(1739018646.296) RX 1DA#C064180000010028
(1739018646.296) RX 55A#00302F005F315B08
(1739018646.297) RX 1D4#F7070000C74600B7
(1739018646.297) RX 1F2#10640000001E030F
(1739018646.297) RX 284#00000000000045CB
(1739018646.298) RX 1C2#5D
(1739018646.298) RX 1DB#FF00BF2A0000002B
(1739018646.299) RX 1DC#B40F8FFD0CCCD8E4
(1739018646.301) RX 11A#014000AA800003CE
(1739018646.304) RX 380#02041021000000AF
(1739018646.304) RX 5BF#000000002800003C
(1739018646.306) RX 1DA#C0641800000101AD
(1739018646.307) RX 1D4#F70700000746007B
(1739018646.307) RX 1F2#10640000001E000C
(1739018646.308) RX 50A#8532A00D8020
(1739018646.308) RX 1DB#FF00BF2A000001AE
(1739018646.308) RX 1C2#5E
(1739018646.309) RX 1DC#B40F8FFD0130C9CE
(1739018646.310) RX 11A#014000AAC0000003
(1739018646.316) RX 1DA#C0641800000102A7
(1739018646.317) RX 1D4#F7070000474600BC
(1739018646.318) RX 1F2#10640000001E010D
(1739018646.318) RX 284#00000000000046CC
(1739018646.318) RX 1DB#FF00BF2A000002A4
(1739018646.318) RX 1C2#5F
(1739018646.319) RX 1DC#B40F8FFD0520C64C
(1739018646.321) RX 11A#0140005500000115
(1739018646.326) RX 1DA#C064180000010322
(1739018646.328) RX 1D4#F707000087460070
(1739018646.328) RX 1F2#10640000001E020E
(1739018646.328) RX 1DB#FF00BF2A00000321
(1739018646.328) RX 50B#000006C00060
(1739018646.329) RX 1C2#50
(1739018646.329) RX 1DC#B40F8FFD08C0CB1B
(1739018646.330) RX 11A#01400055400002D8
(1739018646.336) RX 1DA#C064180000010028
(1739018646.338) RX 1D4#F7070000C74600B7
(1739018646.338) RX 1DB#FF00BF2A0000002B
(1739018646.338) RX 1F2#10640000001E030F
(1739018646.339) RX 1C2#51
(1739018646.339) RX 284#00000000000047CD
(1739018646.339) RX 1DC#B40F8FFD0CCCD8E4
(1739018646.341) RX 11A#014000AA800003CE
(1739018646.346) RX 1DA#C0641800000101AD
(1739018646.348) RX 1C2#52
(1739018646.348) RX 1D4#F70700000746007B
(1739018646.348) RX 1DB#FF00BF2A000001AE
(1739018646.349) RX 1F2#10640000001E000C
(1739018646.349) RX 1DC#B40F8FFD0130C9CE
(1739018646.349) RX 55B#C740AA00E3C010A5
(1739018646.349) RX 5BC#59032026B205407A
(1739018646.350) RX 11A#014000AAC0000003
(1739018646.356) RX 1DA#C0641800000102A7
(1739018646.358) RX 1DB#FF00BF2A000002A4
(1739018646.358) RX 1D4#F7070000474600BC
(1739018646.359) RX 1C2#53
(1739018646.359) RX 1F2#10640000001E010D
(1739018646.359) RX 1DC#B40F8FFD0520C64C
(1739018646.359) RX 284#00000000000048CE
(1739018646.361) RX 11A#0140005500000115
(1739018646.366) RX 1DA#C064180000010322
(1739018646.368) RX 1DB#FF00BF2A00000321
(1739018646.368) RX 1C2#54
(1739018646.369) RX 1D4#F707000087460070
(1739018646.369) RX 1DC#B40F8FFD08C0CB1B
(1739018646.369) RX 1F2#10640000001E020E
(1739018646.370) RX 11A#01400055400002D8
(1739018646.372) RX 54A#9E0070072600002C
(1739018646.373) RX 54B#004898120C000001
(1739018646.374) RX 54C#7866400000405800
(1739018646.375) RX 54F#2B01000007C88A60
(1739018646.376) RX 1DA#C064180000010028
(1739018646.378) RX 1DB#FF00BF2A0000002B
(1739018646.378) RX 1C2#55
(1739018646.379) RX 1DC#B40F8FFD0CCCD8E4
(1739018646.379) RX 1D4#F7070000C74600B7
(1739018646.379) RX 1F2#10640000001E030F
(1739018646.379) RX 284#00000000000049CF
(1739018646.381) RX 11A#014000AA800003CE
(1739018646.386) RX 1DA#C0641800000101AD
(1739018646.388) RX 1DB#FF00BF2A000001AE
(1739018646.388) RX 1C2#56
(1739018646.389) RX 1DC#B40F8FFD0130C9CE
(1739018646.389) RX 1D4#F70700000746007B
(1739018646.389) RX 1F2#10640000001E000C
(1739018646.390) RX 50C#000000025D63
(1739018646.390) RX 11A#014000AAC0000003
(1739018646.396) RX 1DA#C0641800000102A7
(1739018646.396) RX 55A#00302F005F315B08
(1739018646.398) RX 1DB#FF00BF2A000002A4
(1739018646.398) RX 1C2#57
(1739018646.399) RX 1DC#B40F8FFD0520C64C
(1739018646.399) RX 1D4#F7070000474600BC
(1739018646.400) RX 1F2#10640000001E010D
(1739018646.400) RX 284#0000000000004AD0
(1739018646.401) RX 11A#0140005500000115
(1739018646.404) RX 380#02041021000000B0
(1739018646.405) RX 5BF#0000000028000009
(1739018646.406) RX 1DA#C064180000010322
(1739018646.408) RX 1C2#58
(1739018646.408) RX 1DB#FF20BF2A00000370
(1739018646.409) RX 1DC#B40F8FFD08C0CB1B
(1739018646.410) RX 1D4#F707000087460070
(1739018646.410) RX 1F2#10640000001E020E
(1739018646.410) RX 50A#8552A00D8020
(1739018646.410) RX 11A#01400055400002D8
(1739018646.416) RX 1DA#C064180000010028
(1739018646.418) RX 1DB#FF20BF2A0000007A
(1739018646.418) RX 1C2#59
(1739018646.419) RX 1DC#B40F8FFD0CCCD8E4
(1739018646.420) RX 1D4#F7070000C74600B7
(1739018646.420) RX 1F2#10640000001E030F
(1739018646.420) RX 284#0000000000004BD1
(1739018646.421) RX 11A#014000AA800003CE
(1739018646.426) RX 1DA#C0641800000101AD
(1739018646.428) RX 1DB#FF20BF2A000001FF
(1739018646.429) RX 1C2#5A
(1739018646.429) RX 1DC#B40F8FFD0130C9CE
(1739018646.430) RX 11A#014000AAC0000003
(1739018646.430) RX 1D4#F70700000746007B
(1739018646.430) RX 1F2#10640000001E000C
(1739018646.431) RX 50B#000006C00060
(1739018646.436) RX 1DA#C0641800000102A7
(1739018646.438) RX 1DB#FF20BF2A000002F5
(1739018646.439) RX 1C2#5B
(1739018646.439) RX 1DC#B40F8FFD0520C64C
(1739018646.440) RX 1D4#F7070000474600BC
(1739018646.441) RX 1F2#10640000001E010D
(1739018646.441) RX 11A#0140005500000115
(1739018646.441) RX 284#0000000000004CD2
(1739018646.446) RX 1DA#C064180000010322
(1739018646.448) RX 1C2#5C
(1739018646.449) RX 1DB#FF20BF2A00000370
(1739018646.449) RX 1DC#B40F8FFD08C0CB1B
(1739018646.449) RX 55B#C7405500E3C01167
(1739018646.449) RX 5BC#59032026B205407A
(1739018646.450) RX 11A#01400055400002D8
(1739018646.451) RX 1D4#F707000087460070
(1739018646.451) RX 1F2#10640000001E020E
(1739018646.456) RX 1DA#C064180000010028
(1739018646.458) RX 1DB#FF20BF2A0000007A
(1739018646.459) RX 1C2#5D
(1739018646.459) RX 1DC#B40F8FFD0CCCD8E4
(1739018646.461) RX 11A#014000AA800003CE
(1739018646.461) RX 1D4#F7070000C74600B7
(1739018646.461) RX 1F2#10640000001E030F
(1739018646.461) RX 284#0000000000004DD3
(1739018646.466) RX 1DA#C0641800000101AD
(1739018646.468) RX 1DB#FF20BF2A000001FF
(1739018646.469) RX 1C2#5E
(1739018646.469) RX 1DC#B40F8FFD0130C9CE
(1739018646.470) RX 11A#014000AAC0000003
(1739018646.471) RX 1D4#F70700000746007B
(1739018646.471) RX 1F2#10640000001E000C
(1739018646.472) RX 54A#100070072600002C
(1739018646.473) RX 54B#004898120C000001
(1739018646.474) RX 54C#7866400000405800
(1739018646.475) RX 54F#2B01000007088A60
(1739018646.476) RX 1DA#C0641800000102A7
(1739018646.478) RX 1DB#FF00BF2A000002A4
(1739018646.479) RX 1C2#5F
(1739018646.479) RX 1DC#B40F8FFD0520C64C
(1739018646.481) RX 11A#0140005500000115
(1739018646.481) RX 1D4#F7070000474600BC
(1739018646.482) RX 1F2#10640000001E010D
(1739018646.482) RX 284#0000000000004ED4
(1739018646.486) RX 1DA#C064180000010322
(1739018646.488) RX 1C2#50
(1739018646.489) RX 1DB#FF00BF2A00000321
(1739018646.489) RX 1DC#B40F8FFD08C0CB1B
(1739018646.490) RX 11A#01400055400002D8
(1739018646.492) RX 1D4#F707000087460070
(1739018646.492) RX 1F2#10640000001E020E
(1739018646.492) RX 50C#00000003B29A
(1739018646.496) RX 1DA#C064180000010028
(1739018646.496) RX 55A#00302F005F315B08
(1739018646.499) RX 1DB#FF00BF2A0000002B
(1739018646.499) RX 1C2#51
(1739018646.499) RX 1DC#B40F8FFD0CCCD8E4
(1739018646.501) RX 11A#014000AA800003CE
(1739018646.502) RX 1D4#F7070000C74600B7
(1739018646.502) RX 1F2#10640000001E030F
(1739018646.502) RX 284#0000000000004FD5
(1739018646.503) RX 5A9#643BB01304300000
(1739018646.504) RX 380#020410210000008D
(1739018646.505) RX 5BF#000000002800001A
(1739018646.506) RX 1DA#C0641800000101AD
(1739018646.508) RX 1C2#52
(1739018646.509) RX 1DB#FF00BF2A000001AE
(1739018646.509) RX 1DC#B40F8FFD0130C9CE
(1739018646.510) RX 11A#014000AAC0000003
(1739018646.512) RX 1D4#F70700000746007B
(1739018646.512) RX 1F2#10640000001E000C
(1739018646.513) RX 284#00000000000050D6
(1739018646.513) RX 50A#8572A00D8020
(1739018646.516) RX 1DA#C0641800000102A7
(1739018646.519) RX 1DB#FF00BF2A000002A4
(1739018646.519) RX 1C2#53
(1739018646.519) RX 1DC#B40F8FFD0520C64C
(1739018646.521) RX 11A#0140005500000115
(1739018646.522) RX 1D4#F7070000474600BC
(1739018646.522) RX 1F2#10640000001E010D
(1739018646.526) RX 1DA#C064180000010322
(1739018646.528) RX 1C2#54
(1739018646.529) RX 1DB#FF00BF2A00000321
(1739018646.529) RX 1DC#B40F8FFD08C0CB1B
(1739018646.530) RX 11A#01400055400002D8
(1739018646.533) RX 1D4#F707000087460070
(1739018646.533) RX 1F2#10640000001E020E
(1739018646.533) RX 284#00000000000051D7
(1739018646.533) RX 50B#000006C00060
(1739018646.536) RX 1DA#C064180000010028
(1739018646.539) RX 1DB#FF00BF2A0000002B
(1739018646.539) RX 1C2#55
(1739018646.539) RX 1DC#B40F8FFD0CCCD8E4
(1739018646.541) RX 11A#014000AA800003CE
(1739018646.543) RX 1D4#F7070000C74600B7
(1739018646.543) RX 1F2#10640000001E030F
(1739018646.546) RX 1DA#C0641800000101AD
(1739018646.548) RX 1C2#56
(1739018646.549) RX 1DB#FF00BF2A000001AE
(1739018646.549) RX 1DC#B40F8FFD0130C9CE
(1739018646.549) RX 55B#C740AA00E3C0122A
(1739018646.550) RX 5BC#59032C26B30620A8
(1739018646.550) RX 11A#014000AAC0000003
(1739018646.553) RX 1D4#F70700000746007B
(1739018646.553) RX 1F2#10640000001E000C
(1739018646.554) RX 284#00000000000052D8
(1739018646.556) RX 1DA#C0641800000102A7
(1739018646.558) RX 1C2#57
(1739018646.559) RX 1DB#FF00BF2A000002A4
(1739018646.559) RX 1DC#B40F8FFD0520C64C
(1739018646.560) RX 5C0#404C4C0004E41100
(1739018646.560) RX 5EB#E00FFFFFFFFFFFFF
(1739018646.561) RX 11A#0140005500000115
(1739018646.563) RX 1D4#F7070000474600BC
(1739018646.564) RX 1F2#10640000001E010D
(1739018646.566) RX 1DA#C064180000010322
(1739018646.568) RX 1C2#58
(1739018646.569) RX 1DB#FF00BF2A00000321
(1739018646.569) RX 1DC#B40F8FFD08C0CB1B
(1739018646.570) RX 11A#01400055400002D8
(1739018646.572) RX 54A#9E0070072600002C
(1739018646.573) RX 54B#004898120C000001
(1739018646.574) RX 1D4#F707000087460070
(1739018646.574) RX 1F2#10640000001E020E
(1739018646.574) RX 284#00000000000053D9
(1739018646.574) RX 54C#7866400000405800
(1739018646.574) RX 5B9#67FF67FF28
(1739018646.575) RX 54F#2B01000007488A60
(1739018646.576) RX 1DA#C064180000010028
(1739018646.579) RX 1DB#FF00BF2A0000002B
(1739018646.579) RX 1C2#59
(1739018646.579) RX 1DC#B40F8FFD0CCCD8E4
(1739018646.581) RX 11A#014000AA800003CE
(1739018646.584) RX 1D4#F7070000C74600B7
(1739018646.584) RX 1F2#10640000001E030F
(1739018646.586) RX 1DA#C0641800000101AD
(1739018646.588) RX 1C2#5A
(1739018646.589) RX 1DB#FF00BF2A000001AE
(1739018646.589) RX 1DC#B40F8FFD0130C9CE
(1739018646.590) RX 11A#014000AAC0000003
(1739018646.594) RX 1D4#F70700000746007B
(1739018646.594) RX 1F2#10640000001E000C
(1739018646.595) RX 284#00000000000054DA
(1739018646.595) RX 50C#000000005DC8
(1739018646.596) RX 1DA#C0641800000102A7
(1739018646.596) RX 55A#00302F005F315B08
(1739018646.599) RX 1DB#FF00BF2A000002A4
(1739018646.599) RX 1C2#5B
(1739018646.599) RX 1DC#B40F8FFD0520C64C
(1739018646.601) RX 11A#0140005500000115
(1739018646.604) RX 1D4#F7070000474600BC
(1739018646.604) RX 1F2#10640000001E010D
(1739018646.605) RX 380#020410210000009E
(1739018646.605) RX 5BF#000000002800002B
(1739018646.606) RX 1DA#C064180000010322
(1739018646.609) RX 1C2#5C
(1739018646.609) RX 1DB#FF00BF2A00000321
(1739018646.609) RX 1DC#B40F8FFD08C0CB1B
(1739018646.610) RX 11A#01400055400002D8
(1739018646.615) RX 1D4#F707000087460070
(1739018646.615) RX 1F2#10640000001E020E
(1739018646.615) RX 284#00000000000055DB
(1739018646.615) RX 50A#8512A00D8020
(1739018646.616) RX 1DA#C064180000010028
(1739018646.619) RX 1C2#5D
(1739018646.619) RX 1DB#FF00BF2A0000002B
(1739018646.619) RX 1DC#B40F8FFD0CCCD8E4
(1739018646.621) RX 11A#014000AA800003CE
(1739018646.625) RX 1D4#F7070000C74600B7
(1739018646.625) RX 1F2#10640000001E030F
(1739018646.626) RX 1DA#C0641800000101AD
(1739018646.629) RX 1C2#5E
(1739018646.629) RX 1DB#FF00BF2A000001AE
(1739018646.629) RX 1DC#B40F8FFD0130C9CE
(1739018646.630) RX 11A#014000AAC0000003
(1739018646.635) RX 1D4#F70700000746007B
(1739018646.635) RX 1F2#10640000001E000C
(1739018646.635) RX 284#00000000000056DC
(1739018646.636) RX 50B#000006C00060
(1739018646.636) RX 1DA#C0641800000102A7
(1739018646.639) RX 1C2#5F
(1739018646.639) RX 1DB#FF00BF2A000002A4
(1739018646.639) RX 1DC#B40F8FFD0520C64C
(1739018646.641) RX 11A#0140005500000115
(1739018646.645) RX 1D4#F7070000474600BC
(1739018646.645) RX 1F2#10640000001E010D
(1739018646.646) RX 1DA#C064180000010322
(1739018646.649) RX 1C2#50
(1739018646.649) RX 1DB#FF00BF2A00000321
(1739018646.649) RX 1DC#B40F8FFD08C0CB1B
(1739018646.650) RX 55B#C7405500E40013A4
(1739018646.650) RX 5BC#59032C26B30620A8
(1739018646.651) RX 11A#01400055400002D8
(1739018646.655) RX 1D4#F707000087460070
(1739018646.656) RX 1F2#10640000001E020E
(1739018646.656) RX 1DA#C064180000010028
(1739018646.656) RX 284#00000000000057DD
(1739018646.659) RX 1C2#51
(1739018646.659) RX 1DB#FEE0BF2A0000001E
(1739018646.659) RX 1DC#B40F8FFD0CCCD8E4
(1739018646.661) RX 11A#014000AA800003CE
(1739018646.666) RX 1D4#F7070000C74600B7
(1739018646.666) RX 1DA#C0641800000101AD
(1739018646.666) RX 1F2#10640000001E030F
(1739018646.669) RX 1C2#52
(1739018646.669) RX 1DB#FEE0BF2A0000019B
(1739018646.669) RX 1DC#B40F8FFD0130C9CE
(1739018646.670) RX 11A#014000AAC0000003
(1739018646.672) RX 54A#100070072600002C
(1739018646.673) RX 54B#004898120C000001
(1739018646.674) RX 54C#7866400000405800
(1739018646.675) RX 54F#2B01000007888A60
(1739018646.676) RX 1DA#C0641800000102A7
(1739018646.676) RX 1D4#F70700000746007B
(1739018646.676) RX 1F2#10640000001E000C
(1739018646.677) RX 284#00000000000058DE
(1739018646.679) RX 1C2#53
(1739018646.679) RX 1DB#FEC0BF2A000002C0
(1739018646.679) RX 1DC#B40F8FFD0520C64C
(1739018646.681) RX 11A#0140005500000115
(1739018646.686) RX 1DA#C064180000010322
(1739018646.686) RX 1D4#F7070000474600BC
(1739018646.686) RX 1F2#10640000001E010D
(1739018646.689) RX 1C2#54
(1739018646.689) RX 1DB#FEA0BF2A000003B6
(1739018646.689) RX 1DC#B40F8FFD08C0CB1B
(1739018646.691) RX 11A#01400055400002D8
(1739018646.696) RX 1DA#C064180000010028
(1739018646.696) RX 55A#00302F005F315B08
(1739018646.696) RX 1D4#F707000087460070
(1739018646.697) RX 1F2#10640000001E020E
(1739018646.697) RX 284#00000000000059DF
(1739018646.697) RX 50C#00000001B231
(1739018646.699) RX 1C2#55
(1739018646.699) RX 1DB#FE80BF2A000000ED
(1739018646.699) RX 1DC#B40F8FFD0CCCD8E4
(1739018646.701) RX 11A#014000AA800003CE
(1739018646.705) RX 380#02041021000000AF
(1739018646.705) RX 5BF#000000002800003C
(1739018646.706) RX 1DA#C0641800000101AD
(1739018646.707) RX 1D4#F7070000C74600B7
(1739018646.707) RX 1F2#10640000001E030F
(1739018646.709) RX 1C2#56
(1739018646.709) RX 1DB#FE60BF2A0000015A
(1739018646.709) RX 1DC#B40F8FFD0130C9CE
(1739018646.710) RX 11A#014000AAC0000003
(1739018646.716) RX 1DA#C0641800000102A7
(1739018646.717) RX 1D4#F70700000746007B
(1739018646.717) RX 1F2#10640000001E000C
(1739018646.717) RX 284#0000000000005AE0
(1739018646.718) RX 50A#8532A00D8020
(1739018646.719) RX 1C2#57
(1739018646.719) RX 1DB#FE40BF2A00000201
(1739018646.720) RX 1DC#B40F8FFD0520C64C
(1739018646.721) RX 11A#0140005500000115
(1739018646.726) RX 1DA#C064180000010322
(1739018646.727) RX 1D4#F7070000474600BC
(1739018646.727) RX 1F2#10640000001E010D
(1739018646.729) RX 1C2#58
(1739018646.729) RX 1DB#FE20BF2A00000377
(1739018646.730) RX 1DC#B40F8FFD08C0CB1B
(1739018646.730) RX 1