(1739018210.570) RX 1D4#F707000087460070
(1739018210.570) RX 1F2#10640000001E020E
(1739018210.570) RX 284#0000000000002AB0
(1739018210.570) RX 50B#000006C00060
(1739018210.579) RX 380#020410210000009E
(1739018210.579) RX 5BF#000000002800002B
(1739018210.579) RX 1DA#C064180000010028
(1739018210.579) RX 11A#014000AA800003CE
(1739018210.579) RX 55A#002F2E005F315B68
(1739018210.580) RX 1C2#5E
(1739018210.580) RX 1DB#FBE0BEEA00000150
(1739018210.580) RX 1DC#B40F8FFD0130C9CE
(1739018210.580) RX 1D4#F7070000C74600B7
(1739018210.580) RX 1F2#10640000001E030F
(1739018210.585) RX 11A#014000AAC0000003
(1739018210.586) RX 1DA#C0641800000101AD
(1739018210.587) RX 1C2#5F
(1739018210.588) RX 1DB#FBE0BEEA0000025A
(1739018210.588) RX 1DC#B40F8FFD0520C64C
(1739018210.590) RX 1D4#F70700000746007B
(1739018210.590) RX 1F2#10640000001E000C
(1739018210.591) RX 284#0000000000002BB1
(1739018210.596) RX 1DA#C0641800000102A7
(1739018210.596) RX 11A#0140005500000115
(1739018210.597) RX 1C2#50
(1739018210.598) RX 1DB#FBE0BEEA000003DF
(1739018210.599) RX 1DC#B40F8FFD08C0CB1B
(1739018210.600) RX 1D4#F7070000474600BC
(1739018210.601) RX 1F2#10640000001E010D
(1739018210.605) RX 11A#01400055400002D8
(1739018210.606) RX 1DA#C064180000010322
(1739018210.607) RX 1C2#51
(1739018210.608) RX 1DB#FBE0BEEA000000D5
(1739018210.608) RX 1DC#B40F8FFD0CCCD8E4
(1739018210.611) RX 1D4#F707000087460070
(1739018210.611) RX 1F2#10640000001E020E
(1739018210.611) RX 284#0000000000002CB2
(1739018210.616) RX 1DA#C064180000010028
(1739018210.616) RX 11A#014000AA800003CE
(1739018210.617) RX 1C2#52
(1739018210.618) RX 1DB#FBE0BEEA00000150
(1739018210.619) RX 1DC#B40F8FFD0130C9CE
(1739018210.621) RX 1D4#F7070000C74600B7
(1739018210.621) RX 1F2#10640000001E030F
(1739018210.621) RX 284#0000000000002DB3
(1739018210.625) RX 11A#014000AAC0000003
(1739018210.626) RX 1DA#C0641800000101AD
(1739018210.627) RX 1C2#53
(1739018210.628) RX 1DB#FBE0BEEA0000025A
(1739018210.629) RX 1DC#B40F8FFD0520C64C
(1739018210.631) RX 1D4#F70700000746007B
(1739018210.631) RX 1F2#10640000001E000C
(1739018210.631) RX 50C#000000005DC8
(1739018210.636) RX 1DA#C0641800000102A7
(1739018210.636) RX 11A#0140005500000115
(1739018210.637) RX 1C2#54
(1739018210.638) RX 1DB#FBE0BEEA000003DF
(1739018210.639) RX 1DC#B40F8FFD08C0CB1B
(1739018210.639) RX 55B#C8C05500E64013A6
(1739018210.639) RX 5BC#59032C26B30620A0
(1739018210.641) RX 1D4#F7070000474600BC
(1739018210.642) RX 1F2#10640000001E010D
(1739018210.642) RX 284#0000000000002EB4
(1739018210.642) RX 5A9#643BB01304300000
(1739018210.646) RX 1DA#C064180000010322
(1739018210.646) RX 11A#01400055400002D8
(1739018210.647) RX 1C2#55
(1739018210.648) RX 1DB#FBE0BEEA000000D5
(1739018210.649) RX 1DC#B40F8FFD0CCCD8E4
(1739018210.651) RX 1D4#F707000087460070
(1739018210.652) RX 1F2#10640000001E020E
(1739018210.652) RX 50A#8512A00C8020
(1739018210.656) RX 1DA#C064180000010028
(1739018210.656) RX 11A#014000AA800003CE
(1739018210.656) RX 54A#9E0070072600002C
(1739018210.657) RX 54B#007698121C000001
(1739018210.657) RX 1C2#56
(1739018210.658) RX 54C#6C66400000585800
(1739018210.659) RX 1DB#FBE0BEEA00000150
(1739018210.659) RX 1DC#B40F8FFD0130C9CE
(1739018210.659) RX 54F#2301000007548A43
(1739018210.662) RX 1D4#F7070000C74600B7
(1739018210.662) RX 1F2#10640000001E030F
(1739018210.662) RX 284#0000000000002FB5
(1739018210.665) RX 11A#014000AAC0000003
(1739018210.666) RX 1DA#C0641800000101AD
(1739018210.667) RX 1C2#57
(1739018210.668) RX 1DB#FC00BEEA0000027D
(1739018210.669) RX 1DC#B40F8FFD0520C64C
(1739018210.672) RX 1D4#F70700000746007B
(1739018210.672) RX 1F2#10640000001E000C
(1739018210.672) RX 50B#000006C00060
(1739018210.675) RX 380#02041021000000AF
(1739018210.675) RX 5BF#000000002800003C
(1739018210.676) RX 1DA#C0641800000102A7
(1739018210.676) RX 11A#0140005500000115
(1739018210.676) RX 55A#002F2E005F315B68
(1739018210.677) RX 1C2#58
(1739018210.685) RX 1DB#FC00BEEA000003F8
(1739018210.685) RX 1DC#B40F8FFD08C0CB1B
(1739018210.685) RX 1D4#F7070000474600BC
(1739018210.686) RX 1F2#10640000001E010D
(1739018210.686) RX 284#00000000000030B6
(1739018210.686) RX 11A#01400055400002D8
(1739018210.686) RX 1DA#C064180000010322
(1739018210.687) RX 1C2#59
(1739018210.688) RX 1DB#FC00BEEA000000F2
(1739018210.689) RX 1DC#B40F8FFD0CCCD8E4
(1739018210.692) RX 1D4#F707000087460070
(1739018210.693) RX 1F2#10640000001E020E
(1739018210.696) RX 1DA#C064180000010028
(1739018210.696) RX 11A#014000AA800003CE
(1739018210.697) RX 1C2#5A
(1739018210.699) RX 1DB#FC00BEEA00000177
(1739018210.699) RX 1DC#B40F8FFD0130C9CE
(1739018210.703) RX 1D4#F7070000C74600B7
(1739018210.704) RX 1F2#10640000001E030F
(1739018210.704) RX 284#00000000000031B7
(1739018210.705) RX 11A#014000AAC0000003
(1739018210.706) RX 1DA#C0641800000101AD
(1739018210.707) RX 1C2#5B
(1739018210.709) RX 1DB#FC00BEEA0000027D
(1739018210.709) RX 1DC#B40F8FFD0520C64C
(1739018210.713) RX 1D4#F70700000746007B
(1739018210.713) RX 1F2#10640000001E000C
(1739018210.713) RX 5B9#67FF67FF28
(1739018210.716) RX 1DA#C0641800000102A7
(1739018210.716) RX 11A#0140005500000115
(1739018210.717) RX 1C2#5C
(1739018210.719) RX 1DB#FC00BEEA000003F8
(1739018210.719) RX 1DC#B40F8FFD08C0CB1B
(1739018210.723) RX 1D4#F7070000474600BC
(1739018210.723) RX 1F2#10640000001E010D
(1739018210.724) RX 284#00000000000032B8
(1739018210.726) RX 11A#01400055400002D8
(1739018210.726) RX 1DA#C064180000010322
(1739018210.727) RX 1C2#5D
(1739018210.729) RX 1DB#FC00BEEA000000F2
(1739018210.729) RX 1DC#B40F8FFD0CCCD8E4
(1739018210.733) RX 1D4#F707000087460070
(1739018210.734) RX 1F2#10640000001E020E
(1739018210.734) RX 50C#00000001B231
(1739018210.736) RX 1DA#C064180000010028
(1739018210.736) RX 11A#014000AA800003CE
(1739018210.737) RX 1C2#5E
(1739018210.739) RX 1DB#FC00BEEA00000177
(1739018210.739) RX 1DC#B40F8FFD0130C9CE
(1739018210.739) RX 55B#C8C0AA00E64010EB
(1739018210.740) RX 5BC#59032C26B30620A0
(1739018210.744) RX 1D4#F7070000C74600B7
(1739018210.744) RX 1F2#10640000001E030F
(1739018210.744) RX 284#00000000000033B9
(1739018210.745) RX 11A#014000AAC0000003
(1739018210.746) RX 1DA#C0641800000101AD
(1739018210.747) RX 1C2#5F
(1739018210.749) RX 1DB#FC00BEEA0000027D
(1739018210.749) RX 1DC#B40F8FFD0520C64C
(1739018210.754) RX 1D4#F70700000746007B
(1739018210.754) RX 1F2#10640000001E000C
(1739018210.754) RX 50A#8532A00C8020
(1739018210.756) RX 1DA#C0641800000102A7
(1739018210.756) RX 11A#0140005500000115
(1739018210.756) RX 54A#100070072600002C
(1739018210.757) RX 54B#007698121C000001
(1739018210.758) RX 1C2#50
(1739018210.758) RX 54C#6C66400000585800
(1739018210.759) RX 1DB#FC00BEEA000003F8
(1739018210.759) RX 1DC#B40F8FFD08C0CB1B
(1739018210.759) RX 54F#2301000007948A43
(1739018210.764) RX 1D4#F7070000474600BC
(1739018210.764) RX 1F2#10640000001E010D
(1739018210.765) RX 284#00000000000034BA
(1739018210.765) RX 11A#01400055400002D8
(1739018210.766) RX 1DA#C064180000010322
(1739018210.768) RX 1C2#51
(1739018210.769) RX 1DB#FC00BEEA000000F2
(1739018210.769) RX 1DC#B40F8FFD0CCCD8E4
(1739018210.774) RX 1D4#F707000087460070
(1739018210.775) RX 1F2#10640000001E020E
(1739018210.775) RX 380#02041021000000B0
(1739018210.775) RX 50B#000006C00060
(1739018210.775) RX 5BF#0000000028000009
(1739018210.776) RX 1DA#C064180000010028
(1739018210.776) RX 11A#014000AA800003CE
(1739018210.776) RX 55A#002F2E005F315B68
(1739018210.778) RX 1C2#52
(1739018210.779) RX 1DB#FC00BEEA00000177
(1739018210.779) RX 1DC#B40F8FFD0130C9CE
(1739018210.785) RX 1D4#F7070000C74600B7
(1739018210.785) RX 11A#014000AAC0000003
(1739018210.785) RX 1F2#10640000001E030F
(1739018210.785) RX 284#00000000000035BB
(1739018210.786) RX 1DA#C0641800000101AD
(1739018210.788) RX 1C2#53
(1739018210.789) RX 1DB#FC00BEEA0000027D
(1739018210.789) RX 1DC#B40F8FFD0520C64C
(1739018210.795) RX 1D4#F70700000746007B
(1739018210.795) RX 1F2#10640000001E000C
(1739018210.796) RX 1DA#C0641800000102A7
(1739018210.796) RX 11A#0140005500000115
(1739018210.798) RX 1C2#54
(1739018210.799) RX 1DB#FC00BEEA000003F8
(1739018210.799) RX 1DC#B40F8FFD08C0CB1B
(1739018210.805) RX 1D4#F7070000474600BC
(1739018210.805) RX 11A#01400055400002D8
(1739018210.806) RX 1DA#C064180000010322
(1739018210.806) RX 1F2#10640000001E010D
(1739018210.806) RX 284#00000000000036BC
(1739018210.808) RX 1C2#55
(1739018210.809) RX 1DB#FC00BEEA000000F2
(1739018210.809) RX 1DC#B40F8FFD0CCCD8E4
(1739018210.815) RX 1D4#F707000087460070
(1739018210.816) RX 11A#014000AA800003CE
(1739018210.816) RX 1DA#C064180000010028
(1739018210.816) RX 1F2#10640000001E020E
(1739018210.818) RX 1C2#56
(1739018210.819) RX 1DB#FC00BEEA00000177
(1739018210.819) RX 1DC#B40F8FFD0130C9CE
(1739018210.825) RX 11A#014000AAC0000003
(1739018210.826) RX 1DA#C0641800000101AD
(1739018210.826) RX 1D4#F7070000C74600B7
(1739018210.826) RX 1F2#10640000001E030F
(1739018210.826) RX 284#00000000000037BD
(1739018210.828) RX 1C2#57
(1739018210.829) RX 1DB#FC00BEEA0000027D
(1739018210.829) RX 1DC#B40F8FFD0520C64C
(1739018210.836) RX 1DA#C0641800000102A7
(1739018210.836) RX 11A#0140005500000115
(1739018210.836) RX 1D4#F70700000746007B
(1739018210.836) RX 1F2#10640000001E000C
(1739018210.836) RX 50C#000000025D63
(1739018210.838) RX 1C2#58
(1739018210.839) RX 1DB#FC00BEEA000003F8
(1739018210.839) RX 1DC#B40F8FFD08C0CB1B
(1739018210.840) RX 55B#C8C05500E6401129
(1739018210.840) RX 5BC#59032026B2064080
(1739018210.845) RX 11A#01400055400002D8
(1739018210.846) RX 1DA#C064180000010322
(1739018210.846) RX 1D4#F7070000474600BC
(1739018210.846) RX 1F2#10640000001E010D
(1739018210.847) RX 284#00000000000038BE
(1739018210.848) RX 1C2#59
(1739018210.849) RX 1DB#FC00BEEA000000F2
(1739018210.849) RX 1DC#B40F8FFD0CCCD8E4
(1739018210.850) RX 5C0#C04C4C0004541100
(1739018210.850) RX 5EB#E00FFFFFFFFFFFFF
(1739018210.856) RX 1DA#C064180000010028
(1739018210.856) RX 11A#014000AA800003CE
(1739018210.856) RX 1D4#F707000087460070
(1739018210.857) RX 1F2#10640000001E020E
(1739018210.857) RX 50A#8552A00C8020
(1739018210.857) RX 54A#9E0070072600002C
(1739018210.858) RX 1C2#5A
(1739018210.858) RX 54B#007698121C000001
(1739018210.859) RX 1DB#FC00BEEA00000177
(1739018210.859) RX 1DC#B40F8FFD0130C9CE
(1739018210.860) RX 54C#6C66400000585800
(1739018210.860) RX 54F#2301000007D48A43
(1739018210.865) RX 11A#014000AAC0000003
(1739018210.866) RX 1DA#C0641800000101AD
(1739018210.867) RX 1D4#F7070000C74600B7
(1739018210.867) RX 1F2#10640000001E030F
(1739018210.867) RX 284#00000000000039BF
(1739018210.868) RX 1C2#5B
(1739018210.869) RX 1DB#FC00BEEA0000027D
(1739018210.869) RX 1DC#B40F8FFD0520C64C
(1739018210.875) RX 380#020410210000008D
(1739018210.875) RX 5BF#000000002800001A
(1739018210.876) RX 1DA#C0641800000102A7
(1739018210.876) RX 11A#0140005500000115
(1739018210.876) RX 55A#002F2E005F315B68
(1739018210.877) RX 1D4#F70700000746007B
(1739018210.877) RX 1F2#10640000001E000C
(1739018210.877) RX 50B#000006C00060
(1739018210.878) RX 1C2#5C
(1739018210.879) RX 1DB#FC00BEEA000003F8
(1739018210.879) RX 1DC#B40F8FFD08C0CB1B
(1739018210.885) RX 11A#01400055400002D8
(1739018210.886) RX 1DA#C064180000010322
(1739018210.887) RX 1D4#F7070000474600BC
(1739018210.887) RX 1F2#10640000001E010D
(1739018210.888) RX 284#0000000000003AC0
(1739018210.888) RX 1C2#5D
(1739018210.889) RX 1DB#FC00BEEA000000F2
(1739018210.889) RX 1DC#B40F8FFD0CCCD8E4
(1739018210.896) RX 1DA#C064180000010028
(1739018210.896) RX 11A#014000AA800003CE
(1739018210.897) RX 1D4#F707000087460070
(1739018210.898) RX 1F2#10640000001E020E
(1739018210.898) RX 1C2#5E
(1739018210.899) RX 1DB#FC00BEEA00000177
(1739018210.899) RX 1DC#B40F8FFD0130C9CE
(1739018210.905) RX 11A#014000AAC0000003
(1739018210.906) RX 1DA#C0641800000101AD
(1739018210.908) RX 1D4#F7070000C74600B7
(1739018210.908) RX 1F2#10640000001E030F
(1739018210.908) RX 1C2#5F
(1739018210.908) RX 284#0000000000003BC1
(1739018210.909) RX 1DB#FC00BEEA0000027D
(1739018210.909) RX 1DC#B40F8FFD0520C64C
(1739018210.916) RX 1DA#C0641800000102A7
(1739018210.916) RX 11A#0140005500000115
(1739018210.918) RX 1D4#F70700000746007B
(1739018210.918) RX 1C2#50
(1739018210.918) RX 1F2#10640000001E000C
(1739018210.919) RX 1DB#FC00BEEA000003F8
(1739018210.919) RX 1DC#B40F8FFD08C0CB1B
(1739018210.925) RX 11A#01400055400002D8
(1739018210.926) RX 1DA#C064180000010322
(1739018210.928) RX 1C2#51
(1739018210.928) RX 1D4#F7070000474600BC
(1739018210.928) RX 1F2#10640000001E010D
(1739018210.929) RX 284#0000000000003CC2
(1739018210.929) RX 1DB#FC00BEEA000000F2
(1739018210.930) RX 1DC#B40F8FFD0CCCD8E4
(1739018210.936) RX 1DA#C064180000010028
(1739018210.936) RX 11A#014000AA800003CE
(1739018210.938) RX 1C2#52
(1739018210.938) RX 1D4#F707000087460070
(1739018210.939) RX 1F2#10640000001E020E
(1739018210.939) RX 50C#00000003B29A
(1739018210.939) RX 1DB#FC00BEEA00000177
(1739018210.940) RX 1DC#B40F8FFD0130C9CE
(1739018210.940) RX 55B#C8C0AA00E60012F9
(1739018210.940) RX 5BC#59032026B2064080
(1739018210.945) RX 11A#014000AAC0000003
(1739018210.946) RX 1DA#C0641800000101AD
(1739018210.948) RX 1C2#53
(1739018210.949) RX 1D4#F7070000C74600B7
(1739018210.949) RX 1F2#10640000001E030F
(1739018210.949) RX 284#0000000000003DC3
(1739018210.949) RX 1DB#FC00BEEA0000027D
(1739018210.950) RX 1DC#B40F8FFD0520C64C
(1739018210.956) RX 1DA#C0641800000102A7
(1739018210.956) RX 11A#0140005500000115
(1739018210.957) RX 54A#100070072600002C
(1739018210.958) RX 54B#007698121C000001
(1739018210.958) RX 1C2#54
(1739018210.959) RX 54C#6C66400000585800
(1739018210.959) RX 1D4#F70700000746007B
(1739018210.959) RX 1F2#10640000001E000C
(1739018210.959) RX 50A#8572A00C8020
(1739018210.960) RX 1DB#FC20BEEA000003A9
(1739018210.960) RX 54F#2301000007148A43
(1739018210.960) RX 1DC#B40F8FFD08C0CB1B
(1739018210.965) RX 11A#01400055400002D8
(1739018210.966) RX 1DA#C064180000010322
(1739018210.968) RX 1C2#55
(1739018210.969) RX 1D4#F7070000474600BC
(1739018210.969) RX 1DB#FC20BEEA000000A3
(1739018210.970) RX 1F2#10640000001E010D
(1739018210.970) RX 1DC#B40F8FFD0CCCD8E4
(1739018210.970) RX 284#0000000000003EC4
(1739018210.975) RX 380#020410210000009E
(1739018210.975) RX 5BF#000000002800002B
(1739018210.976) RX 1DA#C064180000010028
(1739018210.976) RX 11A#014000AA800003CE
(1739018210.976) RX 55A#002F2E005F315B68
(1739018210.978) RX 1C2#56
(1739018210.979) RX 1D4#F707000087460070
(1739018210.980) RX 1DB#FC20BEEA00000126
(1739018210.980) RX 1F2#10640000001E020E
(1739018210.980) RX 1DC#B40F8FFD0130C9CE
(1739018210.980) RX 50B#000006C00060
(1739018210.985) RX 11A#014000AAC0000003
(1739018210.985) RX 1DA#C0641800000101AD
(1739018210.988) RX 1C2#57
(1739018210.989) RX 1DB#FC20BEEA0000022C
(1739018210.990) RX 1DC#B40F8FFD0520C64C
(1739018210.990) RX 1D4#F7070000C74600B7
(1739018210.990) RX 1F2#10640000001E030F
(1739018210.990) RX 284#0000000000003FC5
(1739018210.995) RX 1DA#C0641800000102A7
(1739018210.996) RX 11A#0140005500000115
(1739018210.998) RX 1C2#58
(1739018210.999) RX 1DB#FC20BEEA000003A9
(1739018211.000) RX 1DC#B40F8FFD08C0CB1B
(1739018211.000) RX 1D4#F70700000746007B
(1739018211.000) RX 1F2#10640000001E000C
(1739018211.005) RX 1DA#C064180000010322
(1739018211.006) RX 11A#01400055400002D8
(1739018211.008) RX 1C2#59
(1739018211.009) RX 1DB#FC20BEEA000000A3
(1739018211.010) RX 1DC#B40F8FFD0CCCD8E4
(1739018211.010) RX 1D4#F7070000474600BC
(1739018211.010) RX 1F2#10640000001E010D
(1739018211.011) RX 284#00000000000040C6
(1739018211.015) RX 1DA#C064180000010028
(1739018211.016) RX 11A#014000AA800003CE
(1739018211.018) RX 1C2#5A
(1739018211.019) RX 1DB#FC20BEEA00000126
(1739018211.020) RX 1DC#B40F8FFD0130C9CE
(1739018211.020) RX 1D4#F707000087460070
(1739018211.020) RX 1F2#10640000001E020E
(1739018211.025) RX 11A#014000AAC0000003
(1739018211.025) RX 1DA#C0641800000101AD
(1739018211.028) RX 1C2#5B
(1739018211.029) RX 1DB#FC20BEEA0000022C
(1739018211.030) RX 1DC#B40F8FFD0520C64C
(1739018211.031) RX 1D4#F7070000C74600B7
(1739018211.031) RX 1F2#10640000001E030F
(1739018211.031) RX 284#00000000000041C7
(1739018211.035) RX 1DA#C0641800000102A7
(1739018211.036) RX 11A#0140005500000115
(1739018211.038) RX 1C2#5C
(1739018211.040) RX 1DB#FC20BEEA000003A9
(1739018211.040) RX 1DC#B40F8FFD08C0CB1B
(1739018211.040) RX 55B#C8C0AA00E600137C
(1739018211.040) RX 5BC#59032026B2064080
(1739018211.041) RX 1D4#F70700000746007B
(1739018211.041) RX 1F2#10640000001E000C
(1739018211.041) RX 284#00000000000042C8
(1739018211.041) RX 50C#000000005DC8
(1739018211.045) RX 1DA#C064180000010322
(1739018211.046) RX 11A#01400055400002D8
(1739018211.048) RX 1C2#5D
(1739018211.049) RX 1DB#FC20BEEA000000A3
(1739018211.050) RX 1DC#B40F8FFD0CCCD8E4
(1739018211.051) RX 1D4#F7070000474600BC
(1739018211.051) RX 1F2#10640000001E010D
(1739018211.055) RX 1DA#C064180000010028
(1739018211.056) RX 11A#014000AA800003CE
(1739018211.057) RX 54A#9E0070072600002C
(1739018211.058) RX 54B#007698121C000001
(1739018211.058) RX 1C2#5E
(1739018211.059) RX 54C#6C66400000585800
(1739018211.060) RX 1DB#FC20BEEA00000126
(1739018211.060) RX 54F#2301000007548A43
(1739018211.060) RX 1DC#B40F8FFD0130C9CE
(1739018211.061) RX 1D4#F707000087460070
(1739018211.062) RX 1F2#10640000001E020E
(1739018211.062) RX 284#00000000000043C9
(1739018211.062) RX 50A#8512A00C8020
(1739018211.065) RX 11A#014000AAC0000003
(1739018211.065) RX 1DA#C0641800000101AD
(1739018211.068) RX 1C2#5F
(1739018211.070) RX 1DB#FC20BEEA0000022C
(1739018211.070) RX 1DC#B40F8FFD0520C64C
(1739018211.071) RX 1D4#F7070000C74600B7
(1739018211.072) RX 1F2#10640000001E030F
(1739018211.075) RX 380#02041021000000AF
(1739018211.075) RX 5BF#000000002800003C
(1739018211.076) RX 11A#0140005500000115
(1739018211.076) RX 1DA#C0641800000102A7
(1739018211.076) RX 55A#002F2E005F315B68
(1739018211.078) RX 1C2#50
(1739018211.080) RX 1DB#FC20BEEA000003A9
(1739018211.080) RX 1DC#B40F8FFD08C0CB1B
(1739018211.082) RX 1D4#F70700000746007B
(1739018211.082) RX 1F2#10640000001E000C
(1739018211.082) RX 284#00000000000044CA
(1739018211.082) RX 50B#000006C00060
(1739018211.085) RX 1DA#C064180000010322
(1739018211.086) RX 11A#01400055400002D8
(1739018211.088) RX 1C2#51
(1739018211.090) RX 1DB#FC20BEEA000000A3
(1739018211.090) RX 1DC#B40F8FFD0CCCD8E4
(1739018211.092) RX 1D4#F7070000474600BC
(1739018211.092) RX 1F2#10640000001E010D
(1739018211.095) RX 1DA#C064180000010028
(1739018211.096) RX 11A#014000AA800003CE
(1739018211.098) RX 1C2#52
(1739018211.100) RX 1DB#FC20BEEA00000126
(1739018211.100) RX 1DC#B40F8FFD0130C9CE
(1739018211.102) RX 1D4#F707000087460070
(1739018211.102) RX 1F2#10640000001E020E
(1739018211.103) RX 284#00000000000045CB
(1739018211.105) RX 11A#014000AAC0000003
(1739018211.105) RX 1DA#C0641800000101AD
(1739018211.108) RX 1C2#53
(1739018211.110) RX 1DB#FC20BEEA0000022C
(1739018211.110) RX 1DC#B40F8FFD0520C64C
(1739018211.112) RX 1D4#F7070000C74600B7
(1739018211.113) RX 1F2#10640000001E030F
(1739018211.115) RX 1DA#C0641800000102A7
(1739018211.116) RX 11A#0140005500000115
(1739018211.118) RX 1C2#54
(1739018211.120) RX 1DB#FC20BEEA000003A9
(1739018211.120) RX 1DC#B40F8FFD08C0CB1B
(1739018211.123) RX 1D4#F70700000746007B
(1739018211.123) RX 1F2#10640000001E000C
(1739018211.123) RX 284#00000000000046CC
(1739018211.125) RX 1DA#C064180000010322
(1739018211.126) RX 11A#01400055400002D8
(1739018211.128) RX 1C2#55
(1739018211.130) RX 1DB#FC20BEEA000000A3
(1739018211.130) RX 1DC#B40F8FFD0CCCD8E4
(1739018211.133) RX 1D4#F7070000474600BC
(1739018211.133) RX 1F2#10640000001E010D
(1739018211.135) RX 1DA#C064180000010028
(1739018211.136) RX 11A#014000AA800003CE
(1739018211.138) RX 1C2#56
(1739018211.140) RX 1DB#FC20BEEA00000126
(1739018211.140) RX 1DC#B40F8FFD0130C9CE
(1739018211.140) RX 55B#C8C05500E5801006
(1739018211.141) RX 5BC#59032026B2064080
(1739018211.143) RX 1D4#F707000087460070
(1739018211.144) RX 1F2#10640000001E020E
(1739018211.144) RX 284#00000000000047CD
(1739018211.144) RX 50C#000000015D5F
(1739018211.145) RX 11A#014000AAC0000003
(1739018211.145) RX 1DA#C0641800000101AD
(1739018211.148) RX 1C2#57
(1739018211.150) RX 1DB#FC20BEEA0000022C
(1739018211.150) RX 1DC#B40F8FFD0520C64C
(1739018211.153) RX 1D4#F7070000C74600B7
(1739018211.154) RX 1F2#10640000001E030F
(1739018211.154) RX 5A9#643BB01304300000
(1739018211.155) RX 1DA#C0641800000102A7
(1739018211.156) RX 11A#0140005500000115
(1739018211.157) RX 54A#100070072600002C
(1739018211.158) RX 54B#007698121C000001
(1739018211.158) RX 1C2#58
(1739018211.159) RX 54C#6C66400000585800
(1739018211.160) RX 54F#2301000007948A43
(1739018211.160) RX 1DB#FC20BEEA000003A9
(1739018211.160) RX 1DC#B40F8FFD08C0CB1B
(1739018211.164) RX 1D4#F70700000746007B
(1739018211.164) RX 1F2#10640000001E000C
(1739018211.164) RX 284#00000000000048CE
(1739018211.164) RX 50A#8532A00C8020
(1739018211.165) RX 11A#01400055400002D8
(1739018211.166) RX 1DA#C064180000010322
(1739018211.168) RX 1C2#59
(1739018211.170) RX 1DB#FC20BEEA000000A3
(1739018211.170) RX 1DC#B40F8FFD0CCCD8E4
(1739018211.174) RX 1D4#F7070000474600BC
(1739018211.174) RX 1F2#10640000001E010D
(1739018211.175) RX 380#02041021000000B0
(1739018211.175) RX 5BF#0000000028000009
(1739018211.176) RX 11A#014000AA800003CE
(1739018211.176) RX 1DA#C064180000010028
(1739018211.176) RX 55A#002F2E005F315B68
(1739018211.178) RX 1C2#5A
(1739018211.180) RX 1DB#FC20BEEA00000126
(1739018211.180) RX 1DC#B40F8FFD0130C9CE
(1739018211.184) RX 1D4#F707000087460070
(1739018211.184) RX 1F2#10640000001E020E
(1739018211.185) RX 284#00000000000049CF
(1739018211.185) RX 11A#014000AAC0000003
(1739018211.185) RX 50B#000006C00060
(1739018211.185) RX 1DA#C0641800000101AD
(1739018211.188) RX 1C2#5B
(1739018211.190) RX 1DB#FC20BEEA0000022C
(1739018211.190) RX 1DC#B40F8FFD0520C64C
(1739018211.194) RX 1D4#F7070000C74600B7
(1739018211.195) RX 1F2#10640000001E030F
(1739018211.195) RX 1DA#C0641800000102A7
(1739018211.196) RX 11A#0140005500000115
(1739018211.199) RX 1C2#5C
(1739018211.200) RX 1DB#FC20BEEA000003A9
(1739018211.200) RX 1DC#B40F8FFD08C0CB1B
(1739018211.205) RX 1D4#F70700000746007B
(1739018211.205) RX 1F2#10640000001E000C
(1739018211.205) RX 284#0000000000004AD0
(1739018211.205) RX 11A#01400055400002D8
(1739018211.206) RX 1DA#C064180000010322
(1739018211.209) RX 1C2#5D
(1739018211.210) RX 1DB#FC20BEEA000000A3
(1739018211.210) RX 1DC#B40F8FFD0CCCD8E4
(1739018211.215) RX 1D4#F7070000474600BC
(1739018211.215) RX 1F2#10640000001E010D
(1739018211.215) RX 1DA#C064180000010028
(1739018211.216) RX 11A#014000AA800003CE
(1739018211.219) RX 1C2#5E
(1739018211.220) RX 1DB#FC20BEEA00000126
(1739018211.220) RX 1DC#B40F8FFD0130C9CE
(1739018211.225) RX 11A#014000AAC0000003
(1739018211.225) RX 1D4#F707000087460070
(1739018211.225) RX 1F2#10640000001E020E
(1739018211.226) RX 1DA#C0641800000101AD
(1739018211.226) RX 284#0000000000004BD1
(1739018211.226) RX 5B9#67FF67FF28
(1739018211.229) RX 1C2#5F
(1739018211.230) RX 1DB#FC20BEEA0000022C
(1739018211.230) RX 1DC#B40F8FFD0520C64C
(1739018211.235) RX 1D4#F7070000C74600B7
(1739018211.236) RX 11A#0140005500000115
(1739018211.236) RX 1DA#C0641800000102A7
(1739018211.236) RX 1F2#10640000001E030F
(1739018211.239) RX 1C2#50
(1739018211.240) RX 1DB#FC20BEEA000003A9
(1739018211.240) RX 1DC#B40F8FFD08C0CB1B
(1739018211.241) RX 55B#C8C05500E5801183
(1739018211.241) RX 5BC#59032026B2064080
(1739018211.245) RX 11A#01400055400002D8
(1739018211.246) RX 1DA#C064180000010322
(1739018211.246) RX 1D4#F70700000746007B
(1739018211.246) RX 1F2#10640000001E000C
(1739018211.246) RX 284#0000000000004CD2
(1739018211.246) RX 50C#00000002B20D
(1739018211.249) RX 1C2#51
(1739018211.250) RX 1DB#FC20BEEA000000A3
(1739018211.250) RX 1DC#B40F8FFD0CCCD8E4
(1739018211.255) RX 1DA#C064180000010028
(1739018211.256) RX 11A#014000AA800003CE
(1739018211.256) RX 1D4#F7070000474600BC
(1739018211.256) RX 1F2#10640000001E010D
(1739018211.257) RX 54A#9E0070072600002C
(1739018211.258) RX 54B#007698121C000001
(1739018211.259) RX 54C#6C66400000585800
(1739018211.259) RX 1C2#52
(1739018211.260) RX 54F#2301000007D48A43
(1739018211.260) RX 1DB#FC20BEEA00000126
(1739018211.260) RX 1DC#B40F8FFD0130C9CE
(1739018211.265) RX 11A#014000AAC0000003
(1739018211.265) RX 1DA#C0641800000101AD
(1739018211.266) RX 1D4#F707000087460070
(1739018211.266) RX 1F2#10640000001E020E
(1739018211.267) RX 284#0000000000004DD3
(1739018211.267) RX 50A#8552A00C8020
(1739018211.269) RX 1C2#53
(1739018211.270) RX 1DB#FC20BEEA0000022C
(1739018211.270) RX 1DC#B40F8FFD0520C64C
(1739018211.275) RX 380#020410210000008D
(1739018211.276) RX 1DA#C0641800000102A7
(1739018211.276) RX 11A#0140005500000115
(1739018211.276) RX 55A#002F2E005F315B68
(1739018211.276) RX 5BF#000000002800001A
(1739018211.276) RX 1D4#F7070000C74600B7
(1739018211.277) RX 1F2#10640000001E030F
(1739018211.279) RX 1C2#54
(1739018211.280) RX 1DB#FC20BEEA000003A9
(1739018211.280) RX 1DC#B40F8FFD08C0CB1B
(1739018211.285) RX 11A#01400055400002D8
(1739018211.286) RX 1DA#C064180000010322
(1739018211.287) RX 1D4#F70700000746007B
(1739018211.287) RX 1F2#10640000001E000C
(1739018211.287) RX 284#0000000000004ED4
(1739018211.287) RX 50B#000006C00060
(1739018211.289) RX 1C2#55
(1739018211.290) RX 1DB#FC20BEEA000000A3
(1739018211.290) RX 1DC#B40F8FFD0CCCD8E4
(1739018211.295) RX 1DA#C064180000010028
(1739018211.296) RX 11A#014000AA800003CE
(1739018211.297) RX 1D4#F7070000474600BC
(1739018211.297) RX 1F2#10640000001E010D
(1739018211.299) RX 1C2#56
(1739018211.300) RX 1DB#FC20BEEA00000126
(1739018211.301) RX 1DC#B40F8FFD0130C9CE
(1739018211.305) RX 11A#014000AAC0000003
(1739018211.305) RX 1DA#C0641800000101AD
(1739018211.307) RX 1D4#F707000087460070
(1739018211.307) RX 1F2#10640000001E020E
(1739018211.308) RX 284#0000000000004FD5
(1739018211.309) RX 1C2#57
(1739018211.310) RX 1DB#FC20BEEA0000022C
(1739018211.310) RX 1DC#B40F8FFD0520C64C
(1739018211.315) RX 1DA#C0641800000102A7
(1739018211.316) RX 11A#0140005500000115
(1739018211.317) RX 1D4#F7070000C74600B7
(1739018211.318) RX 1F2#10640000001E030F
(1739018211.319) RX 1C2#58
(1739018211.320) RX 1DB#FC20BEEA000003A9
(1739018211.321) RX 1DC#B40F8FFD08C0CB1B
(1739018211.325) RX 11A#01400055400002D8
(1739018211.326) RX 1DA#C064180000010322
(1739018211.328) RX 1D4#F70700000746007B
(1739018211.328) RX 1F2#10640000001E000C
(1739018211.328) RX 284#00000000000050D6
(1739018211.329) RX 1C2#59
(1739018211.330) RX 1DB#FC20BEEA000000A3
(1739018211.331) RX 1DC#B40F8FFD0CCCD8E4
(1739018211.335) RX 1DA#C064180000010028
(1739018211.336) RX 11A#014000AA800003CE
(1739018211.338) RX 1D4#F7070000474600BC
(1739018211.338) RX 1F2#10640000001E010D
(1739018211.339) RX 1C2#5A
(1739018211.340) RX 1DB#FC20BEEA00000126
(1739018211.341) RX 1DC#B40F8FFD0130C9CE
(1739018211.341) RX 55B#C8C0AA00E58012CE
(1739018211.341) RX 5BC#59032C26B3040080
(1739018211.345) RX 11A#014000AAC0000003
(1739018211.345) RX 1DA#C0641800000101AD
(1739018211.348) RX 1D4#F707000087460070
(1739018211.348) RX 1F2#10640000001E020E
(1739018211.349) RX 284#00000000000051D7
(1739018211.349) RX 50C#00000003B29A
(1739018211.349) RX 1C2#5B
(1739018211.351) RX 1DB#FC20BEEA0000022C
(1739018211.351) RX 1DC#B40F8FFD0520C64C
(1739018211.352) RX 5C0#804C4C0004A01100
(1739018211.352) RX 5EB#E00FFFFFFFFFFFFF
(1739018211.355) RX 1DA#C0641800000102A7
(1739018211.356) RX 11A#0140005500000115
(1739018211.357) RX 54A#100070072600002C
(1739018211.358) RX 54B#007698121C000001
(1739018211.358) RX 1D4#F7070000C74600B7
(1739018211.359) RX 1F2#10640000001E030F
(1739018211.359) RX 54C#6C66400000585800
(1739018211.359) RX 1C2#5C
(1739018211.360) RX 54F#2301000007148A43
(1739018211.360) RX 1DB#FC20BEEA000003A9
(1739018211.361) RX 1DC#B40F8FFD08C0CB1B
(1739018211.365) RX 11A#01400055400002D8
(1739018211.366) RX 1DA#C064180000010322
(1739018211.369) RX 1D4#F70700000746007B
(1739018211.369) RX 1F2#10640000001E000C
(1739018211.369) RX 1C2#5D
(1739018211.369) RX 284#00000000000052D8
(1739018211.369) RX 50A#8572A00C8020
(1739018211.370) RX 1DB#FC20BEEA000000A3
(1739018211.371) RX 1DC#B40F8FFD0CCCD8E4
(1739018211.375) RX 380#020410210000009E
(1739018211.376) RX 11A#014000AA800003CE
(1739018211.376) RX 1DA#C064180000010028
(1739018211.376) RX 55A#002F2E005F315B68
(1739018211.376) RX 5BF#000000002800002B
(1739018211.379) RX 1D4#F7070000474600BC
(1739018211.379) RX 1F2#10640000001E010D
(1739018211.379) RX 1C2#5E
(1739018211.380) RX 1DB#FC20BEEA00000126
(1739018211.381) RX 1DC#B40F8FFD0130C9CE
(1739018211.385) RX 11A#014000AAC0000003
(1739018211.385) RX 1DA#C0641800000101AD
(1739018211.389) RX 1D4#F707000087460070
(1739018211.389) RX 1C2#5F
(1739018211.389) RX 1F2#10640000001E020E
(1739018211.390) RX 284#00000000000053D9
(1739018211.390) RX 50B#000006C00060
(1739018211.391) RX 1DB#FC20BEEA0000022C
(1739018211.391) RX 1DC#B40F8FFD0520C64C
(1739018211.395) RX 1DA#C0641800000102A7
(1739018211.396) RX 11A#0140005500000115
(1739018211.399) RX 1C2#50
(1739018211.399) RX 1D4#F7070000C74600B7
(1739018211.399) RX 1F2#10640000001E030F
(1739018211.400) RX 1DB#FC20BEEA000003A9
(1739018211.401) RX 1DC#B40F8FFD08C0CB1B
(1739018211.405) RX 11A#01400055400002D8
(1739018211.406) RX 1DA#C064180000010322
(1739018211.409) RX 1C2#51
(1739018211.410) RX 1D4#F70700000746007B
(1739018211.410) RX 1F2#10640000001E000C
(1739018211.410) RX 284#00000000000054DA
(1739018211.410) RX 1DB#FC20BEEA000000A3
(1739018211.411) RX 1DC#B40F8FFD0CCCD8E4
(1739018211.415) RX 1DA#C064180000010028
(1739018211.416) RX 11A#014000AA800003CE
(1739018211.419) RX 1C2#52
(1739018211.420) RX 1D4#F7070000474600BC
(1739018211.420) RX 1F2#10640000001E010D
(1739018211.421) RX 1DB#FC20BEEA00000126
(1739018211.421) RX 1DC#B40F8FFD0130C9CE
(1739018211.425) RX 11A#014000AAC0000003
(1739018211.425) RX 1DA#C0641800000101AD
(1739018211.429) RX 1C2#53
(1739018211.430) RX 1D4#F707000087460070
(1739018211.430) RX 1F2#10640000001E020E
(1739018211.430) RX 284#00000000000055DB
(1739018211.431) RX 1DB#FC20BEEA0000022C
(1739018211.431) RX 1DC#B40F8FFD0520C64C
(1739018211.435) RX 1DA#C0641800000102A7
(1739018211.436) RX 11A#0140005500000115
(1739018211.439) RX 1C2#54
(1739018211.440) RX 1D4#F7070000C74600B7
(1739018211.441) RX 1F2#10640000001E030F
(1739018211.441) RX 1DB#FC20BEEA000003A9
(1739018211.441) RX 1DC#B40F8FFD08C0CB1B
(1739018211.442) RX 55B#C8C0AA00E580134B
(1739018211.442) RX 5BC#59032C26B3040080
(1739018211.445) RX 11A#01400055400002D8
(1739018211.446) RX 1DA#C064180000010322
(1739018211.449) RX 1C2#55
(1739018211.451) RX 1DB#FC20BEEA000000A3
(1739018211.451) RX 1D4#F70700000746007B
(1739018211.451) RX 1DC#B40F8FFD0CCCD8E4
(1739018211.451) RX 1F2#10640000001E000C
(1739018211.452) RX 284#00000000000056DC
(1739018211.452) RX 50C#000000005DC8
(1739018211.455) RX 1DA#C064180000010028
(1739018211.456) RX 11A#014000AA800003CE
(1739018211.457) RX 54A#9E0070072600002C
(1739018211.458) RX 54B#007698121C000001
(1739018211.459) RX 54C#6C66400000585800
(1739018211.459) RX 1C2#56
(1739018211.460) RX 54F#2301000007548A43
(1739018211.461) RX 1DB#FC20BEEA00000126
(1739018211.461) RX 1D4#F7070000474600BC
(1739018211.461) RX 1DC#B40F8FFD0130C9CE
(1739018211.461) RX 1F2#10640000001E010D
(1739018211.462) RX 284#00000000000057DD
(1739018211.465) RX 11A#014000AAC0000003
(1739018211.465) RX 1DA#C0641800000101AD
(1739018211.469) RX 1C2#57
(1739018211.471) RX 1DB#FC20BEEA0000022C
(1739018211.471) RX 1DC#B40F8FFD0520C64C
(1739018211.471) RX 1D4#F707000087460070
(1739018211.471) RX 1F2#10640000001E020E
(1739018211.472) RX 50A#8512A00C8020
(1739018211.475) RX 1DA#C0641800000102A7
(1739018211.476) RX 11A#0140005500000115
(1739018211.476) RX 380#02041021000000AF
(1739018211.476) RX 55A#002F2E005F315B68
(1739018211.476) RX 5BF#000000002800003C
(1739018211.479) RX 1C2#58
(1739018211.481) RX 1DB#FC20BEEA000003A9
(1739018211.481) RX 1DC#B40F8FFD08C0CB1B
(1739018211.481) RX 1D4#F7070000C74600B7
(1739018211.482) RX 1F2#10640000001E030F
(1739018211.482) RX 284#00000000000058DE
(1739018211.485) RX 11A#01400055400002D8
(1739018211.485) RX 1DA#C064180000010322
(1739018211.489) RX 1C2#59
(1739018211.491) RX 1DB#FC40BEEA00000050
(1739018211.491) RX 1DC#B40F8FFD0CCCD8E4
(1739018211.491) RX 1D4#F70700000746007B
(1739018211.492) RX 1F2#10640000001E000C
(1739018211.492) RX 50B#000006C00060
(1739018211.495) RX 1DA#C064180000010028
(1739018211.496) RX 11A#014000AA800003CE
(1739018211.499) RX 1C2#5A
(1739018211.501) RX 1DB#FC40BEEA000001D5
(1739018211.501) RX 1DC#B40F8FFD0130C9CE
(1739018211.502) RX 1D4#F7070000474600BC
(1739018211.502) RX 1F2#10640000001E010D
(1739018211.502) RX 284#00000000000059DF
(1739018211.505) RX 11A#014000AAC0000003
(1739018211.505) RX 1DA#C0641800000101AD
(1739018211.509) RX 1C2#5B
(1739018211.511) RX 1DB#FC40BEEA000002DF
(1739018211.511) RX 1DC#B40F8FFD0520C64C
(1739018211.512) RX 1D4#F707000087460070
(1739018211.512) RX 1F2#10640000001E020E
(1739018211.515) RX 1DA#C0641800000102A7
(1739018211.516) RX 11A#0140005500000115
(1739018211.519) RX 1C2#5C
(1739018211.521) RX 1DB#FC40BEEA0000035A
(1739018211.521) RX 1DC#B40F8FFD08C0CB1B
(1739018211.522) RX 1D4#F7070000C74600B7
(1739018211.522) RX 1F2#10640000001E030F
(1739018211.523) RX 284#0000000000005AE0
(1739018211.525) RX 11A#01400055400002D8
(1739018211.525) RX 1DA#C064180000010322
(1739018211.529) RX 1C2#5D
(1739018211.531) RX 1DB#FC40BEEA00000050
(1739018211.531) RX 1DC#B40F8FFD0CCCD8E4
(1739018211.532) RX 1D4#F70700000746007B
(1739018211.533) RX 1F2#10640000001E000C
(1739018211.535) RX 1DA#C064180000010028
(1739018211.536) RX 11A#014000AA800003CE
(1739018211.539) RX 1C2#5E
(1739018211.541) RX 1DB#FC40BEEA000001D5
(1739018211.541) RX 1DC#B40F8FFD0130C9CE
(1739018211.542) RX 55B#C8C05500E5801006
(1739018211.542) RX 5BC#59032C26B3040080
(1739018211.543) RX 1D4#F7070000474600BC
(1739018211.543) RX 1F2#10640000001E010D
(1739018211.543) RX 284#0000000000005BE1
(1739018211.545) RX 11A#014000AAC0000003
(1739018211.545) RX 1DA#C0641800000101AD
(1739018211.549) RX 1C2#5F
(1739018211.551) RX 1DB#FC40BEEA000002DF
(1739018211.551) RX 1DC#B40F8FFD0520C64C
(1739018211.553) RX 1D4#F707000087460070
(1739018211.553) RX 1F2#10640000001E020E
(1739018211.553) RX 50C#000000015D5F
(1739018211.555) RX 1DA#C0641800000102A7
(1739018211.556) RX 11A#0140005500000115
(1739018211.557) RX 54A#100070072600002C
(1739018211.558) RX 54B#007698121C000001
(1739018211.559) RX 54C#6D66400000585800
(1739018211.560) RX 1C2#50
(1739018211.560) RX 54F#2301000007948A43
(1739018211.561) RX 1DB#FC40BEEA0000035A
(1739018211.561) RX 1DC#B40F8FFD08C0CB1B
(1739018211.563) RX 1D4#F7070000C74600B7
(1739018211.563) RX 1F2#10640000001E030F
(1739018211.564) RX 284#0000000000005CE2
(1739018211.565) RX 1DA#C064180000010322
(1739018211.566) RX 11A#01400055400002D8
(1739018211.569) RX 1C2#51
(1739018211.571) RX 1DB#FC40BEEA00000050
(1739018211.571) RX 1DC#B40F8FFD0CCCD8E4
(1739018211.573) RX 1D4#F70700000746007B
(1739018211.574) RX 1F2#10640000001E000C
(1739018211.574) RX 50A#8532A00C8020
(1739018211.575) RX 1DA#C064180000010028
(1739018211.576) RX 11A#014000AA800003CE
(1739018211.576) RX 380#02041021000000B0
(1739018211.576) RX 55A#002F2E005F315B68
(1739018211.576) RX 5BF#0000000028000009
(1739018211.579) RX 1C2#52
(1739018211.581) RX 1DB#FC40BEEA000001D5
(1739018211.581) RX 1DC#B40F8FFD0130C9CE
(1739018211.584) RX 1D4#F7070000474600BC
(1739018211.584) RX 1F2#10640000001E010D
(1739018211.584) RX 284#0000000000005DE3
(1739018211.585) RX 11A#014000AAC0000003
(1739018211.585) RX 1DA#C0641800000101AD
(1739018211.589) RX 1C2#53
(1739018211.591) RX 1DB#FC40BEEA000002DF
(1739018211.591) RX 1DC#B40F8FFD0520C64C
(1739018211.594) RX 1D4#F707000087460070
(1739018211.594) RX 1F2#10640000001E020E
(1739018211.594) RX 50B#000006C00060
(1739018211.595) RX 1DA#C0641800000102A7
(1739018211.596) RX 11A#0140005500000115
(1739018211.599) RX 1C2#54
(1739018211.601) RX 1DB#FC40BEEA0000035A
(1739018211.601) RX 1DC#B40F8FFD08C0CB1B
(1739018211.604) RX 1D4#F7070000C74600B7
(1739018211.604) RX 1F2#10640000001E030F
(1739018211.605) RX 284#0000000000005EE4
(1739018211.605) RX 11A#01400055400002D8
(1739018211.605) RX 1DA#C064180000010322
(1739018211.609) RX 1C2#55
(1739018211.611) RX 1DB#FC40BEEA00000050
(1739018211.611) RX 1DC#B40F8FFD0CCCD8E4
(1739018211.614) RX 1D4#F70700000746007B
(1739018211.615) RX 1F2#10640000001E000C
(1739018211.615) RX 1DA#C064180000010028
(1739018211.616) RX 11A#014000AA800003CE
(1739018211.619) RX 1C2#56
(1739018211.621) RX 1DB#FC40BEEA000001D5
(1739018211.621) RX 1DC#B40F8FFD0130C9CE
(1739018211.625) RX 1D4#F7070000474600BC
(1739018211.625) RX 11A#014000AAC0000003
(1739018211.625) RX 1F2#10640000001E010D
(1739018211.625) RX 284#0000000000005FE5
(1739018211.626) RX 1DA#C0641800000101AD
(1739018211.630) RX 1C2#57
(1739018211.631) RX 1DB#FC40BEEA000002DF
(1739018211.631) RX 1DC#B40F8FFD0520C64C
(1739018211.635) RX 1D4#F707000087460070
(1739018211.635) RX 1F2#10640000001E020E
(1739018211.635) RX 1DA#C0641800000102A7
(1739018211.636) RX 11A#0140005500000115
(1739018211.640) RX 1C2#58
(1739018211.641) RX 1DB#FC40BEEA0000035A
(1739018211.642) RX 1DC#B40F8FFD08C0CB1B
(1739018211.642) RX 55B#C8C05500E54011A1
(1739018211.642) RX 5BC#59032C26B3040080
(1739018211.645) RX 1D4#F7070000C74600B7
(1739018211.645) RX 1DA#C064180000010322
(1739018211.646) RX 11A#01400055400002D8
(1739018211.646) RX 1F2#10640000001E030F
(1739018211.646) RX 284#00000000000060E6
(1739018211.650) RX 1C2#59
(1739018211.651) RX 1DB#FC40BEEA00000050
(1739018211.651) RX 1DC#B40F8FFD0CCCD8E4
(1739018211.655) RX 1D4#F70700000746007B
(1739018211.656) RX 11A#014000AA800003CE
(1739018211.656) RX 1DA#C064180000010028
(1739018211.656) RX 1F2#10640000001E000C
(1739018211.656) RX 50C#00000002B20D
(1739018211.657) RX 54A#9E0070072600002C
(1739018211.658) RX 54B#007698121C000001
(1739018211.659) RX 54C#6D66400000585800
(1739018211.660) RX 1C2#5A
(1739018211.660) RX 54F#2301000007D48A43
(1739018211.661) RX 1DB#FC40BEEA000001D5
(1739018211.661) RX 1DC#B40F8FFD0130C9CE
(1739018211.665) RX 11A#014000AAC0000003
(1739018211.665) RX 1DA#C0641800000101AD
(1739018211.666) RX 1D4#F7070000474600BC
(1739018211.666) RX 1F2#10640000001E010D
(1739018211.666) RX 284#00000000000061E7
(1739018211.666) RX 5A9#643BB01304300000
(1739018211.670) RX 1C2#5B
(1739018211.671) RX 1DB#FC40BEEA000002DF
(1739018211.671) RX 1DC#B40F8FFD0520C64C
(1739018211.675) RX 1DA#C0641800000102A7
(1739018211.676) RX 11A#0140005500000115
(1739018211.676) RX 380#020410210000008D
(1739018211.676) RX 1D4#F707000087460070
(1739018211.676) RX 1F2#10640000001E020E
(1739018211.677) RX 50A#8552A00C8020
(1739018211.677) RX 55A#002F2E005F315B68
(1739018211.677) RX 5BF#000000002800001A
(1739018211.680) RX 1C2#5C
(1739018211.681) RX 1DB#FC40BEEA0000035A
(1739018211.682) RX 1DC#B40F8FFD08C0CB1B
(1739018211.685) RX 11A#01400055400002D8
(1739018211.685) RX 1DA#C064180000010322
(1739018211.686) RX 1D4#F7070000C74600B7
(1739018211.686) RX 1F2#10640000001E030F
(1739018211.687) RX 284#00000000000062E8
(1739018211.690) RX 1C2#5D
(1739018211.691) RX 1DB#FC40BEEA00000050
(1739018211.692) RX 1DC#B40F8FFD0CCCD8E4
(1739018211.695) RX 1DA#C064180000010028
(1739018211.696) RX 11A#014000AA800003CE
(1739018211.696) RX 1D4#F70700000746007B
(1739018211.697) RX 1F2#10640000001E000C
(1739018211.697) RX 50B#000006C00060
(1739018211.700) RX 1C2#5E
(1739018211.701) RX 1DB#FC40BEEA000001D5
(1739018211.702) RX 1DC#B40F8FFD0130C9CE
(1739018211.705) RX 11A#014000AAC0000003
(1739018211.705) RX 1DA#C0641800000101AD
(1739018211.707) RX 1D4#F7070000474600BC
(1739018211.707) RX 1F2#10640000001E010D
(1739018211.707) RX 284#00000000000063E9
(1739018211.710) RX 1C2#5F
(1739018211.711) RX 1DB#FC40BEEA000002DF
(1739018211.712) RX 1DC#B40F8FFD0520C64C
(1739018211.715) RX 1DA#C0641800000102A7
(1739018211.716) RX 11A#0140005500000115
(1739018211.717) RX 1D4#F707000087460070
(1739018211.717) RX 1F2#10640000001E020E
(1739018211.720) RX 1C2#50
(1739018211.721) RX 1DB#FC40BEEA0000035A
(1739018211.722) RX 1DC#B40F8FFD08C0CB1B
(1739018211.725) RX 11A#01400055400002D8
(1739018211.725) RX 1DA#C064180000010322
(1739018211.727) RX 1D4#F7070000C74600B7
(1739018211.727) RX 1F2#10640000001E030F
(1739018211.728) RX 284#00000000000064EA
(1739018211.730) RX 1C2#51
(1739018211.731) RX 1DB#FC40BEEA00000050
(1739018211.732) RX 1DC#B40F8FFD0CCCD8E4
(1739018211.735) RX 1DA#C064180000010028
(1739018211.736) RX 11A#014000AA800003CE
(1739018211.737) RX 1D4#F70700000746007B
(1739018211.738) RX 1F2#10640000001E000C
(1739018211.738) RX 5B9#67FF67FF28
(1739018211.740) RX 1C2#52
(1739018211.742) RX 1DB#FC40BEEA000001D5
(1739018211.742) RX 1DC#B40F8FFD0130C9CE
(1739018211.742) RX 55B#C8C0AA00E54012EC
(1739018211.742) RX 5BC#59032C26B3040080
(1739018211.745) RX 11A#014000AAC0000003
(1739018211.745) RX 1DA#C0641800000101AD
(1739018211.748) RX 1D4#F7070000474600BC
(1739018211.748) RX 1F2#10640000001E010D
(1739018211.748) RX 284#00000000000065EB
(1739018211.750) RX 1C2#53
(1739018211.751) RX 1DB#FC40BEEA000002DF
(1739018211.752) RX 1DC#B40F8FFD0520C64C
(1739018211.755) RX 1DA#C0641800000102A7
(1739018211.756) RX 11A#0140005500000115
(1739018211.757) RX 54A#100070072600002C
(1739018211.758) RX 1D4#F707000087460070
(1739018211.758) RX 1F2#10640000001E020E
(1739018211.758) RX 50C#000000035DF4
(1739018211.759) RX 54B#007698121C000001
(1739018211.759) RX 54C#6D66400000585800
(1739018211.760) RX 1C2#54
(1739018211.760) RX 54F#2301000007158A43
(1739018211.761) RX 1DB#FC40BEEA0000035A
(1739018211.762) RX 1DC#B40F8FFD08C0CB1B
(1739018211.765) RX 11A#01400055400002D8
(1739018211.765) RX 1DA#C064180000010322
(1739018211.768) RX 1D4#F7070000C74600B7
(1739018211.768) RX 1F2#10640000001E030F
(1739018211.769) RX 284#00000000000066EC
(1739018211.770) RX 1C2#55
(1739018211.771) RX 1DB#FC40BEEA00000050
(1739018211.772) RX 1DC#B40F8FFD0CCCD8E4
(1739018211.775) RX 1DA#C064180000010028
(1739018211.776) RX 11A#014000AA800003CE
(1739018211.776) RX 380#020410210000009E
(1739018211.776) RX 55A#002F2E005F315B68
(1739018211.776) RX 5BF#000000002800002B
(1739018211.778) RX 1D4#F70700000746007B
(1739018211.779) RX 1F2#10640000001E000C
(1739018211.779) RX 50A#8572A00C8020
(1739018211.780) RX 1C2#56
(1739018211.782) RX 1DB#FC40BEEA000001D5
(1739018211.782) RX 1DC#B40F8FFD0130C9CE
(1739018211.785) RX 11A#014000AAC0000003
(1739018211.785) RX 1DA#C0641800000101AD
(1739018211.789) RX 1D4#F7070000474600BC
(1739018211.789) RX 1F2#10640000001E010D
(1739018211.789) RX 284#00000000000067ED
(1739018211.790) RX 1C2#57
(1739018211.792) RX 1DB#FC40BEEA000002DF
(1739018211.792) RX 1DC#B40F8FFD0520C64C
(1739018211.795) RX 1DA#C0641800000102A7
(1739018211.796) RX 11A#0140005500000115
(1739018211.799) RX 1D4#F707000087460070
(1739018211.799) RX 1F2#10640000001E020E
(1739018211.799) RX 50B#000006C00060
(1739018211.800) RX 1C2#58
(1739018211.802) RX 1DB#FC40BEEA0000035A
(1739018211.802) RX 1DC#B40F8FFD08C0CB1B
(1739018211.805) RX 11A#01400055400002D8
(1739018211.805) RX 1DA#C064180000010322
(1739018211.809) RX 1D4#F7070000C74600B7
(1739018211.809) RX 1F2#10640000001E030F
(1739018211.810) RX 284#00000000000068EE
(1739018211.810) RX 1C2#59
(1739018211.812) RX 1DB#FC40BEEA00000050
(1739018211.812) RX 1DC#B40F8FFD0CCCD8E4
(1739018211.815) RX 1DA#C064180000010028
(1739018211.816) RX 11A#014000AA800003CE
(1739018211.819) RX 1D4#F70700000746007B
(1739018211.819) RX 1F2#10640000001E000C
(1739018211.820) RX 1C2#5A
(1739018211.822) RX 1DB#FC40BEEA000001D5
(1739018211.822) RX 1DC#B40F8FFD0130C9CE
(1739018211.825) RX 11A#014000AAC0000003
(1739018211.825) RX 1DA#C0641800000101AD
(1739018211.829) RX 1D4#F7070000474600BC
(1739018211.830) RX 1F2#10640000001E010D
(1739018211.830) RX 284#00000000000069EF
(1739018211.830) RX 1C2#5B
(1739018211.832) RX 1DB#FC40BEEA000002DF
(1739018211.832) RX 1DC#B40F8FFD0520C64C
(1739018211.835) RX 1DA#C0641800000102A7
(1739018211.836) RX 11A#0140005500000115
(1739018211.840) RX 1D4#F707000087460070
(1739018211.840) RX 1F2#10640000001E020E
(1739018211.840) RX 1C2#5C
(1739018211.842) RX 1DB#FC40BEEA0000035A
(1739018211.842) RX 1DC#B40F8FFD08C0CB1B
(1739018211.842) RX 55B#C8C05500E540132E
(1739018211.843) RX 5BC#59032026B2052092
(1739018211.845) RX 11A#01400055400002D8
(1739018211.845) RX 1DA#C064180000010322
(1739018211.850) RX 1D4#F7070000C74600B7
(1739018211.850) RX 1C2#5D
(1739018211.850) RX 1F2#10640000001E030F
(1739018211.851) RX 284#0000000000006AF0
(1739018211.852) RX 1DB#FC40BEEA00000050
(1739018211.852) RX 1DC#B40F8FFD0CCCD8E4
(1739018211.853) RX 5C0#404C4C0004E41100
(1739018211.853) RX 5EB#E00FFFFFFFFFFFFF
(1739018211.855) RX 1DA#C064180000010028
(1739018211.856) RX 11A#014000AA800003CE
(1739018211.857) RX 54A#9E0070072600002C
(1739018211.858) RX 54B#007698121C000001
(1739018211.859) RX 54C#6D66400000585800
(1739018211.860) RX 1C2#5E
(1739018211.860) RX 54F#2301000007558A43
(1739018211.861) RX 1D4#F70700000746007B
(1739018211.861) RX 1F2#10640000001E000C
(1739018211.861) RX 50C#00000000B2A6
(1739018211.862) RX 1DB#FC40BEEA000001D5
(1739018211.862) RX 1DC#B40F8FFD0130C9CE
(1739018211.865) RX 11A#014000AAC0000003
(1739018211.865) RX 1DA#C0641800000101AD
(1739018211.870) RX 1C2#5F
(1739018211.870) RX 1D4#F7070000474600BC
(1739018211.871) RX 1F2#10640000001E010D
(1739018211.871) RX 284#0000000000006BF1
(1739018211.872) RX 1DB#FC40BEEA000002DF
(1739018211.872) RX 1DC#B40F8FFD0520C64C
(1739018211.875) RX 1DA#C0641800000102A7
(1739018211.876) RX 11A#0140005500000115
(1739018211.876) RX 55A#002F2E005F315B68
(1739018211.876) RX 380#02041021000000AF
(1739018211.876) RX 5BF#000000002800003C
(1739018211.880) RX 1C2#50
(1739018211.881) RX 1D4#F707000087460070
(1739018211.881) RX 1F2#10640000001E020E
(1739018211.881) RX 284#0000000000006CF2
(1739018211.881) RX 50A#8512A00C8020
(1739018211.882) RX 1DB#FC40BEEA0000035A
(1739018211.882) RX 1DC#B40F8FFD08C0CB1B
(1739018211.885) RX 1DA#C064180000010322
(1739018211.886) RX 11A#01400055400002D8
(1739018211.890) RX 1C2#51
(1739018211.891) RX 1D4#F7070000C74600B7
(1739018211.891) RX 1F2#10640000001E030F
(1739018211.892) RX 1DB#FC40BEEA00000050
(1739018211.892) RX 1DC#B40F8FFD0CCCD8E4
(1739018211.895) RX 1DA#C064180000010028
(1739018211.896) RX 11A#014000AA800003CE
(1739018211.900) RX 1C2#52
(1739018211.901) RX 1D4#F70700000746007B
(1739018211.901) RX 1F2#10640000001E000C
(1739018211.902) RX 284#0000000000006DF3
(1739018211.902) RX 50B#000006C00060
(1739018211.902) RX 1DB#FC40BEEA000001D5
(1739018211.902) RX 1DC#B40F8FFD0130C9CE
(1739018211.905) RX 11A#014000AAC0000003
(1739018211.905) RX 1DA#C0641800000101AD
(1739018211.910) RX 1C2#53
(1739018211.911) RX 1D4#F7070000474600BC
(1739018211.912) RX 1F2#10640000001E010D
(1739018211.912) RX 1DB#FC40BEEA000002DF
(1739018211.912) RX 1DC#B40F8FFD0520C64C
(1739018211.915) RX 1DA#C0641800000102A7
(1739018211.916) RX 11A#0140005500000115
(1739018211.920) RX 1C2#54
(1739018211.922) RX 1D4#F707000087460070
(1739018211.922) RX 1DB#FC40BEEA0000035A
(1739018211.922) RX 1F2#10640000001E020E
(1739018211.922) RX 1DC#B40F8FFD08C0CB1B
(1739018211.923) RX 284#0000000000006EF4
(1739018211.925) RX 11A#01400055400002D8
(1739018211.925) RX 1DA#C064180000010322
(1739018211.930) RX 1C2#55
(1739018211.932) RX 1DB#FC40BEEA00000050
(1739018211.932) RX 1D4#F7070000C74600B7
(1739018211.932) RX 1DC#B40F8FFD0CCCD8E4
(1739018211.933) RX 1F2#10640000001E030F
(1739018211.935) RX 1DA#C064180000010028
(1739018211.936) RX 11A#014000AA800003CE
(1739018211.940) RX 1C2#56
(1739018211.942) RX 1DB#FC40BEEA000001D5
(1739018211.942) RX 1D4#F70700000746007B
(1739018211.943) RX 1DC#B40F8FFD0130C9CE
(1739018211.943) RX 1F2#10640000001E000C
(1739018211.943) RX 284#0000000000006FF5
(1739018211.943) RX 55B#C8C0AA00E5401063
(1739018211.944) RX 5BC#59032026B2052092
(1739018211.945) RX 11A#014000AAC0000003
(1739018211.945) RX 1DA#C0641800000101AD
(1739018211.950) RX 1C2#57
(1739018211.952) RX 1DB#FC40BEEA000002DF
(1739018211.952) RX 1DC#B40F8FFD0520C64C
(1739018211.953) RX 1D4#F7070000474600BC
(1739018211.953) RX 1F2#10640000001E010D
(1739018211.955) RX 1DA#C0641800000102A7
(1739018211.956) RX 11A#0140005500000115
(1739018211.957) RX 54A#100070072600002C
(1739018211.958) RX 54B#007698121C000001
(1739018211.959) RX 54C#6D66400000585800
(1739018211.960) RX 54F#2301000007958A43
(1739018211.960) RX 1C2#58
(1739018211.962) RX 1DB#FC40BEEA0000035A
(1739018211.962) RX 1DC#B40F8FFD08C0CB1B
(1739018211.963) RX 1D4#F707000087460070
(1739018211.963) RX 1F2#10640000001E020E
(1739018211.963) RX 284#00000000000070F6
(1739018211.963) RX 50C#000000015D5F
(1739018211.965) RX 11A#01400055400002D8
(1739018211.965) RX 1DA#C064180000010322
(1739018211.970) RX 1C2#59
(1739018211.972) RX 1DB#FC40BEEA00000050
(1739018211.972) RX 1DC#B40F8FFD0CCCD8E4
(1739018211.973) RX 1D4#F7070000C74600B7
(1739018211.973) RX 1F2#10640000001E030F
(1739018211.975) RX 1DA#C064180000010028
(1739018211.976) RX 11A#014000AA800003CE
(1739018211.976) RX 55A#002F2E005F315B68
(1739018211.976) RX 380#02041021000000B0
(1739018211.976) RX 5BF#0000000028000009
(1739018211.980) RX 1C2#5A
(1739018211.982) RX 1DB#FC40BEEA000001D5
(1739018211.982) RX 1DC#B40F8FFD0130C9CE
(1739018211.983) RX 1D4#F70700000746007B
(1739018211.983) RX 1F2#10640000001E000C
(1739018211.984) RX 284#00000000000071F7
(1739018211.984) RX 50A#8532A00C8020
(1739018211.985) RX 11A#014000AAC0000003
(1739018211.985) RX 1DA#C0641800000101AD
(1739018211.990) RX 1C2#5B
(1739018211.992) RX 1DB#FC40BEEA000002DF
(1739018211.992) RX 1DC#B40F8FFD0520C64C
(1739018211.993) RX 1D4#F7070000474600BC
(1739018211.994) RX 1F2#10640000001E010D
(1739018211.995) RX 1DA#C0641800000102A7
(1739018211.996) RX 11A#0140005500000115
(1739018212.000) RX 1C2#5C
(1739018212.002) RX 1DB#FC40BEEA0000035A
(1739018212.002) RX 1DC#B40F8FFD08C0CB1B
(1739018212.004) RX 1D4#F707000087460070
(1739018212.004) RX 1F2#10640000001E020E
(1739018212.004) RX 284#00000000000072F8
(1739018212.004) RX 50B#000006C00060
(1739018212.005) RX 11A#01400055400002D8
(1739018212.005) RX 1DA#C064180000010322
(1739018212.010) RX 1C2#5D
(1739018212.012) RX 1DB#FC40BEEA00000050
(1739018212.012) RX 1DC#B40F8FFD0CCCD8E4
(1739018212.014) RX 1D4#F7070000C74600B7
(1739018212.014) RX 1F2#10640000001E030F
(1739018212.015) RX 1DA#C064180000010028
(1739018212.016) RX 11A#014000AA800003CE
(1739018212.020) RX 1C2#5E
(1739018212.022) RX 1DB#FC40BEEA000001D5
(1739018212.022) RX 1DC#B40F8FFD0130C9CE
(1739018212.024) RX 1D4#F70700000746007B
(1739018212.024) RX 1F2#10640000001E000C
(1739018212.025) RX 284#00000000000073F9
(1739018212.025) RX 11A#014000AAC0000003
(1739018212.025) RX 1DA#C0641800000101AD
(1739018212.030) RX 1C2#5F
(1739018212.032) RX 1DB#FC40BEEA000002DF
(1739018212.033) RX 1DC#B40F8FFD0520C64C
(1739018212.034) RX 1D4#F7070000474600BC
(1739018212.035) RX 1F2#10640000001E010D
(1739018212.035) RX 1DA#C0641800000102A7
(1739018212.036) RX 11A#0140005500000115
(1739018212.040) RX 1C2#50
(1739018212.042) RX 1DB#FC40BEEA0000035A
(1739018212.043) RX 1DC#B40F8FFD08C0CB1B
(1739018212.043) RX 55B#C8C05500E54011A1
(1739018212.043) RX 5BC#59032026B2052092
(1739018212.045) RX 1D4#F707000087460070
(1739018212.045) RX 1F2#10640000001E020E
(1739018212.045) RX 284#00000000000074FA
(1739018212.045) RX 11A#01400055400002D8
(1739018212.046) RX 1DA#C064180000010322
(1739018212.050) RX 1C2#51
(1739018212.052) RX 1DB#FC40BEEA00000050
(1739018212.053) RX 1DC#B40F8FFD0CCCD8E4
(1739018212.055) RX 1D4#F7070000C74600B7
(1739018212.055) RX 1F2#10640000001E030F
(1739018212.055) RX 1DA#C064180000010028
(1739018212.056) RX 11A#014000AA800003CE
(1739018212.057) RX 54A#9E0070072600002C
(1739018212.058) RX 54B#007698121C000001
(1739018212.059) RX 54C#6D66400000585800
(1739018212.060) RX 54F#2301000007D58A44
(1739018212.061) RX 1C2#52
(1739018212.062) RX 1DB#FC40BEEA000001D5
(1739018212.063) RX 1DC#B40F8FFD0130C9CE
(1739018212.065) RX 11A#014000AAC0000003
(1739018212.065) RX 1D4#F70700000746007B
(1739018212.065) RX 1DA#C0641800000101AD
(1739018212.066) RX 1F2#10640000001E000C
(1739018212.066) RX 284#00000000000075FB
(1739018212.066) RX 50C#00000002B20D
(1739018212.071) RX 1C2#53
(1739018212.072) RX 1DB#FC40BEEA000002DF
(1739018212.073) RX 1DC#B40F8FFD0520C64C
(1739018212.075) RX 1DA#C0641800000102A7
(1739018212.076) RX 11A#0140005500000115
(1739018212.076) RX 1D4#F7070000474600BC
(1739018212.076) RX 1F2#10640000001E010D
(1739018212.076) RX 380#020410210000008D
(1739018212.076) RX 55A#002F2E005F315B68
(1739018212.077) RX 5BF#000000002800001A
(1739018212.081) RX 1C2#54
(1739018212.082) RX 1DB#FC40BEEA0000035A
(1739018212.083) RX 1DC#B40F8FFD08C0CB1B
(1739018212.085) RX 11A#01400055400002D8
(1739018212.085) RX 1DA#C064180000010322
(1739018212.086) RX 1D4#F707000087460070
(1739018212.086) RX 1F2#10640000001E020E
(1739018212.086) RX 284#00000000000076FC
(1739018212.086) RX 50A#8552A00C8020
(1739018212.091) RX 1C2#55
(1739018212.092) RX 1DB#FC40BEEA00000050
(1739018212.093) RX 1DC#B40F8FFD0CCCD8E4
(1739018212.095) RX 1DA#C064180000010028
(1739018212.096) RX 11A#014000AA800003CE
(1739018212.096) RX 1D4#F7070000C74600B7
(1739018212.096) RX 1F2#10640000001E030F
(1739018212.101) RX 1C2#56
(1739018212.102) RX 1DB#FC40BEEA000001D5
(1739018212.103) RX 1DC#B40F8FFD0130C9CE
(1739018212.105) RX 11A#014000AAC0000003
(1739018212.105) RX 1DA#C0641800000101AD
(1739018212.106) RX 1D4#F70700000746007B
(1739018212.106) RX 1F2#10640000001E000C
(1739018212.107) RX 284#00000000000077FD
(1739018212.107) RX 50B#000006C00060
(1739018212.111) RX 1C2#57
(1739018212.112) RX 1DB#FC40BEEA000002DF
(1739018212.113) RX 1DC#B40F8FFD0520C64C
(1739018212.115) RX 1DA#C0641800000102A7
(1739018212.116) RX 11A#0140005500000115
(1739018212.116) RX 1D4#F7070000474600BC
(1739018212.117) RX 1F2#10640000001E010D
(1739018212.121) RX 1C2#58
(1739018212.123) RX 1DB#FC40BEEA0000035A
(1739018212.123) RX 1DC#B40F8FFD08C0CB1B
(1739018212.125) RX 11A#01400055400002D8
(1739018212.125) RX 1DA#C064180000010322
(1739018212.127) RX 1D4#F707000087460070
(1739018212.127) RX 1F2#10640000001E020E
(1739018212.127) RX 284#00000000000078FE
(1739018212.131) RX 1C2#59
(1739018212.132) RX 1DB#FC40BEEA00000050
(1739018212.133) RX 1DC#B40F8FFD0CCCD8E4
(1739018212.135) RX 1DA#C064180000010028
(1739018212.136) RX 11A#014000AA800003CE
(1739018212.137) RX 1D4#F7070000C74600B7
(1739018212.137) RX 1F2#10640000001E030F
(1739018212.141) RX 1C2#5A
(1739018212.143) RX 1DB#FC40BEEA000001D5
(1739018212.143) RX 1DC#B40F8FFD0130C9CE
(1739018212.143) RX 55B#C8C0AA00E54012EC
(1739018212.144) RX 5BC#59032026B2052092
(1739018212.145) RX 11A#014000AAC0000003
(1739018212.145) RX 1DA#C0641800000101AD
(1739018212.147) RX 1D4#F70700000746007B
(1739018212.147) RX 1F2#10640000001E000C
(1739018212.148) RX 284#00000000000079FF
(1739018212.151) RX 1C2#5B
(1739018212.153) RX 1DB#FC40BEEA000002DF
(1739018212.153) RX 1DC#B40F8FFD0520C64C
(1739018212.155) RX 1DA#C0641800000102A7
(1739018212.156) RX 11A#0140005500000115
(1739018212.157) RX 1D4#F7070000474600BC
(1739018212.158) RX 1F2#10640000001E010D
(1739018212.158) RX 54A#100070072600002C
(1739018212.158) RX 54B#007698121C000001
(1739018212.159) RX 54C#6D66400000585800
(1739018212.160) RX 54F#2301000007158A44
(1739018212.161) RX 1C2#5C
(1739018212.163) RX 1DB#FC40BEEA0000035A
(1739018212.163) RX 1DC#B40F8FFD08C0CB1B
(1739018212.165) RX 11A#01400055400002D8
(1739018212.165) RX 1DA#C064180000010322
(1739018212.168) RX 1D4#F707000087460070
(1739018212.168) RX 1F2#10640000001E020E
(1739018212.168) RX 284#0000000000007A00
(1739018212.168) RX 50C#000000035DF4
(1739018212.171) RX 1C2#5D
(1739018212.173) RX 1DB#FC40BEEA00000050
(1739018212.173) RX 1DC#B40F8FFD0CCCD8E4
(1739018212.175) RX 1DA#C064180000010028
(1739018212.176) RX 11A#014000AA800003CE
(1739018212.176) RX 55A#002F2E005F315B68
(1739018212.176) RX 380#020410210000009E
(1739018212.176) RX 5BF#000000002800002B
(1739018212.178) RX 1D4#F7070000C74600B7
(1739018212.178) RX 1F2#10640000001E030F
(1739018212.158) RX 54B#007698121C000001
(1739018212.159) RX 54C#6D66400000585800
(1739018212.160) RX 54F#2301000007158A44
(1739018212.161) RX 1C2#5C
(1739018212.163) RX 1DB#FC40BEEA0000035A
(1739018212.163) RX 1DC#B40F8FFD08C0CB1B
(1739018212.165) RX 11A#01400055400002D8
(1739018212.165) RX 1DA#C064180000010322
(1739018212.168) RX 1D4#F707000087460070
(1739018212.168) RX 1F2#10640000001E020E
(1739018212.188) RX 1D4#F70700000746007B
(1739018212.188) RX 1F2#10640000001E000C
(1739018212.189) RX 284#0000000000007B01
(1739018212.189) RX 50A#8572A00C8020
(1739018212.191) RX 1C2#5F
(1739018212.193) RX 1DB#FC40BEEA000002DF
(1739018212.193) RX 1DC#B40F8FFD0520C64C
(1739018212.195) RX 1DA#C0641800000102A7
(1739018212.196) RX 11A#0140005500000115
(1739018212.198) RX 1D4#F7070000474600BC
(1739018212.198) RX 1F2#10640000001E010D
(1739018212.201) RX 1C2#50
(1739018212.203) RX 1DB#FC40BEEA0000035A
(1739018212.203) RX 1DC#B40F8FFD08C0CB1B
(1739018212.205) RX 11A#01400055400002D8
(1739018212.205) RX 1DA#C064180000010322
(1739018212.209) RX 1D4#F707000087460070
(1739018212.209) RX 1F2#10640000001E020E
(1739018212.209) RX 284#0000000000007C02
(1739018212.209) RX 50B#000006C00060
(1739018212.211) RX 1C2#51
(1739018212.213) RX 1DB#FC40BEEA00000050
(1739018212.213) RX 1DC#B40F8FFD0CCCD8E4
(1739018212.215) RX 1DA#C064180000010028
(1739018212.216) RX 11A#014000AA800003CE
(1739018212.219) RX 1D4#F7070000C74600B7
(1739018212.219) RX 1F2#10640000001E030F
(1739018212.221) RX 1C2#52
(1739018212.223) RX 1DB#FC40BEEA000001D5
(1739018212.223) RX 1DC#B40F8FFD0130C9CE
(1739018212.225) RX 11A#014000AAC0000003
(1739018212.225) RX 1DA#C0641800000101AD
(1739018212.229) RX 1D4#F70700000746007B
(1739018212.229) RX 1F2#10640000001E000C
(1739018212.229) RX 284#0000000000007D03
(1739018212.231) RX 1C2#53
(1739018212.233) RX 1DB#FC40BEEA000002DF
(1739018212.233) RX 1DC#B40F8FFD0520C64C
(1739018212.235) RX 1DA#C0641800000102A7
(1739018212.236) RX 11A#0140005500000115
(1739018212.239) RX 1D4#F7070000474600BC
(1739018212.239) RX 1F2#10640000001E010D
(1739018212.241) RX 1C2#54
(1739018212.243) RX 1DB#FC40BEEA0000035A
(1739018212.243) RX 1DC#B40F8FFD08C0CB1B
(1739018212.243) RX 55B#C8C05500E540132E
(1739018212.244) RX 5BC#59032026B2052092
(1739018212.245) RX 11A#01400055400002D8
(1739018212.245) RX 1DA#C064180000010322
(1739018212.250) RX 1D4#F707000087460070
(1739018212.250) RX 1F2#10640000001E020E
(1739018212.250) RX 284#0000000000007E04
(1739018212.250) RX 5B9#67FF67FF28
(1739018212.251) RX 1C2#55
(1739018212.253) RX 1DB#FC40BEEA00000050
(1739018212.253) RX 1DC#B40F8FFD0CCCD8E4
(1739018212.255) RX 1DA#C064180000010028
(1739018212.256) RX 11A#014000AA800003CE
(1739018212.258) RX 54A#9E0070072600002C
(1739018212.259) RX 54B#007698121C000001
(1739018212.260) RX 54C#6D66400000585800
(1739018212.260) RX 1D4#F7070000C74600B7
(1739018212.260) RX 1F2#10640000001E030F
(1739018212.261) RX 54F#2301000007558A44
(1739018212.261) RX 1C2#56
(1739018212.263) RX 1DB#FC40BEEA000001D5
(1739018212.263) RX 1DC#B40F8FFD0130C9CE
(1739018212.265) RX 11A#014000AAC0000003
(1739018212.265) RX 1DA#C0641800000101AD
(1739018212.270) RX 1D4#F70700000746007B
(1739018212.270) RX 1F2#10640000001E000C
(1739018212.271) RX 284#0000000000007F05
(1739018212.271) RX 50C#00000000B2A6
(1739018212.271) RX 1C2#57
(1739018212.273) RX 1DB#FC40BEEA000002DF
(1739018212.273) RX 1DC#B40F8FFD0520C64C
(1739018212.275) RX 1DA#C0641800000102A7
(1739018212.276) RX 11A#0140005500000115
(1739018212.276) RX 55A#002F2E005F315B68
(1739018212.276) RX 380#02041021000000AF
(1739018212.277) RX 5BF#000000002800003C
(1739018212.280) RX 1D4#F7070000474600BC
(1739018212.280) RX 1F2#10640000001E010D
(1739018212.281) RX 1C2#58
(1739018212.283) RX 1DB#FC40BEEA0000035A
(1739018212.283) RX 1DC#B40F8FFD08C0CB1B
(1739018212.285) RX 11A#01400055400002D8
(1739018212.285) RX 1DA#C064180000010322
(1739018212.290) RX 1D4#F707000087460070
(1739018212.291) RX 1F2#10640000001E020E
(1739018212.291) RX 284#0000000000008006
(1739018212.291) RX 50A#8512A00C8020
(1739018212.291) RX 1C2#59
(1739018212.293) RX 1DB#FC40BEEA00000050
(1739018212.293) RX 1DC#B40F8FFD0CCCD8E4
(1739018212.295) RX 1DA#C064180000010028
(1739018212.296) RX 11A#014000AA800003CE
(1739018212.301) RX 1D4#F7070000C74600B7
(1739018212.301) RX 1F2#10640000001E030F
(1739018212.301) RX 284#0000000000008107
(1739018212.301) RX 1C2#5A
(1739018212.303) RX 1DB#FC40BEEA000001D5
(1739018212.303) RX 1DC#B40F8FFD0130C9CE
(1739018212.305) RX 11A#014000AAC0000003
(1739018212.305) RX 1DA#C0641800000101AD
(1739018212.311) RX 1D4#F70700000746007B
(1739018212.311) RX 1F2#10640000001E000C
(1739018212.311) RX 1C2#5B
(1739018212.311) RX 50B#000006C00060
(1739018212.313) RX 1DB#FC40BEEA000002DF
(1739018212.313) RX 1DC#B40F8FFD0520C64C
(1739018212.315) RX 1DA#C0641800000102A7
(1739018212.315) RX 11A#0140005500000115
(1739018212.321) RX 1D4#F7070000474600BC
(1739018212.321) RX 1C2#5C
(1739018212.322) RX 1F2#10640000001E010D
(1739018212.322) RX 284#0000000000008208
(1739018212.323) RX 1DB#FC40BEEA0000035A
(1739018212.323) RX 1DC#B40F8FFD08C0CB1B
(1739018212.325) RX 11A#01400055400002D8
(1739018212.325) RX 1DA#C064180000010322
(1739018212.331) RX 1C2#5D
(1739018212.331) RX 1D4#F707000087460070
(1739018212.332) RX 1F2#10640000001E020E
(1739018212.333) RX 1DB#FC40BEEA00000050
(1739018212.333) RX 1DC#B40F8FFD0CCCD8E4
(1739018212.335) RX 1DA#C064180000010028
(1739018212.335) RX 11A#014000AA800003CE
(1739018212.341) RX 1C2#5E
(1739018212.342) RX 1D4#F7070000C74600B7
(1739018212.342) RX 1F2#10640000001E030F
(1739018212.342) RX 284#0000000000008309
(1739018212.343) RX 1DB#FC40BEEA000001D5
(1739018212.344) RX 1DC#B40F8FFD0130C9CE
(1739018212.344) RX 55B#C8C0AA00E5401063
(1739018212.344) RX 5BC#59032C26B3054074
(1739018212.345) RX 11A#014000AAC0000003
(1739018212.345) RX 1DA#C0641800000101AD
(1739018212.351) RX 1C2#5F
(1739018212.352) RX 1D4#F70700000746007B
(1739018212.352) RX 1F2#10640000001E000C
(1739018212.353) RX 1DB#FC40BEEA000002DF
(1739018212.354) RX 1DC#B40F8FFD0520C64C
(1739018212.354) RX 5C0#C04C4C0004541100
(1739018212.354) RX 5EB#E00FFFFFFFFFFFFF
(1739018212.355) RX 1DA#C0641800000102A7
(1739018212.355) RX 11A#0140005500000115
(1739018212.358) RX 54A#100070072600002C
(1739018212.359) RX 54B#007698121C000001
(1739018212.360) RX 54C#6D66400000585800
(1739018212.361) RX 54F#2301000007958A44
(1739018212.361) RX 1C2#50
(1739018212.362) RX 1D4#F7070000474600BC
(1739018212.363) RX 1F2#10640000001E010D
(1739018212.363) RX 284#000000000000840A
(1739018212.363) RX 1DB#FC40BEEA0000035A
(1739018212.363) RX 1DC#B40F8FFD08C0CB1B
(1739018212.365) RX 11A#01400055400002D8
(1739018212.365) RX 1DA#C064180000010322
(1739018212.371) RX 1C2#51
(1739018212.372) RX 1D4#F707000087460070
(1739018212.373) RX 1F2#10640000001E020E
(1739018212.373) RX 50C#000000015D5F
(1739018212.373) RX 1DB#FC40BEEA00000050
(1739018212.374) RX 1DC#B40F8FFD0CCCD8E4
(1739018212.375) RX 1DA#C064180000010028
(1739018212.375) RX 11A#014000AA800003CE
(1739018212.376) RX 55A#002F2E005F315B68
(1739018212.376) RX 380#02041021000000B0
(1739018212.377) RX 5BF#0000000028000009
(1739018212.381) RX 1C2#52
(1739018212.383) RX 1D4#F7070000C74600B7
(1739018212.383) RX 1F2#10640000001E030F
(1739018212.383) RX 284#000000000000850B
(1739018212.383) RX 1DB#FC40BEEA000001D5
(1739018212.384) RX 1DC#B40F8FFD0130C9CE
(1739018212.385) RX 11A#014000AAC0000003
(1739018212.385) RX 1DA#C0641800000101AD
(1739018212.391) RX 1C2#53
(1739018212.393) RX 1D4#F70700000746007B
(1739018212.393) RX 1F2#10640000001E000C
(1739018212.393) RX 1DB#FC40BEEA000002DF
(1739018212.394) RX 50A#8532A00C8020
(1739018212.394) RX 1DC#B40F8FFD0520C64C
(1739018212.395) RX 1DA#C0641800000102A7
(1739018212.395) RX 11A#0140005500000115
(1739018212.401) RX 1C2#54
(1739018212.403) RX 1D4#F7070000474600BC
(1739018212.403) RX 1DB#FC40BEEA0000035A
(1739018212.404) RX 1F2#10640000001E010D
(1739018212.404) RX 1DC#B40F8FFD08C0CB1B
(1739018212.404) RX 284#000000000000860C
(1739018212.405) RX 1DA#C064180000010322
(1739018212.405) RX 11A#01400055400002D8
(1739018212.411) RX 1C2#55
(1739018212.413) RX 1DB#FC40BEEA00000050
(1739018212.413) RX 1D4#F707000087460070
(1739018212.414) RX 1DC#B40F8FFD0CCCD8E4
(1739018212.414) RX 1F2#10640000001E020E
(1739018212.414) RX 50B#000006C00060
(1739018212.415) RX 1DA#C064180000010028
(1739018212.415) RX 11A#014000AA800003CE
(1739018212.421) RX 1C2#56
(1739018212.423) RX 1DB#FC40BEEA000001D5
(1739018212.424) RX 1D4#F7070000C74600B7
(1739018212.424) RX 1DC#B40F8FFD0130C9CE
(1739018212.424) RX 1F2#10640000001E030F
(1739018212.424) RX 284#000000000000870D
(1739018212.425) RX 11A#014000AAC0000003
(1739018212.425) RX 1DA#C0641800000101AD
(1739018212.431) RX 1C2#57
(1739018212.433) RX 1DB#FC40BEEA000002DF
(1739018212.434) RX 1DC#B40F8FFD0520C64C
(1739018212.434) RX 1D4#F70700000746007B
(1739018212.434) RX 1F2#10640000001E000C
(1739018212.435) RX 1DA#C0641800000102A7
(1739018212.435) RX 11A#0140005500000115
(1739018212.441) RX 1C2#58
(1739018212.443) RX 1DB#FC40BEEA0000035A
(1739018212.444) RX 1DC#B40F8FFD08C0CB1B
(1739018212.444) RX 55B#C8C05500E54011A1
(1739018212.444) RX 1D4#F7070000474600BC
(1739018212.445) RX 1F2#10640000001E010D
(1739018212.445) RX 284#000000000000880E
(1739018212.445) RX 5BC#59032C26B3054074
(1739018212.445) RX 11A#01400055400002D8
(1739018212.445) RX 1DA#C064180000010322
(1739018212.451) RX 1C2#59
(1739018212.453) RX 1DB#FC40BEEA00000050
(1739018212.454) RX 1DC#B40F8FFD0CCCD8E4
(1739018212.454) RX 1D4#F707000087460070
(1739018212.455) RX 1F2#10640000001E020E
(1739018212.455) RX 1DA#C064180000010028
(1739018212.455) RX 11A#014000AA800003CE
(1739018212.458) RX 54A#9E0070072600002C
(1739018212.459) RX 54B#007698121C000001
(1739018212.460) RX 54C#6D66400000585800
(1739018212.461) RX 54F#2301000007D58A44
(1739018212.461) RX 1C2#5A
(1739018212.463) RX 1DB#FC40BEEA000001D5
(1739018212.464) RX 1DC#B40F8FFD0130C9CE
(1739018212.465) RX 11A#014000AAC0000003
(1739018212.465) RX 1D4#F7070000C74600B7
(1739018212.465) RX 1F2#10640000001E030F
(1739018212.465) RX 1DA#C0641800000101AD
(1739018212.466) RX 284#000000000000890F
(1739018212.471) RX 1C2#5B
(1739018212.473) RX 1DB#FC40BEEA000002DF
(1739018212.474) RX 1DC#B40F8FFD0520C64C
(1739018212.475) RX 1D4#F70700000746007B
(1739018212.475) RX 1F2#10640000001E000C
(1739018212.475) RX 1DA#C0641800000102A7
(1739018212.476) RX 11A#0140005500000115
(1739018212.476) RX 50C#00000002B20D
(1739018212.476) RX 55A#002F2E005F315B68
(1739018212.476) RX 380#020410210000008D
(1739018212.477) RX 5BF#000000002800001A
(1739018212.482) RX 1C2#5C
(1739018212.483) RX 1DB#FC40BEEA0000035A
(1739018212.484) RX 1DC#B40F8FFD08C0CB1B
(1739018212.485) RX 1D4#F7070000474600BC
(1739018212.485) RX 11A#01400055400002D8
(1739018212.486) RX 1DA#C064180000010322
(1739018212.486) RX 1F2#10640000001E010D
(1739018212.486) RX 284#0000000000008A10
(1739018212.492) RX 1C2#5D
(1739018212.493) RX 1DB#FC40BEEA00000050
(1739018212.494) RX 1DC#B40F8FFD0CCCD8E4
(1739018212.495) RX 1DA#C064180000010028
(1739018212.495) RX 1D4#F707000087460070
(1739018212.496) RX 11A#014000AA800003CE
(1739018212.496) RX 1F2#10640000001E020E
(1739018212.496) RX 50A#8552A00C8020
(1739018212.502) RX 1C2#5E
(1739018212.503) RX 1DB#FC40BEEA000001D5
(1739018212.504) RX 1DC#B40F8FFD0130C9CE
(1739018212.505) RX 11A#014000AAC0000003
(1739018212.505) RX 1DA#C0641800000101AD
(1739018212.506) RX 1D4#F7070000C74600B7
(1739018212.506) RX 1F2#10640000001E030F
(1739018212.506) RX 284#0000000000008B11
(1739018212.512) RX 1C2#5F
(1739018212.514) RX 1DB#FC40BEEA000002DF
(1739018212.514) RX 1DC#B40F8FFD0520C64C
(1739018212.515) RX 1DA#C0641800000102A7
(1739018212.515) RX 11A#0140005500000115
(1739018212.516) RX 1D4#F70700000746007B
(1739018212.516) RX 1F2#10640000001E000C
(1739018212.516) RX 50B#000006C00060
(1739018212.522) RX 1C2#50
(1739018212.524) RX 1DB#FC40BEEA0000035A
(1739018212.524) RX 1DC#B40F8FFD08C0CB1B
(1739018212.525) RX 11A#01400055400002D8
(1739018212.525) RX 1DA#C064180000010322
(1739018212.526) RX 1D4#F7070000474600BC
(1739018212.526) RX 1F2#10640000001E010D
(1739018212.527) RX 284#0000000000008C12
(1739018212.532) RX 1C2#51
(1739018212.534) RX 1DB#FC40BEEA00000050
(1739018212.534) RX 1DC#B40F8FFD0CCCD8E4
(1739018212.535) RX 1DA#C064180000010028
(1739018212.535) RX 11A#014000AA800003CE
(1739018212.536) RX 1D4#F707000087460070
(1739018212.537) RX 1F2#10640000001E020E
(1739018212.542) RX 1C2#52
(1739018212.544) RX 1DB#FC40BEEA000001D5
(1739018212.544) RX 1DC#B40F8FFD0130C9CE
(1739018212.544) RX 55B#C8C0AA00E54012EC
(1739018212.545) RX 11A#014000AAC0000003
(1739018212.545) RX 5BC#59032C26B3054074
(1739018212.545) RX 1DA#C0641800000101AD
(1739018212.547) RX 1D4#F7070000C74600B7
(1739018212.547) RX 1F2#10640000001E030F
(1739018212.547) RX 284#0000000000008D13
(1739018212.552) RX 1C2#53
(1739018212.554) RX 1DB#FC40BEEA000002DF
(1739018212.554) RX 1DC#B40F8FFD0520C64C
(1739018212.555) RX 1DA#C0641800000102A7
(1739018212.555) RX 11A#0140005500000115
(1739018212.557) RX 1D4#F70700000746007B
(1739018212.557) RX 1F2#10640000001E000C
(1739018212.558) RX 54A#100070072600002C
(1739018212.559) RX 54B#007698121C000001
(1739018212.560) RX 54C#6D66400000585800
(1739018212.561) RX 54F#2301000007158A44
(1739018212.562) RX 1C2#54
(1739018212.564) RX 1DB#FC40BEEA0000035A
(1739018212.564) RX 1DC#B40F8FFD08C0CB1B
(1739018212.565) RX 1DA#C064180000010322
(1739018212.565) RX 11A#01400055400002D8
(1739018212.567) RX 1D4#F7070000474600BC
(1739018212.567) RX 1F2#10640000001E010D
(1739018212.568) RX 284#0000000000008E14
(1739018212.572) RX 1C2#55
(1739018212.574) RX 1DB#FC40BEEA00000050
(1739018212.574) RX 1DC#B40F8FFD0CCCD8E4
(1739018212.575) RX 1DA#C064180000010028
(1739018212.575) RX 55A#002F2E005F315B68
(1739018212.576) RX 11A#014000AA800003CE
(1739018212.577) RX 380#020410210000009E
(1739018212.577) RX 5BF#000000002800002B
(1739018212.577) RX 1D4#F707000087460070
(1739018212.578) RX 1F2#10640000001E020E
(1739018212.578) RX 50C#000000035DF4
(1739018212.582) RX 1C2#56
(1739018212.584) RX 1DB#FC40BEEA000001D5
(1739018212.584) RX 1DC#B40F8FFD0130C9CE
(1739018212.585) RX 11A#014000AAC0000003
(1739018212.585) RX 1DA#C0641800000101AD
(1739018212.588) RX 1D4#F7070000C74600B7
(1739018212.588) RX 1F2#10640000001E030F
(1739018212.588) RX 284#0000000000008F15
(1739018212.592) RX 1C2#57
(1739018212.594) RX 1DB#FC40BEEA000002DF
(1739018212.594) RX 1DC#B40F8FFD0520C64C
(1739018212.595) RX 1DA#C0641800000102A7
(1739018212.595) RX 11A#0140005500000115
(1739018212.598) RX 1D4#F70700000746007B
(1739018212.598) RX 1F2#10640000001E000C
(1739018212.598) RX 50A#8572A00C8020
(1739018212.602) RX 1C2#58
(1739018212.604) RX 1DB#FC40BEEA0000035A
(1739018212.604) RX 1DC#B40F8FFD08C0CB1B
(1739018212.605) RX 11A#01400055400002D8
(1739018212.605) RX 1DA#C064180000010322
(1739018212.608) RX 1D4#F7070000474600BC
(1739018212.608) RX 1F2#10640000001E010D
(1739018212.608) RX 284#0000000000009016
(1739018212.612) RX 1C2#59
(1739018212.614) RX 1DB#FC40BEEA00000050
(1739018212.614) RX 1DC#B40F8FFD0CCCD8E4
(1739018212.615) RX 1DA#C064180000010028
(1739018212.615) RX 11A#014000AA800003CE
(1739018212.618) RX 1D4#F707000087460070
(1739018212.618) RX 1F2#10640000001E020E
(1739018212.619) RX 50B#000006C00060
(1739018212.622) RX 1C2#5A
(1739018212.624) RX 1DB#FC40BEEA000001D5
(1739018212.624) RX 1DC#B40F8FFD0130C9CE
(1739018212.625) RX 11A#014000AAC0000003
(1739018212.625) RX 1DA#C0641800000101AD
(1739018212.628) RX 1D4#F7070000C74600B7
(1739018212.629) RX 1F2#10640000001E030F
(1739018212.629) RX 284#0000000000009117
(1739018212.632) RX 1C2#5B
(1739018212.634) RX 1DB#FC40BEEA000002DF
(1739018212.634) RX 1DC#B40F8FFD0520C64C
(1739018212.635) RX 1DA#C0641800000102A7
(1739018212.635) RX 11A#0140005500000115
(1739018212.639) RX 1D4#F70700000746007B
(1739018212.639) RX 1F2#10640000001E000C
(1739018212.642) RX 1C2#5C
(1739018212.644) RX 1DB#FC40BEEA0000035A
(1739018212.644) RX 1DC#B40F8FFD08C0CB1B
(1739018212.645) RX 55B#C8C05500E580130C
(1739018212.645) RX 5BC#59032C26B3054074
(1739018212.645) RX 11A#01400055400002D8
(1739018212.645) RX 1DA#C064180000010322
(1739018212.649) RX 1D4#F7070000474600BC
(1739018212.649) RX 1F2#10640000001E010D
(1739018212.650) RX 284#0000000000009218
(1739018212.652) RX 1C2#5D
(1739018212.654) RX 1DB#FC40BEEA00000050
(1739018212.654) RX 1DC#B40F8FFD0CCCD8E4
(1739018212.655) RX 1DA#C064180000010028
(1739018212.655) RX 11A#014000AA800003CE
(1739018212.658) RX 54A#9E0070072600002C
(1739018212.659) RX 54B#007698121C000001
(1739018212.659) RX 1D4#F707000087460070
(1739018212.659) RX 1F2#10640000001E020E
(1739018212.660) RX 54C#6D66400000585800
(1739018212.661) RX 54F#2301000007558A44
(1739018212.662) RX 1C2#5E
(1739018212.664) RX 1DB#FC40BEEA000001D5
(1739018212.664) RX 1DC#B40F8FFD0130C9CE
(1739018212.665) RX 11A#014000AAC0000003
(1739018212.665) RX 1DA#C0641800000101AD
(1739018212.670) RX 1D4#F7070000C74600B7
(1739018212.670) RX 1F2#10640000001E030F
(1739018212.670) RX 284#0000000000009319
(1739018212.672) RX 1C2#5F
(1739018212.674) RX 1DB#FC40BEEA000002DF
(1739018212.674) RX 1DC#B40F8FFD0520C64C
(1739018212.675) RX 1DA#C0641800000102A7
(1739018212.675) RX 55A#002F2E005F315B68
(1739018212.676) RX 11A#0140005500000115
(1739018212.677) RX 380#02041021000000AF
(1739018212.677) RX 5BF#000000002800003C
(1739018212.680) RX 1D4#F70700000746007B
(1739018212.680) RX 1F2#10640000001E000C
(1739018212.661) RX 54F#2301000007558A44
(1739018212.662) RX 1C2#5E
(1739018212.664) RX 1DB#FC40BEEA000001D5
(1739018212.664) RX 1DC#B40F8FFD0130C9CE
(1739018212.665) RX 11A#014000AAC0000003
(1739018212.665) RX 1DA#C0641800000101AD
(1739018212.670) RX 1D4#F7070000C74600B7
(1739018212.670) RX 1F2#10640000001E030F
(1739018212.690) RX 1F2#10640000001E010D
(1739018212.690) RX 284#000000000000941A
(1739018212.691) RX 5A9#643BB01304300000
(1739018212.692) RX 1C2#51
(1739018212.694) RX 1DB#FC40BEEA00000050
(1739018212.694) RX 1DC#B40F8FFD0CCCD8E4
(1739018212.695) RX 1DA#C064180000010028
(1739018212.695) RX 11A#014000AA800003CE
(1739018212.700) RX 1D4#F707000087460070
(1739018212.700) RX 1F2#10640000001E020E
(1739018212.701) RX 50A#8512A00C8020
(1739018212.702) RX 1C2#52
(1739018212.704) RX 1DB#FC40BEEA000001D5
(1739018212.704) RX 1DC#B40F8FFD0130C9CE
(1739018212.705) RX 11A#014000AAC0000003
(1739018212.705) RX 1DA#C0641800000101AD
(1739018212.710) RX 1D4#F7070000C74600B7
(1739018212.711) RX 1F2#10640000001E030F
(1739018212.711) RX 284#000000000000951B
(1739018212.712) RX 1C2#53
(1739018212.714) RX 1DB#FC40BEEA000002DF
(1739018212.714) RX 1DC#B40F8FFD0520C64C
(1739018212.715) RX 1DA#C0641800000102A7
(1739018212.715) RX 11A#0140005500000115
(1739018212.721) RX 1D4#F70700000746007B
(1739018212.721) RX 1F2#10640000001E000C
(1739018212.721) RX 284#000000000000961C
(1739018212.721) RX 50B#000006C00060
(1739018212.722) RX 1C2#54
(1739018212.724) RX 1DB#FC40BEEA0000035A
(1739018212.724) RX 1DC#B40F8FFD08C0CB1B
(1739018212.725) RX 11A#01400055400002D8
(1739018212.725) RX 1DA#C064180000010322
(1739018212.731) RX 1D4#F7070000474600BC
(1739018212.731) RX 1F2#10640000001E010D
(1739018212.732) RX 1C2#55
(1739018212.734) RX 1DB#FC40BEEA00000050
(1739018212.734) RX 1DC#B40F8FFD0CCCD8E4
(1739018212.735) RX 1DA#C064180000010028
(1739018212.735) RX 11A#014000AA800003CE
(1739018212.741) RX 1D4#F707000087460070
(1739018212.741) RX 1F2#10640000001E020E
(1739018212.742) RX 284#000000000000971D
(1739018212.742) RX 1C2#56
(1739018212.744) RX 1DB#FC40BEEA000001D5
(1739018212.745) RX 1DC#B40F8FFD0130C9CE
(1739018212.745) RX 11A#014000AAC0000003
(1739018212.745) RX 55B#C8C0AA00E5801041
(1739018212.745) RX 1DA#C0641800000101AD
(1739018212.746) RX 5BC#59032C26B3054074
(1739018212.751) RX 1D4#F7070000C74600B7
(1739018212.752) RX 1F2#10640000001E030F
(1739018212.752) RX 1C2#57
(1739018212.754) RX 1DB#FC40BEEA000002DF
(1739018212.754) RX 1DC#B40F8FFD0520C64C
(1739018212.755) RX 1DA#C0641800000102A7
(1739018212.755) RX 11A#0140005500000115
(1739018212.758) RX 54A#100070072600002C
(1739018212.759) RX 54B#007698121C000001
(1739018212.760) RX 54C#6D66400000585800
(1739018212.761) RX 54F#2301000007958A44
(1739018212.762) RX 1D4#F70700000746007B
(1739018212.762) RX 1F2#10640000001E000C
(1739018212.762) RX 284#000000000000981E
(1739018212.762) RX 1C2#58
(1739018212.763) RX 5B9#67FF67FF28
(1739018212.764) RX 1DB#FC40BEEA0000035A
(1739018212.765) RX 1DC#B40F8FFD08C0CB1B
(1739018212.765) RX 1DA#C064180000010322
(1739018212.765) RX 11A#01400055400002D8
(1739018212.772) RX 1D4#F7070000474600BC
(1739018212.772) RX 1F2#10640000001E010D
(1739018212.773) RX 1C2#59
(1739018212.774) RX 1DB#FC40BEEA00000050
(1739018212.775) RX 1DC#B40F8FFD0CCCD8E4
(1739018212.775) RX 1DA#C064180000010028
(1739018212.775) RX 55A#002F2E005F315B68
(1739018212.776) RX 11A#014000AA800003CE
(1739018212.777) RX 380#02041021000000B0
(1739018212.777) RX 5BF#0000000028000009
(1739018212.782) RX 1D4#F707000087460070
(1739018212.782) RX 1C2#5A
(1739018212.783) RX 1F2#10640000001E020E
(1739018212.783) RX 284#000000000000991F
(1739018212.783) RX 50C#000000015D5F
(1739018212.784) RX 1DB#FC40BEEA000001D5
(1739018212.785) RX 11A#014000AAC0000003
(1739018212.785) RX 1DC#B40F8FFD0130C9CE
(1739018212.785) RX 1DA#C0641800000101AD
(1739018212.792) RX 1C2#5B
(1739018212.792) RX 1D4#F7070000C74600B7
(1739018212.793) RX 1F2#10640000001E030F
(1739018212.794) RX 1DB#FC40BEEA000002DF
(1739018212.795) RX 1DC#B40F8FFD0520C64C
(1739018212.795) RX 1DA#C0641800000102A7
(1739018212.795) RX 11A#0140005500000115
(1739018212.802) RX 1C2#5C
(1739018212.803) RX 1D4#F70700000746007B
(1739018212.803) RX 1F2#10640000001E000C
(1739018212.803) RX 284#0000000000009A20
(1739018212.803) RX 50A#8532A00C8020
(1739018212.804) RX 1DB#FC40BEEA0000035A
(1739018212.805) RX 1DC#B40F8FFD08C0CB1B
(1739018212.805) RX 11A#01400055400002D8
(1739018212.805) RX 1DA#C064180000010322
(1739018212.813) RX 1C2#5D
(1739018212.813) RX 1D4#F7070000474600BC
(1739018212.813) RX 1F2#10640000001E010D
(1739018212.814) RX 1DB#FC40BEEA00000050
(1739018212.815) RX 1DC#B40F8FFD0CCCD8E4
(1739018212.815) RX 1DA#C064180000010028
(1739018212.815) RX 11A#014000AA800003CE
(1739018212.822) RX 1C2#5E
(1739018212.823) RX 1D4#F707000087460070
(1739018212.823) RX 1F2#10640000001E020E
(1739018212.824) RX 284#0000000000009B21
(1739018212.824) RX 50B#000006C00060
(1739018212.825) RX 1DB#FC40BEEA000001D5
(1739018212.825) RX 11A#014000AAC0000003
(1739018212.825) RX 1DC#B40F8FFD0130C9CE
(1739018212.825) RX 1DA#C0641800000101AD
(1739018212.833) RX 1C2#5F
(1739018212.833) RX 1D4#F7070000C74600B7
(1739018212.834) RX 1F2#10640000001E030F
(1739018212.834) RX 1DB#FC40BEEA000002DF
(1739018212.835) RX 1DC#B40F8FFD0520C64C
(1739018212.835) RX 1DA#C0641800000102A7
(1739018212.835) RX 11A#0140005500000115
(1739018212.842) RX 1C2#50
(1739018212.844) RX 1D4#F70700000746007B
(1739018212.844) RX 1F2#10640000001E000C
(1739018212.844) RX 284#0000000000009C22
(1739018212.845) RX 1DB#FC40BEEA0000035A
(1739018212.845) RX 1DC#B40F8FFD08C0CB1B
(1739018212.845) RX 11A#01400055400002D8
(1739018212.846) RX 1DA#C064180000010322
(1739018212.846) RX 55B#C8C05500E5801183
(1739018212.846) RX 5BC#59032026B20620A0
(1739018212.853) RX 1C2#51
(1739018212.854) RX 1D4#F7070000474600BC
(1739018212.854) RX 1F2#10640000001E010D
(1739018212.855) RX 1DB#FC40BEEA00000050
(1739018212.855) RX 1DC#B40F8FFD0CCCD8E4
(1739018212.855) RX 1DA#C064180000010028
(1739018212.855) RX 11A#014000AA800003CE
(1739018212.856) RX 5C0#804C4C0004A01100
(1739018212.856) RX 5EB#E00FFFFFFFFFFFFF
(1739018212.858) RX 54A#9E0070072600002C
(1739018212.859) RX 54B#007698121C000001
(1739018212.860) RX 54C#6D66400000585800
(1739018212.861) RX 54F#2301000007D58A44
(1739018212.862) RX 1C2#52
(1739018212.864) RX 1D4#F707000087460070
(1739018212.864) RX 1F2#10640000001E020E
(1739018212.865) RX 1DB#FC40BEEA000001D5
(1739018212.865) RX 11A#014000AAC0000003
(1739018212.865) RX 1DC#B40F8FFD0130C9CE
(1739018212.865) RX 1DA#C0641800000101AD
(1739018212.866) RX 284#0000000000009D23
(1739018212.872) RX 1C2#53
(1739018212.874) RX 1D4#F7070000C74600B7
(1739018212.875) RX 1DB#FC40BEEA000002DF
(1739018212.875) RX 1F2#10640000001E030F
(1739018212.875) RX 1DC#B40F8FFD0520C64C
(1739018212.875) RX 1DA#C0641800000102A7
(1739018212.876) RX 11A#0140005500000115
(1739018212.876) RX 55A#002F2E005F315B68
(1739018212.877) RX 380#020410210000008D
(1739018212.877) RX 5BF#000000002800001A
(1739018212.882) RX 1C2#54
(1739018212.885) RX 1DB#FC40BEEA0000035A
(1739018212.885) RX 1D4#F70700000746007B
(1739018212.885) RX 1DC#B40F8FFD08C0CB1B
(1739018212.885) RX 1DA#C064180000010322
(1739018212.886) RX 11A#01400055400002D8
(1739018212.886) RX 1F2#10640000001E000C
(1739018212.886) RX 284#0000000000009E24
(1739018212.886) RX 50C#00000002B20D
(1739018212.892) RX 1C2#55
(1739018212.895) RX 1DB#FC40BEEA00000050
(1739018212.895) RX 1D4#F7070000474600BC
(1739018212.895) RX 1DC#B40F8FFD0CCCD8E4
(1739018212.895) RX 1DA#C064180000010028
(1739018212.896) RX 11A#014000AA800003CE
(1739018212.896) RX 1F2#10640000001E010D
(1739018212.902) RX 1C2#56
(1739018212.905) RX 1DB#FC40BEEA000001D5
(1739018212.905) RX 11A#014000AAC0000003
(1739018212.905) RX 1D4#F707000087460070
(1739018212.905) RX 1DA#C0641800000101AD
(1739018212.906) RX 1DC#B40F8FFD0130C9CE
(1739018212.906) RX 1F2#10640000001E020E
(1739018212.906) RX 284#0000000000009F25
(1739018212.906) RX 50A#8552A00C8020
(1739018212.913) RX 1C2#57
(1739018212.915) RX 1DB#FC40BEEA000002DF
(1739018212.915) RX 1DC#B40F8FFD0520C64C
(1739018212.915) RX 1DA#C0641800000102A7
(1739018212.915) RX 1D4#F7070000C74600B7
(1739018212.916) RX 11A#0140005500000115
(1739018212.916) RX 1F2#10640000001E030F
(1739018212.923) RX 1C2#58
(1739018212.925) RX 1DB#FC40BEEA0000035A
(1739018212.925) RX 1DC#B40F8FFD08C0CB1B
(1739018212.925) RX 11A#01400055400002D8
(1739018212.926) RX 1DA#C064180000010322
(1739018212.926) RX 1D4#F70700000746007B
(1739018212.926) RX 1F2#10640000001E000C
(1739018212.926) RX 284#000000000000A026
(1739018212.926) RX 50B#000006C00060
(1739018212.933) RX 1C2#59
(1739018212.935) RX 1DB#FC40BEEA00000050
(1739018212.935) RX 1DC#B40F8FFD0CCCD8E4
(1739018212.935) RX 1DA#C064180000010028
(1739018212.936) RX 11A#014000AA800003CE
(1739018212.936) RX 1D4#F7070000474600BC
(1739018212.936) RX 1F2#10640000001E010D
(1739018212.943) RX 1C2#5A
(1739018212.945) RX 11A#014000AAC0000003
(1739018212.945) RX 1DB#FC40BEEA000001D5
(1739018212.945) RX 1DA#C0641800000101AD
(1739018212.945) RX 1DC#B40F8FFD0130C9CE
(1739018212.946) RX 55B#C8C0AA00E60012F9
(1739018212.946) RX 1D4#F707000087460070
(1739018212.946) RX 1F2#10640000001E020E
(1739018212.947) RX 284#000000000000A127
(1739018212.947) RX 5BC#59032026B20620A0
(1739018212.953) RX 1C2#5B
(1739018212.955) RX 1DB#FC40BEEA000002DF
(1739018212.955) RX 1DC#B40F8FFD0520C64C
(1739018212.955) RX 1DA#C0641800000102A7
(1739018212.956) RX 11A#0140005500000115
(1739018212.956) RX 1D4#F7070000C74600B7
(1739018212.957) RX 1F2#10640000001E030F
(1739018212.958) RX 54A#100070072600002C
(1739018212.959) RX 54B#007698121C000001
(1739018212.960) RX 54C#6D66400000585800
(1739018212.961) RX 54F#2301000007158A44
(1739018212.963) RX 1C2#5C
(1739018212.965) RX 1DB#FC40BEEA0000035A
(1739018212.965) RX 1DA#C064180000010322
(1739018212.965) RX 11A#01400055400002D8
(1739018212.966) RX 1DC#B40F8FFD08C0CB1B
(1739018212.967) RX 1D4#F70700000746007B
(1739018212.967) RX 1F2#10640000001E000C
(1739018212.967) RX 284#000000000000A228
(1739018212.973) RX 1C2#5D
(1739018212.975) RX 1DB#FC40BEEA00000050
(1739018212.975) RX 1DC#B40F8FFD0CCCD8E4
(1739018212.975) RX 1DA#C064180000010028
(1739018212.976) RX 11A#014000AA800003CE
(1739018212.976) RX 55A#002F2E005F315B68
(1739018212.977) RX 1D4#F7070000474600BC
(1739018212.977) RX 1F2#10640000001E010D
(1739018212.977) RX 380#020410210000009E
(1739018212.978) RX 5BF#000000002800002B
(1739018212.983) RX 1C2#5E
(1739018212.985) RX 11A#014000AAC0000003
(1739018212.985) RX 1DB#FC40BEEA000001D5
(1739018212.985) RX 1DA#C0641800000101AD
(1739018212.985) RX 1DC#B40F8FFD0130C9CE
(1739018212.987) RX 1D4#F707000087460070
(1739018212.987) RX 1F2#10640000001E020E
(1739018212.988) RX 284#000000000000A329
(1739018212.988) RX 50C#000000035DF4
