(1739018584.885) RX 1C2#5E
(1739018584.886) RX 11A#0140005500000115
(1739018584.887) RX 1DA#C0641800000102A7
(1739018584.887) RX 1D4#F70700000746007B
(1739018584.888) RX 1DB#FFC0BF6A000000D6
(1739018584.888) RX 1F2#10640000001E000C
(1739018584.888) RX 1DC#B40F8FFD0CCCD8E4
(1739018584.893) RX 5C0#404C4C0004E41100
(1739018584.893) RX 5EB#E00FFFFFFFFFFFFF
(1739018584.895) RX 11A#01400055400002D8
(1739018584.896) RX 1C2#5F
(1739018584.897) RX 1DA#C064180000010322
(1739018584.897) RX 1D4#F7070000474600BC
(1739018584.898) RX 1DB#FFC0BF6A00000153
(1739018584.898) RX 1F2#10640000001E010D
(1739018584.898) RX 1DC#B40F8FFD0130C9CE
(1739018584.898) RX 284#00000000000047CD
(1739018584.905) RX 1C2#50
(1739018584.906) RX 11A#014000AA800003CE
(1739018584.907) RX 1DA#C064180000010028
(1739018584.907) RX 55A#00302F005F315B48
(1739018584.908) RX 1DB#FFC0BF6A00000259
(1739018584.908) RX 1D4#F707000087460070
(1739018584.908) RX 1DC#B40F8FFD0520C64C
(1739018584.908) RX 1F2#10640000001E020E
(1739018584.915) RX 11A#014000AAC0000003
(1739018584.915) RX 1C2#51
(1739018584.917) RX 1DA#C0641800000101AD
(1739018584.918) RX 1DB#FFC0BF6A000003DC
(1739018584.918) RX 1D4#F7070000C74600B7
(1739018584.918) RX 1DC#B40F8FFD08C0CB1B
(1739018584.918) RX 1F2#10640000001E030F
(1739018584.919) RX 284#00000000000048CE
(1739018584.926) RX 11A#0140005500000115
(1739018584.926) RX 1C2#52
(1739018584.927) RX 1DA#C0641800000102A7
(1739018584.928) RX 1DB#FFC0BF6A000000D6
(1739018584.928) RX 1DC#B40F8FFD0CCCD8E4
(1739018584.928) RX 1D4#F70700000746007B
(1739018584.928) RX 1F2#10640000001E000C
(1739018584.929) RX 50C#00000002B20D
(1739018584.935) RX 11A#01400055400002D8
(1739018584.936) RX 1C2#53
(1739018584.937) RX 1DA#C064180000010322
(1739018584.938) RX 1DB#FFC0BF6A00000153
(1739018584.938) RX 1DC#B40F8FFD0130C9CE
(1739018584.938) RX 1D4#F7070000474600BC
(1739018584.939) RX 1F2#10640000001E010D
(1739018584.939) RX 284#00000000000049CF
(1739018584.944) RX 380#020410210000009E
(1739018584.944) RX 5BF#000000002800002B
(1739018584.944) RX 54A#9E0070072600002C
(1739018584.945) RX 54B#004888120C000001
(1739018584.946) RX 11A#014000AA800003CE
(1739018584.946) RX 1C2#54
(1739018584.946) RX 54C#7766400000405800
(1739018584.947) RX 1DA#C064180000010028
(1739018584.947) RX 54F#2B01000007408A61
(1739018584.948) RX 1DB#FFE0BF6A00000208
(1739018584.948) RX 1DC#B40F8FFD0520C64C
(1739018584.949) RX 1D4#F707000087460070
(1739018584.949) RX 1F2#10640000001E020E
(1739018584.949) RX 50A#8552A00D8020
(1739018584.955) RX 11A#014000AAC0000003
(1739018584.956) RX 1C2#55
(1739018584.957) RX 1DA#C0641800000101AD
(1739018584.958) RX 1DB#FFE0BF6A0000038D
(1739018584.958) RX 1DC#B40F8FFD08C0CB1B
(1739018584.959) RX 1D4#F7070000C74600B7
(1739018584.959) RX 1F2#10640000001E030F
(1739018584.959) RX 284#0000000000004AD0
(1739018584.966) RX 11A#0140005500000115
(1739018584.966) RX 1C2#56
(1739018584.967) RX 1DA#C0641800000102A7
(1739018584.968) RX 1DB#FFE0BF6A00000087
(1739018584.968) RX 1DC#B40F8FFD0CCCD8E4
(1739018584.969) RX 1D4#F70700000746007B
(1739018584.969) RX 1F2#10640000001E000C
(1739018584.970) RX 50B#000006C00060
(1739018584.975) RX 11A#01400055400002D8
(1739018584.976) RX 1C2#57
(1739018584.977) RX 1DA#C064180000010322
(1739018584.978) RX 1DB#FFE0BF6A00000102
(1739018584.978) RX 1DC#B40F8FFD0130C9CE
(1739018584.979) RX 55B#C780AA00E54010EC
(1739018584.979) RX 5BC#59032026B2040087
(1739018584.979) RX 1D4#F7070000474600BC
(1739018584.980) RX 1F2#10640000001E010D
(1739018584.980) RX 284#0000000000004BD1
(1739018584.986) RX 11A#014000AA800003CE
(1739018584.986) RX 1C2#58
(1739018584.987) RX 1DA#C064180000010028
(1739018584.988) RX 1DB#FFE0BF6A00000208
(1739018584.988) RX 1DC#B40F8FFD0520C64C
(1739018584.990) RX 1D4#F707000087460070
(1739018584.990) RX 1F2#10640000001E020E
(1739018585.000) RX 11A#014000AAC0000003
(1739018585.000) RX 1C2#59
(1739018585.000) RX 1DA#C0641800000101AD
(1739018585.000) RX 1DB#FFE0BF6A0000038D
(1739018585.000) RX 1DC#B40F8FFD08C0CB1B
(1739018585.001) RX 1D4#F7070000C74600B7
(1739018585.001) RX 1F2#10640000001E030F
(1739018585.001) RX 284#0000000000004CD2
(1739018585.006) RX 11A#0140005500000115
(1739018585.006) RX 1C2#5A
(1739018585.007) RX 1DA#C0641800000102A7
(1739018585.007) RX 55A#00302F005F315B48
(1739018585.008) RX 1DB#FFE0BF6A00000087
(1739018585.008) RX 1DC#B40F8FFD0CCCD8E4
(1739018585.010) RX 1D4#F70700000746007B
(1739018585.010) RX 1F2#10640000001E000C
(1739018585.015) RX 11A#01400055400002D8
(1739018585.016) RX 1C2#5B
(1739018585.018) RX 1DA#C064180000010322
(1739018585.018) RX 1DB#FFE0BF6A00000102
(1739018585.018) RX 1DC#B40F8FFD0130C9CE
(1739018585.020) RX 1D4#F7070000474600BC
(1739018585.021) RX 1F2#10640000001E010D
(1739018585.021) RX 284#0000000000004DD3
(1739018585.026) RX 11A#014000AA800003CE
(1739018585.026) RX 1C2#5C
(1739018585.027) RX 1DA#C064180000010028
(1739018585.028) RX 1DB#FFE0BF6A00000208
(1739018585.028) RX 1DC#B40F8FFD0520C64C
(1739018585.031) RX 1D4#F707000087460070
(1739018585.031) RX 1F2#10640000001E020E
(1739018585.031) RX 50C#000000035DF4
(1739018585.035) RX 11A#014000AAC0000003
(1739018585.036) RX 1C2#5D
(1739018585.037) RX 1DA#C0641800000101AD
(1739018585.038) RX 1DB#FFC0BF6A000003DC
(1739018585.038) RX 1DC#B40F8FFD08C0CB1B
(1739018585.041) RX 1D4#F7070000C74600B7
(1739018585.041) RX 1F2#10640000001E030F
(1739018585.041) RX 284#0000000000004ED4
(1739018585.042) RX 5A9#643BB01304300000
(1739018585.044) RX 380#02041021000000AF
(1739018585.044) RX 5BF#000000002800003C
(1739018585.044) RX 54A#100070072600002C
(1739018585.045) RX 54B#004888120C000001
(1739018585.046) RX 11A#0140005500000115
(1739018585.046) RX 1C2#5E
(1739018585.046) RX 54C#7766400000405800
(1739018585.047) RX 1DA#C0641800000102A7
(1739018585.047) RX 54F#2B01000007808A61
(1739018585.048) RX 1DB#FFC0BF6A000000D6
(1739018585.048) RX 1DC#B40F8FFD0CCCD8E4
(1739018585.051) RX 1D4#F70700000746007B
(1739018585.051) RX 1F2#10640000001E000C
(1739018585.052) RX 50A#8572A00D8020
(1739018585.056) RX 11A#01400055400002D8
(1739018585.056) RX 1C2#5F
(1739018585.057) RX 1DA#C064180000010322
(1739018585.058) RX 1DB#FFC0BF6A00000153
(1739018585.058) RX 1DC#B40F8FFD0130C9CE
(1739018585.061) RX 1D4#F7070000474600BC
(1739018585.062) RX 1F2#10640000001E010D
(1739018585.062) RX 284#0000000000004FD5
(1739018585.066) RX 11A#014000AA800003CE
(1739018585.066) RX 1C2#50
(1739018585.067) RX 1DA#C064180000010028
(1739018585.068) RX 1DB#FFC0BF6A00000259
(1739018585.068) RX 1DC#B40F8FFD0520C64C
(1739018585.072) RX 1D4#F707000087460070
(1739018585.072) RX 1F2#10640000001E020E
(1739018585.072) RX 50B#000006C00060
(1739018585.075) RX 11A#014000AAC0000003
(1739018585.076) RX 1C2#51
(1739018585.077) RX 1DA#C0641800000101AD
(1739018585.078) RX 1DB#FFC0BF6A000003DC
(1739018585.078) RX 1DC#B40F8FFD08C0CB1B
(1739018585.079) RX 55B#C7805500E540112E
(1739018585.079) RX 5BC#59032026B2040087
(1739018585.082) RX 1D4#F7070000C74600B7
(1739018585.082) RX 1F2#10640000001E030F
(1739018585.082) RX 284#00000000000050D6
(1739018585.086) RX 11A#0140005500000115
(1739018585.086) RX 1C2#52
(1739018585.087) RX 1DA#C0641800000102A7
(1739018585.088) RX 1DB#FFC0BF6A000000D6
(1739018585.088) RX 1DC#B40F8FFD0CCCD8E4
(1739018585.092) RX 1D4#F70700000746007B
(1739018585.092) RX 1F2#10640000001E000C
(1739018585.095) RX 11A#01400055400002D8
(1739018585.096) RX 1C2#53
(1739018585.097) RX 1DA#C064180000010322
(1739018585.098) RX 1DB#FFC0BF6A00000153
(1739018585.098) RX 1DC#B40F8FFD0130C9CE
(1739018585.102) RX 1D4#F7070000474600BC
(1739018585.103) RX 1F2#10640000001E010D
(1739018585.103) RX 284#00000000000051D7
(1739018585.106) RX 11A#014000AA800003CE
(1739018585.106) RX 1C2#54
(1739018585.107) RX 1DA#C064180000010028
(1739018585.107) RX 55A#00302F005F315B48
(1739018585.108) RX 1DB#FFC0BF6A00000259
(1739018585.109) RX 1DC#B40F8FFD0520C64C
(1739018585.113) RX 1D4#F707000087460070
(1739018585.113) RX 1F2#10640000001E020E
(1739018585.113) RX 5B9#67FF67FF28
(1739018585.115) RX 11A#014000AAC0000003
(1739018585.116) RX 1C2#55
(1739018585.117) RX 1DA#C0641800000101AD
(1739018585.118) RX 1DB#FFC0BF6A000003DC
(1739018585.118) RX 1DC#B40F8FFD08C0CB1B
(1739018585.123) RX 1D4#F7070000C74600B7
(1739018585.123) RX 1F2#10640000001E030F
(1739018585.123) RX 284#00000000000052D8
(1739018585.126) RX 11A#0140005500000115
(1739018585.126) RX 1C2#56
(1739018585.127) RX 1DA#C0641800000102A7
(1739018585.128) RX 1DB#FFC0BF6A000000D6
(1739018585.128) RX 1DC#B40F8FFD0CCCD8E4
(1739018585.133) RX 1D4#F70700000746007B
(1739018585.133) RX 1F2#10640000001E000C
(1739018585.134) RX 284#00000000000053D9
(1739018585.134) RX 50C#00000000B2A6
(1739018585.135) RX 11A#01400055400002D8
(1739018585.136) RX 1C2#57
(1739018585.137) RX 1DA#C064180000010322
(1739018585.138) RX 1DB#FFC0BF6A00000153
(1739018585.139) RX 1DC#B40F8FFD0130C9CE
(1739018585.143) RX 1D4#F7070000474600BC
(1739018585.144) RX 1F2#10640000001E010D
(1739018585.144) RX 380#02041021000000B0
(1739018585.144) RX 5BF#0000000028000009
(1739018585.145) RX 54A#9E0070072600002C
(1739018585.146) RX 54B#004888120C000001
(1739018585.146) RX 11A#014000AA800003CE
(1739018585.146) RX 1C2#58
(1739018585.147) RX 54C#7766400000405800
(1739018585.147) RX 1DA#C064180000010028
(1739018585.148) RX 54F#2B01000007C08A61
(1739018585.148) RX 1DB#FFC0BF6A00000259
(1739018585.148) RX 1DC#B40F8FFD0520C64C
(1739018585.154) RX 1D4#F707000087460070
(1739018585.154) RX 1F2#10640000001E020E
(1739018585.154) RX 284#00000000000054DA
(1739018585.154) RX 50A#8512A00D8020
(1739018585.155) RX 11A#014000AAC0000003
(1739018585.156) RX 1C2#59
(1739018585.157) RX 1DA#C0641800000101AD
(1739018585.158) RX 1DB#FFE0BF6A0000038D
(1739018585.159) RX 1DC#B40F8FFD08C0CB1B
(1739018585.164) RX 1D4#F7070000C74600B7
(1739018585.164) RX 1F2#10640000001E030F
(1739018585.166) RX 11A#0140005500000115
(1739018585.166) RX 1C2#5A
(1739018585.167) RX 1DA#C0641800000102A7
(1739018585.168) RX 1DB#FFE0BF6A00000087
(1739018585.168) RX 1DC#B40F8FFD0CCCD8E4
(1739018585.174) RX 1D4#F70700000746007B
 1739018585.147) RX 1DA#C064180000010028
(1739018585.148) RX 54F#2B01000007C08A61
(1739018585.148) RX 1DB#FFC0BF6A00000259
(1739018585.148) RX 1DC#B40F8FFD0520C64C
(1739018585.154) RX 1D4#F707000087460070
(1739018585.154) RX 1F2#10640000001E020E
(1739018585.154) RX 284#00000000000054DA
(1739018585.154) RX 50A#8512A00D8020
(1739018585.155) RX 11A#014000AAC0000003
(1739018585.156) RX 1C2#59
(1739018585.157) RX 1DA#C0641800000101AD
(1739018585.158) RX 1DB#FFE0BF6A0000038D
(173(1739018585.174) RX 1F2#10640000001E000C
(1739018585.175) RX 284#00000000000055DB
(1739018585.175) RX 50B#000006C00060
(1739018585.175) RX 11A#01400055400002D8
(1739018585.176) RX 1C2#5B
(1739018585.177) RX 1DA#C064180000010322
(1739018585.178) RX 1DB#FFE0BF6A00000102
(1739018585.179) RX 1DC#B40F8FFD0130C9CE
(1739018585.179) RX 55B#C780AA00E5401263
(1739018585.179) RX 5BC#59032026B2040087
(1739018585.184) RX 1D4#F7070000474600BC
(1739018585.185) RX 1F2#10640000001E010D
(1739018585.186) RX 11A#014000AA800003CE
(1739018585.186) RX 1C2#5C
(1739018585.187) RX 1DA#C064180000010028
(1739018585.188) RX 1DB#FFE0BF6A00000208
(1739018585.189) RX 1DC#B40F8FFD0520C64C
(1739018585.195) RX 1D4#F707000087460070
(1739018585.195) RX 1F2#10640000001E020E
(1739018585.195) RX 11A#014000AAC0000003
(1739018585.195) RX 284#00000000000056DC
(1739018585.196) RX 1C2#5D
(1739018585.197) RX 1DA#C0641800000101AD
(1739018585.198) RX 1DB#FFE0BF6A0000038D
(1739018585.199) RX 1DC#B40F8FFD08C0CB1B
(1739018585.205) RX 1D4#F7070000C74600B7
(1739018585.205) RX 1F2#10640000001E030F
(1739018585.206) RX 11A#0140005500000115
(1739018585.206) RX 1C2#5E
(1739018585.207) RX 1DA#C0641800000102A7
(1739018585.207) RX 55A#00302F005F315B48
(1739018585.208) RX 1DB#FFE0BF6A00000087
(1739018585.209) RX 1DC#B40F8FFD0CCCD8E4
(1739018585.215) RX 1D4#F70700000746007B
(1739018585.215) RX 1F2#10640000001E000C
(1739018585.215) RX 11A#01400055400002D8
(1739018585.216) RX 284#00000000000057DD
(1739018585.216) RX 1C2#5F
(1739018585.217) RX 1DA#C064180000010322
(1739018585.218) RX 1DB#FFE0BF6A00000102
(1739018585.219) RX 1DC#B40F8FFD0130C9CE
(1739018585.225) RX 1D4#F7070000474600BC
(1739018585.225) RX 1F2#10640000001E010D
(1739018585.226) RX 11A#014000AA800003CE
(1739018585.226) RX 1C2#50
(1739018585.227) RX 1DA#C064180000010028
(1739018585.228) RX 1DB#FFE0BF6A00000208
(1739018585.229) RX 1DC#B40F8FFD0520C64C
(1739018585.235) RX 11A#014000AAC0000003
(1739018585.235) RX 1D4#F707000087460070
(1739018585.236) RX 1F2#10640000001E020E
(1739018585.236) RX 284#00000000000058DE
(1739018585.236) RX 50C#000000015D5F
(1739018585.236) RX 1C2#51
(1739018585.237) RX 1DA#C0641800000101AD
(1739018585.239) RX 1DB#FFE0BF6A0000038D
(1739018585.239) RX 1DC#B40F8FFD08C0CB1B
(1739018585.244) RX 380#020410210000008D
(1739018585.225) RX 1D4#F7070000474600BC
(1739018585.225) RX 1F2#10640000001E010D
(1739018585.226) RX 11A#014000AA800003CE
(1739018585.226) RX 1C2#50
(1739018585.227) RX 1DA#C064180000010028
(1739018585.228) RX 1DB#FFE0BF6A00000208
(1739018585.229) RX 1DC#B40F8FFD0520C64C
(1739018585.255) RX 11A#01400055400002D8
(1739018585.256) RX 1D4#F70700000746007B
(1739018585.256) RX 1F2#10640000001E000C
(1739018585.256) RX 1C2#53
(1739018585.257) RX 284#00000000000059DF
(1739018585.257) RX 50A#8532A00D8020
(1739018585.257) RX 1DA#C064180000010322
(1739018585.259) RX 1DB#FFC0BF6A00000153
(1739018585.259) RX 1DC#B40F8FFD0130C9CE
(1739018585.266) RX 11A#014000AA800003CE
(1739018585.266) RX 1D4#F7070000474600BC
(1739018585.266) RX 1F2#10640000001E010D
(1739018585.267) RX 1C2#54
(1739018585.267) RX 1DA#C064180000010028
(1739018585.268) RX 1DB#FFC0BF6A00000259
(1739018585.269) RX 1DC#B40F8FFD0520C64C
(1739018585.275) RX 11A#014000AAC0000003
(1739018585.276) RX 1C2#55
(1739018585.276) RX 1D4#F707000087460070
(1739018585.277) RX 1F2#10640000001E020E
(1739018585.277) RX 284#0000000000005AE0
(1739018585.277) RX 1DA#C0641800000101AD
(1739018585.277) RX 50B#000006C00060
(1739018585.279) RX 1DB#FFC0BF6A000003DC
(1739018585.279) RX 1DC#B40F8FFD08C0CB1B
(1739018585.279) RX 55B#C7805500E54013A1
(1739018585.280) RX 5BC#59032026B2040087
(1739018585.286) RX 11A#0140005500000115
(1739018585.287) RX 1D4#F7070000C74600B7
(1739018585.287) RX 1C2#56
(1739018585.287) RX 1DA#C0641800000102A7
(1739018585.287) RX 1F2#10640000001E030F
(1739018585.289) RX 1DB#FFE0BF6A00000087
(1739018585.289) RX 1DC#B40F8FFD0CCCD8E4
(1739018585.295) RX 11A#01400055400002D8
(1739018585.296) RX 1C2#57
(1739018585.297) RX 1D4#F70700000746007B
(1739018585.297) RX 1DA#C064180000010322
(1739018585.297) RX 1F2#10640000001E000C
(1739018585.298) RX 284#0000000000005BE1
(1739018585.299) RX 1DB#FFE0BF6A00000102
(1739018585.299) RX 1DC#B40F8FFD0130C9CE
(1739018585.306) RX 11A#014000AA800003CE
(1739018585.306) RX 1C2#58
(1739018585.307) RX 1DA#C064180000010028
(1739018585.307) RX 1D4#F7070000474600BC
(1739018585.307) RX 1F2#10640000001E010D
(1739018585.308) RX 55A#00302F005F315B48
(1739018585.309) RX 1DB#FFC0BF6A00000259
(1739018585.309) RX 1DC#B40F8FFD0520C64C
(1739018585.315) RX 11A#014000AAC0000003
(1739018585.316) RX 1C2#59
(1739018585.317) RX 1DA#C0641800000101AD
(1739018585.317) RX 1D4#F707000087460070
(1739018585.318) RX 1F2#10640000001E020E
(1739018585.318) RX 284#0000000000005CE2
(1739018585.319) RX 1DB#FFC0BF6A000003DC
(1739018585.319) RX 1DC#B40F8FFD08C0CB1B
(1739018585.326) RX 11A#0140005500000115
(1739018585.326) RX 1C2#5A
(1739018585.327) RX 1DA#C0641800000102A7
(1739018585.328) RX 1D4#F7070000C74600B7
(1739018585.328) RX 1F2#10640000001E030F
(1739018585.329) RX 1DB#FFC0BF6A000000D6
(1739018585.329) RX 1DC#B40F8FFD0CCCD8E4
(1739018585.335) RX 11A#01400055400002D8
(1739018585.336) RX 1C2#5B
(1739018585.337) RX 1DA#C064180000010322
(1739018585.338) RX 1D4#F70700000746007B
(1739018585.338) RX 1F2#10640000001E000C
(1739018585.338) RX 284#0000000000005DE3
(1739018585.339) RX 50C#00000002B20D
(1739018585.339) RX 1DB#FFC0BF6A00000153
(1739018585.339) RX 1DC#B40F8FFD0130C9CE
(1739018585.344) RX 380#020410210000009E
(1739018585.344) RX 5BF#000000002800002B
(1739018585.345) RX 54A#9E0070072600002C
(1739018585.346) RX 11A#014000AA800003CE
(1739018585.346) RX 54B#004888120C000001
(1739018585.347) RX 1C2#5C
(1739018585.347) RX 54C#7766400000405800
(1739018585.347) RX 1DA#C064180000010028
(1739018585.348) RX 54F#2B01000007408A61
(1739018585.348) RX 1D4#F7070000474600BC
(1739018585.348) RX 1F2#10640000001E010D
(1739018585.349) RX 1DB#FFC0BF6A00000259
(1739018585.349) RX 1DC#B40F8FFD0520C64C
(1739018585.355) RX 11A#014000AAC0000003
(1739018585.356) RX 1C2#5D
(1739018585.357) RX 1DA#C0641800000101AD
(1739018585.358) RX 1D4#F707000087460070
(1739018585.359) RX 1F2#10640000001E020E
(1739018585.359) RX 1DB#FFC0BF6A000003DC
(1739018585.359) RX 284#0000000000005EE4
(1739018585.359) RX 1DC#B40F8FFD08C0CB1B
(1739018585.360) RX 50A#8552A00D8020
(1739018585.366) RX 11A#0140005500000115
(1739018585.366) RX 1C2#5E
(1739018585.367) RX 1DA#C0641800000102A7
(1739018585.369) RX 1D4#F7070000C74600B7
(1739018585.369) RX 1DB#FFC0BF6A000000D6
(1739018585.369) RX 1F2#10640000001E030F
(1739018585.369) RX 1DC#B40F8FFD0CCCD8E4
(1739018585.375) RX 11A#01400055400002D8
(1739018585.376) RX 1C2#5F
(1739018585.377) RX 1DA#C064180000010322
(1739018585.379) RX 1D4#F70700000746007B
(1739018585.379) RX 1DB#FFC0BF6A00000153
(1739018585.379) RX 1F2#10640000001E000C
(1739018585.380) RX 1DC#B40F8FFD0130C9CE
(1739018585.380) RX 284#0000000000005FE5
(1739018585.380) RX 50B#000006C00060
(1739018585.380) RX 55B#C780AA00E54010EC
(1739018585.381) RX 5BC#59032C26B305209A
(1739018585.386) RX 11A#014000AA800003CE
(1739018585.387) RX 1C2#50
(1739018585.387) RX 1DA#C064180000010028
(1739018585.389) RX 1DB#FFC0BF6A00000259
(1739018585.389) RX 1D4#F7070000474600BC
(1739018585.389) RX 1DC#B40F8FFD0520C64C
(1739018585.390) RX 1F2#10640000001E010D
(1739018585.390) RX 5C0#C04C4C0004541100
(1739018585.390) RX 5EB#E00FFFFFFFFFFFFF
(1739018585.395) RX 11A#014000AAC0000003
(1739018585.397) RX 1C2#51
(1739018585.397) RX 1DA#C0641800000101AD
(1739018585.399) RX 1DB#FFC0BF6A000003DC
(1739018585.399) RX 1DC#B40F8FFD08C0CB1B
(1739018585.399) RX 1D4#F707000087460070
(1739018585.400) RX 1F2#10640000001E020E
(1739018585.400) RX 284#00000000000060E6
(1739018585.406) RX 11A#0140005500000115
(1739018585.407) RX 1C2#52
(1739018585.407) RX 1DA#C0641800000102A7
(1739018585.407) RX 55A#00302F005F315B48
(1739018585.409) RX 1DB#FFC0BF6A000000D6
(1739018585.409) RX 1DC#B40F8FFD0CCCD8E4
(1739018585.410) RX 1D4#F7070000C74600B7
(1739018585.410) RX 1F2#10640000001E030F
(1739018585.415) RX 11A#01400055400002D8
(1739018585.417) RX 1C2#53
(1739018585.417) RX 1DA#C064180000010322
(1739018585.419) RX 1DB#FFC0BF6A00000153
(1739018585.419) RX 1DC#B40F8FFD0130C9CE
(1739018585.420) RX 1D4#F70700000746007B
(1739018585.420) RX 1F2#10640000001E000C
(1739018585.420) RX 284#00000000000061E7
(1739018585.426) RX 11A#014000AA800003CE
(1739018585.427) RX 1C2#54
(1739018585.427) RX 1DA#C064180000010028
(1739018585.429) RX 1DB#FFC0BF6A00000259
(1739018585.429) RX 1DC#B40F8FFD0520C64C
(1739018585.430) RX 1D4#F7070000474600BC
(1739018585.430) RX 1F2#10640000001E010D
(1739018585.435) RX 11A#014000AAC0000003
(1739018585.437) RX 1C2#55
(1739018585.437) RX 1DA#C0641800000101AD
(1739018585.439) RX 1DB#FFE0BF6A0000038D
(1739018585.439) RX 1DC#B40F8FFD08C0CB1B
(1739018585.440) RX 1D4#F707000087460070
(1739018585.441) RX 1F2#10640000001E020E
(1739018585.441) RX 284#00000000000062E8
(1739018585.441) RX 50C#000000035DF4
(1739018585.444) RX 380#02041021000000AF
(1739018585.444) RX 5BF#000000002800003C
(1739018585.445) RX 54A#100070072600002C
(1739018585.446) RX 11A#0140005500000115
(1739018585.446) RX 54B#004888120C000001
(1739018585.447) RX 1C2#56
(1739018585.447) RX 54C#7766400000405800
(1739018585.447) RX 1DA#C0641800000102A7
(1739018585.448) RX 54F#2B01000007808A61
(1739018585.449) RX 1DB#FFE0BF6A00000087
(1739018585.449) RX 1DC#B40F8FFD0CCCD8E4
(1739018585.451) RX 1D4#F7070000C74600B7
(1739018585.451) RX 1F2#10640000001E030F
(1739018585.455) RX 11A#01400055400002D8
(1739018585.457) RX 1C2#57
(1739018585.457) RX 1DA#C064180000010322
(1739018585.459) RX 1DB#FFE0BF6A00000102
(1739018585.459) RX 1DC#B40F8FFD0130C9CE
(1739018585.461) RX 1D4#F70700000746007B
(1739018585.461) RX 1F2#10640000001E000C
(1739018585.461) RX 284#00000000000063E9
(1739018585.462) RX 50A#8572A00D8020
(1739018585.466) RX 11A#014000AA800003CE
(1739018585.467) RX 1C2#58
(1739018585.467) RX 1DA#C064180000010028
(1739018585.469) RX 1DB#FFE0BF6A00000208
(1739018585.469) RX 1DC#B40F8FFD0520C64C
(1739018585.471) RX 1D4#F7070000474600BC
(1739018585.471) RX 1F2#10640000001E010D
(1739018585.475) RX 11A#014000AAC0000003
(1739018585.477) RX 1C2#59
(1739018585.477) RX 1DA#C0641800000101AD
(1739018585.479) RX 1DB#FFE0BF6A0000038D
(1739018585.479) RX 1DC#B40F8FFD08C0CB1B
(1739018585.480) RX 55B#C7805500E540112E
(1739018585.480) RX 5BC#59032C26B305209A
(1739018585.481) RX 1D4#F707000087460070
(1739018585.482) RX 1F2#10640000001E020E
(1739018585.482) RX 284#00000000000064EA
(1739018585.482) RX 50B#000006C00060
(1739018585.486) RX 11A#0140005500000115
(1739018585.487) RX 1DA#C0641800000102A7
(1739018585.487) RX 1C2#5A
(1739018585.489) RX 1DB#FFE0BF6A00000087
(1739018585.489) RX 1DC#B40F8FFD0CCCD8E4
(1739018585.492) RX 1D4#F7070000C74600B7
(1739018585.492) RX 1F2#10640000001E030F
(1739018585.495) RX 11A#01400055400002D8
(1739018585.497) RX 1C2#5B
(1739018585.497) RX 1DA#C064180000010322
(1739018585.499) RX 1DB#FFE0BF6A00000102
(1739018585.499) RX 1DC#B40F8FFD0130C9CE
(1739018585.502) RX 1D4#F70700000746007B
(1739018585.502) RX 1F2#10640000001E000C
(1739018585.502) RX 284#00000000000065EB
(1739018585.506) RX 11A#014000AA800003CE
(1739018585.507) RX 1DA#C064180000010028
(1739018585.507) RX 55A#00302F005F315B48
(1739018585.507) RX 1C2#5C
(1739018585.509) RX 1DB#FFE0BF6A00000208
(1739018585.509) RX 1DC#B40F8FFD0520C64C
(1739018585.512) RX 1D4#F7070000474600BC
(1739018585.512) RX 1F2#10640000001E010D
(1739018585.515) RX 11A#014000AAC0000003
(1739018585.517) RX 1C2#5D
(1739018585.517) RX 1DA#C0641800000101AD
(1739018585.519) RX 1DB#FFE0BF6A0000038D
(1739018585.519) RX 1DC#B40F8FFD08C0CB1B
(1739018585.522) RX 1D4#F707000087460070
(1739018585.523) RX 1F2#10640000001E020E
(1739018585.523) RX 284#00000000000066EC
(1739018585.526) RX 11A#0140005500000115
(1739018585.527) RX 1DA#C0641800000102A7
(1739018585.527) RX 1C2#5E
(1739018585.529) RX 1DB#FFE0BF6A00000087
(1739018585.529) RX 1DC#B40F8FFD0CCCD8E4
(1739018585.533) RX 1D4#F7070000C74600B7
(1739018585.533) RX 1F2#10640000001E030F
(1739018585.535) RX 11A#01400055400002D8
(1739018585.537) RX 1DA#C064180000010322
(1739018585.537) RX 1C2#5F
(1739018585.539) RX 1DB#FFE0BF6A00000102
(1739018585.540) RX 1DC#B40F8FFD0130C9CE
(1739018585.543) RX 1D4#F70700000746007B
(1739018585.543) RX 1F2#10640000001E000C
(1739018585.543) RX 284#00000000000067ED
(1739018585.544) RX 50C#00000000B2A6
(1739018585.544) RX 380#02041021000000B0
(1739018585.545) RX 5BF#0000000028000009
(1739018585.545) RX 54A#9E0070072600002C
(1739018585.546) RX 11A#014000AA800003CE
(1739018585.546) RX 54B#004888120C000001
(1739018585.547) RX 54C#7766400000405800
(1739018585.547) RX 1C2#50
(1739018585.547) RX 1DA#C064180000010028
(1739018585.548) RX 54F#2B01000007C08A60
(1739018585.549) RX 1DB#FFE0BF6A00000208
(1739018585.550) RX 1DC#B40F8FFD0520C64C
(1739018585.553) RX 1D4#F7070000474600BC
(1739018585.553) RX 1F2#10640000001E010D
(1739018585.554) RX 284#00000000000068EE
(1739018585.554) RX 5A9#643BB01304300000
(1739018585.555) RX 11A#014000AAC0000003
(1739018585.557) RX 1DA#C0641800000101AD
(1739018585.557) RX 1C2#51
(1739018585.559) RX 1DB#FFE0BF6A0000038D
(1739018585.560) RX 1DC#B40F8FFD08C0CB1B
(1739018585.563) RX 1D4#F707000087460070
(1739018585.564) RX 1F2#10640000001E020E
(1739018585.564) RX 50A#8512A00D8020
(1739018585.566) RX 11A#0140005500000115
(1739018585.567) RX 1DA#C0641800000102A7
(1739018585.567) RX 1C2#52
(1739018585.569) RX 1DB#FFE0BF6A00000087
(1739018585.570) RX 1DC#B40F8FFD0CCCD8E4
(1739018585.574) RX 1D4#F7070000C74600B7
(1739018585.574) RX 1F2#10640000001E030F
(1739018585.574) RX 284#00000000000069EF
(1739018585.575) RX 11A#01400055400002D8
(1739018585.577) RX 1DA#C064180000010322
(1739018585.577) RX 1C2#53
(1739018585.579) RX 1DB#FFE0BF6A00000102
(1739018585.580) RX 1DC#B40F8FFD0130C9CE
(1739018585.580) RX 55B#C780AA00E5401263
(1739018585.580) RX 5BC#59032C26B305209A
(1739018585.584) RX 1D4#F70700000746007B
(1739018585.584) RX 1F2#10640000001E0(1739018585.566) RX 11A#0140005500000115
(1739018585.567) RX 1DA#C0641800000102A7
(1739018585.567) RX 1C2#52
(1739018585.569) RX 1DB#FFE0BF6A00000087
(1739018585.570) RX 1DC#B40F8FFD0CCCD8E4
(1739018585.574) RX 1D4#F7070000C74600B7
(1739018585.574) RX 1F2#10640000001E030F
(1739018585.574) RX 284#00000000000069EF
(1739018585.594) RX 1D4#F7070000474600BC
(1739018585.594) RX 1F2#10640000001E010D
(1739018585.594) RX 284#0000000000006AF0
(1739018585.595) RX 11A#014000AAC0000003
(1739018585.597) RX 1DA#C0641800000101AD
(1739018585.597) RX 1C2#55
(1739018585.599) RX 1DB#FFE0BF6A0000038D
(1739018585.600) RX 1DC#B40F8FFD08C0CB1B
(1739018585.604) RX 1D4#F707000087460070
(1739018585.604) RX 1F2#10640000001E020E
(1739018585.606) RX 11A#0140005500000115
(1739018585.607) RX 1DA#C0641800000102A7
(1739018585.607) RX 1C2#56
(1739018585.607) RX 55A#00302F005F315B48
(1739018585.609) RX 1DB#FFE0BF6A00000087
(1739018585.610) RX 1DC#B40F8FFD0CCCD8E4
(1739018585.614) RX 1D4#F7070000C74600B7
(1739018585.615) RX 1F2#10640000001E030F
(1739018585.615) RX 284#0000000000006BF1
(1739018585.615) RX 11A#01400055400002D8
(1739018585.617) RX 1DA#C064180000010322
(1739018585.617) RX 1C2#57
(1739018585.620) RX 1DB#FFE0BF6A00000102
(1739018585.620) RX 1DC#B40F8FFD0130C9CE
(1739018585.625) RX 1D4#F70700000746007B
(1739018585.625) RX 1F2#10640000001E000C
(1739018585.625) RX 5B9#67FF67FF28
(1739018585.626) RX 11A#014000AA800003CE
(1739018585.627) RX 1DA#C064180000010028
(1739018585.627) RX 1C2#58
(1739018585.629) RX 1DB#FFE0BF6A00000208
(1739018585.630) RX 1DC#B40F8FFD0520C64C
(1739018585.635) RX 11A#014000AAC0000003
(1739018585.635) RX 1D4#F7070000474600BC
(1739018585.635) RX 1F2#10640000001E010D
(1739018585.636) RX 284#0000000000006CF2
(1739018585.637) RX 1DA#C0641800000101AD
(1739018585.637) RX 1C2#59
(1739018585.640) RX 1DB#FFE0BF6A0000038D
(1739018585.640) RX 1DC#B40F8FFD08C0CB1B
(1739018585.644) RX 380#020410210000008D
(1739018585.645) RX 5BF#000000002800001A
(1739018585.645) RX 54A#100070072600002C
(1739018585.645) RX 1D4#F707000087460070
(1739018585.645) RX 1F2#10640000001E020E
(1739018585.646) RX 11A#0140005500000115
(1739018585.646) RX 50C#000000015D5F
(1739018585.646) RX 54B#004888120C000001
(1739018585.647) RX 54C#7766400000405800
(1739018585.647) RX 1DA#C0641800000102A7
(1739018585.647) RX 1C2#5A
(1739018585.648) RX 54F#2B01000007008A60
(1739018585.650) RX 1DB#FFE0BF6A00000087
(1739018585.650) RX 1DC#B40F8FFD0CCCD8E4
(1739018585.655) RX 11A#01400055400002D8
(1739018585.656) RX 1D4#F7070000C74600B7
(1739018585.656) RX 1F2#10640000001E030F
(1739018585.656) RX 284#0000000000006DF3
(1739018585.657) RX 1DA#C064180000010322
(1739018585.657) RX 1C2#5B
(1739018585.660) RX 1DB#FFE0BF6A00000102
(1739018585.660) RX 1DC#B40F8FFD0130C9CE
(1739018585.666) RX 11A#014000AA800003CE
(1739018585.666) RX 1D4#F70700000746007B
(1739018585.666) RX 1F2#10640000001E000C
(1739018585.666) RX 50A#8532A00D8020
(1739018585.667) RX 1DA#C064180000010028
(1739018585.667) RX 1C2#5C
(1739018585.670) RX 1DB#FFE0BF6A00000208
(1739018585.670) RX 1DC#B40F8FFD0520C64C
(1739018585.675) RX 11A#014000AAC0000003
(1739018585.676) RX 1D4#F7070000474600BC
(1739018585.676) RX 1F2#10640000001E010D
(1739018585.676) RX 284#0000000000006EF4
(1739018585.677) RX 1DA#C0641800000101AD
(1739018585.677) RX 1C2#5D
(1739018585.680) RX 1DB#FFE0BF6A0000038D
(1739018585.680) RX 1DC#B40F8FFD08C0CB1B
(1739018585.680) RX 55B#C7805500E54013A1
(1739018585.681) RX 5BC#59032C26B305209A
(1739018585.686) RX 11A#0140005500000115
(1739018585.686) RX 1D4#F707000087460070
(1739018585.686) RX 1F2#10640000001E020E
(1739018585.687) RX 50B#000006C00060
(1739018585.687) RX 1DA#C0641800000102A7
(1739018585.687) RX 1C2#5E
(1739018585.690) RX 1DB#FFE0BF6A00000087
(1739018585.690) RX 1DC#B40F8FFD0CCCD8E4
(1739018585.695) RX 11A#01400055400002D8
(1739018585.696) RX 1D4#F7070000C74600B7
(1739018585.697) RX 1F2#10640000001E030F
(1739018585.697) RX 284#0000000000006FF5
(1739018585.697) RX 1DA#C064180000010322
(1739018585.697) RX 1C2#5F
(1739018585.700) RX 1DB#FFE0BF6A00000102
(1739018585.700) RX 1DC#B40F8FFD0130C9CE
(1739018585.706) RX 11A#014000AA800003CE
(1739018585.707) RX 1D4#F70700000746007B
(1739018585.707) RX 1F2#10640000001E000C
(1739018585.707) RX 1DA#C064180000010028
(1739018585.707) RX 1C2#50
(1739018585.707) RX 55A#00302F005F315B48
(1739018585.710) RX 1DB#FFE0BF6A00000208
(1739018585.710) RX 1DC#B40F8FFD0520C64C
(1739018585.715) RX 11A#014000AAC0000003
(1739018585.717) RX 1D4#F7070000474600BC
(1739018585.717) RX 1DA#C0641800000101AD
(1739018585.717) RX 1F2#10640000001E010D
(1739018585.718) RX 1C2#51
(1739018585.718) RX 284#00000000000070F6
(1739018585.720) RX 1DB#FFE0BF6A0000038D
(1739018585.720) RX 1DC#B40F8FFD08C0CB1B
(1739018585.726) RX 11A#0140005500000115
(1739018585.727) RX 1DA#C0641800000102A7
(1739018585.727) RX 1D4#F707000087460070
(1739018585.727) RX 1F2#10640000001E020E
(1739018585.728) RX 1C2#52
(1739018585.730) RX 1DB#FFE0BF6A00000087
(1739018585.730) RX 1DC#B40F8FFD0CCCD8E4
(1739018585.735) RX 11A#01400055400002D8
(1739018585.737) RX 1DA#C064180000010322
(1739018585.737) RX 1D4#F7070000C74600B7
(1739018585.738) RX 1C2#53
(1739018585.738) RX 1F2#10640000001E030F
(1739018585.738) RX 284#00000000000071F7
(1739018585.740) RX 1DB#FFE0BF6A00000102
(1739018585.740) RX 1DC#B40F8FFD0130C9CE
(1739018585.744) RX 380#020410210000009E
(1739018585.745) RX 5BF#000000002800002B
(1739018585.745) RX 54A#9E0070072600002C
(1739018585.746) RX 11A#014000AA800003CE
(1739018585.746) RX 54B#004888120C000001
(1739018585.747) RX 1DA#C064180000010028
(1739018585.747) RX 54C#7766400000405800
(1739018585.748) RX 1C2#54
(1739018585.748) RX 1D4#F70700000746007B
(1739018585.748) RX 1F2#10640000001E000C
(1739018585.748) RX 50C#00000002B20D
(1739018585.748) RX 54F#2B01000007408A60
(1739018585.750) RX 1DB#FFE0BF6A00000208
(1739018585.750) RX 1DC#B40F8FFD0520C64C
(1739018585.755) RX 11A#014000AAC0000003
(1739018585.757) RX 1DA#C0641800000101AD
(1739018585.758) RX 1C2#55
(1739018585.758) RX 1D4#F7070000474600BC
(1739018585.758) RX 1F2#10640000001E010D
(1739018585.758) RX 284#00000000000072F8
(1739018585.760) RX 1DB#FFE0BF6A0000038D
(1739018585.760) RX 1DC#B40F8FFD08C0CB1B
(1739018585.766) RX 11A#0140005500000115
(1739018585.767) RX 1DA#C0641800000102A7
(1739018585.768) RX 1C2#56
(1739018585.768) RX 1D4#F707000087460070
(1739018585.768) RX 1F2#10640000001E020E
(1739018585.769) RX 50A#8552A00D8020
(1739018585.770) RX 1DB#FFE0BF6A00000087
(1739018585.770) RX 1DC#B40F8FFD0CCCD8E4
(1739018585.775) RX 11A#01400055400002D8
(1739018585.777) RX 1DA#C064180000010322
(1739018585.778) RX 1C2#57
(1739018585.778) RX 1D4#F7070000C74600B7
(1739018585.779) RX 1F2#10640000001E030F
(1739018585.779) RX 284#00000000000073F9
(1739018585.780) RX 1DB#FFE0BF6A00000102
(1739018585.780) RX 1DC#B40F8FFD0130C9CE
(1739018585.781) RX 55B#C780AA00E54010EC
(1739018585.781) RX 5BC#59032C26B305209A
(1739018585.786) RX 11A#014000AA800003CE
(1739018585.787) RX 1DA#C064180000010028
(1739018585.788) RX 1C2#58
(1739018585.789) RX 1D4#F70700000746007B
(1739018585.789) RX 1F2#10640000001E000C
(1739018585.789) RX 50B#000006C00060
(1739018585.790) RX 1DB#FFE0BF6A00000208
(1739018585.790) RX 1DC#B40F8FFD0520C64C
(1739018585.795) RX 11A#014000AAC0000003
(1739018585.797) RX 1DA#C0641800000101AD
(1739018585.798) RX 1C2#59
(1739018585.799) RX 1D4#F7070000474600BC
(1739018585.799) RX 1F2#10640000001E010D
(1739018585.799) RX 284#00000000000074FA
(1739018585.800) RX 1DB#FFE0BF6A0000038D
(1739018585.800) RX 1DC#B40F8FFD08C0CB1B
(1739018585.806) RX 11A#0140005500000115
(1739018585.807) RX 1DA#C0641800000102A7
(1739018585.807) RX 55A#00302F005F315B48
(1739018585.807) RX 1C2#5A
(1739018585.809) RX 1D4#F707000087460070
(1739018585.809) RX 1F2#10640000001E020E
(1739018585.810) RX 1DB#FFE0BF6A00000087
(1739018585.810) RX 1DC#B40F8FFD0CCCD8E4
(1739018585.815) RX 11A#01400055400002D8
(1739018585.817) RX 1DA#C064180000010322
(1739018585.818) RX 1C2#5B
(1739018585.819) RX 1D4#F7070000C74600B7
(1739018585.820) RX 1F2#10640000001E030F
(1739018585.820) RX 284#00000000000075FB
(1739018585.820) RX 1DB#FFE0BF6A00000102
(1739018585.821) RX 1DC#B40F8FFD0130C9CE
(1739018585.826) RX 11A#014000AA800003CE
(1739018585.827) RX 1DA#C064180000010028
(1739018585.828) RX 1C2#5C
(1739018585.830) RX 1D4#F70700000746007B
(1739018585.830) RX 1F2#10640000001E000C
(1739018585.830) RX 1DB#FFC0BF6A00000259
(1739018585.831) RX 1DC#B40F8FFD0520C64C
(1739018585.835) RX 11A#014000AAC0000003
(1739018585.837) RX 1DA#C0641800000101AD
(1739018585.838) RX 1C2#5D
(1739018585.840) RX 1D4#F7070000474600BC
(1739018585.840) RX 1DB#FFC0BF6A000003DC
(1739018585.840) RX 1F2#10640000001E010D
(1739018585.841) RX 1DC#B40F8FFD08C0CB1B
(1739018585.841) RX 284#00000000000076FC
(1739018585.845) RX 380#02041021000000AF
(1739018585.845) RX 5BF#000000002800003C
(1739018585.845) RX 54A#100070072600002C
(1739018585.846) RX 11A#0140005500000115
(1739018585.846) RX 54B#004888120C000001
(1739018585.847) RX 1DA#C0641800000102A7
(1739018585.847) RX 54C#7766400000405800
(1739018585.848) RX 1C2#5E
(1739018585.848) RX 54F#2B01000007808A60
(1739018585.850) RX 1DB#FFC0BF6A000000D6
(1739018585.850) RX 1D4#F707000087460070
(1739018585.851) RX 1DC#B40F8FFD0CCCD8E4
(1739018585.851) RX 1F2#10640000001E020E
(1739018585.851) RX 50C#000000035DF4
(1739018585.855) RX 11A#01400055400002D8
(1739018585.857) RX 1DA#C064180000010322
(1739018585.858) RX 1C2#5F
(1739018585.860) RX 1DB#FFC0BF6A00000153
(1739018585.860) RX 1D4#F7070000C74600B7
(1739018585.861) RX 1DC#B40F8FFD0130C9CE
(1739018585.861) RX 1F2#10640000001E030F
(1739018585.861) RX 284#00000000000077FD
(1739018585.866) RX 11A#014000AA800003CE
(1739018585.867) RX 1DA#C064180000010028
(1739018585.868) RX 1C2#50
(1739018585.870) RX 1DB#FFC0BF6A00000259
(1739018585.870) RX 1DC#B40F8FFD0520C64C
(1739018585.871) RX 1D4#F70700000746007B
(1739018585.871) RX 1F2#10640000001E000C
(1739018585.871) RX 50A#8572A00D8020
(1739018585.875) RX 11A#014000AAC0000003
(1739018585.877) RX 1DA#C0641800000101AD
(1739018585.878) RX 1C2#51
(1739018585.880) RX 1DB#FFC0BF6A000003DC
(1739018585.881) RX 1DC#B40F8FFD08C0CB1B
(1739018585.881) RX 1D4#F7070000474600BC
(1739018585.881) RX 1F2#10640000001E010D
(1739018585.881) RX 284#00000000000078FE
(1739018585.882) RX 55B#C7805500E540112E
(1739018585.882) RX 5BC#59032026B205407A
(1739018585.886) RX 11A#0140005500000115
(1739018585.887) RX 1DA#C0641800000102A7
(1739018585.888) RX 1C2#52
(1739018585.890) RX 1DB#FFC0BF6A000000D6
(1739018585.891) RX 1DC#B40F8FFD0CCCD8E4
(1739018585.891) RX 5C0#804C4C0004A01100
(1739018585.891) RX 1D4#F707000087460070
(1739018585.892) RX 1F2#10640000001E020E
(1739018585.892) RX 50B#000006C00060
(1739018585.892) RX 5EB#E00FFFFFFFFFFFFF
(1739018585.895) RX 11A#01400055400002D8
(1739018585.897) RX 1DA#C064180000010322
(1739018585.898) RX 1C2#53
(1739018585.900) RX 1DB#FFC0BF6A00000153
(1739018585.901) RX 1DC#B40F8FFD0130C9CE
(1739018585.901) RX 1D4#F7070000C74600B7
(1739018585.902) RX 1F2#10640000001E030F
(1739018585.902) RX 284#00000000000079FF
(1739018585.906) RX 11A#014000AA800003CE
(1739018585.907) RX 1DA#C064180000010028
(1739018585.907) RX 55A#00302F005F315B48
(1739018585.908) RX 1C2#54
(1739018585.910) RX 1DB#FFE0BF6A00000208
(1739018585.911) RX 1DC#B40F8FFD0520C64C
(1739018585.912) RX 1D4#F70700000746007B
(1739018585.912) RX 1F2#10640000001E000C
(1739018585.915) RX 11A#014000AAC0000003
(1739018585.917) RX 1DA#C0641800000101AD
(1739018585.918) RX 1C2#55
(1739018585.920) RX 1DB#FFE0BF6A0000038D
(1739018585.921) RX 1DC#B40F8FFD08C0CB1B
(1739018585.922) RX 1D4#F7070000474600BC
(1739018585.922) RX 1F2#10640000001E010D
(1739018585.922) RX 284#0000000000007A00
(1739018585.926) RX 11A#0140005500000115
(1739018585.927) RX 1DA#C0641800000102A7
(1739018585.928) RX 1C2#56
(1739018585.930) RX 1DB#FFE0BF6A00000087
(1739018585.931) RX 1DC#B40F8FFD0CCCD8E4
(1739018585.932) RX 1D4#F707000087460070
(1739018585.932) RX 1F2#10640000001E020E
(1739018585.935) RX 11A#01400055400002D8
(1739018585.937) RX 1DA#C064180000010322
(1739018585.938) RX 1C2#57
(1739018585.940) RX 1DB#FFE0BF6A00000102
(1739018585.941) RX 1DC#B40F8FFD0130C9CE
(1739018585.942) RX 1D4#F7070000C74600B7
(1739018585.943) RX 1F2#10640000001E030F
(1739018585.943) RX 284#0000000000007B01
(1739018585.945) RX 380#02041021000000B0
(1739018585.945) RX 5BF#0000000028000009
(1739018585.945) RX 54A#9E0070072600002C
(1739018585.946) RX 11A#014000AA800003CE
(1739018585.946) RX 54B#004888120C000001
(1739018585.947) RX 1DA#C064180000010028
(1739018585.947) RX 54C#7766400000405800
(1739018585.948) RX 1C2#58
(1739018585.948) RX 54F#2B01000007C08A60
(1739018585.950) RX 1DB#FFE0BF6A00000208
(1739018585.951) RX 1DC#B40F8FFD0520C64C
(1739018585.953) RX 1D4#F70700000746007B
(1739018585.953) RX 1F2#10640000001E000C
(1739018585.953) RX 50C#00000000B2A6
(1739018585.955) RX 11A#014000AAC0000003
(1739018585.957) RX 1DA#C0641800000101AD
(1739018585.958) RX 1C2#59
(1739018585.960) RX 1DB#FFE0BF6A0000038D
(1739018585.961) RX 1DC#B40F8FFD08C0CB1B
(1739018585.963) RX 1D4#F7070000474600BC
(1739018585.963) RX 1F2#10640000001E010D
(1739018585.963) RX 284#0000000000007C02
(1739018585.966) RX 11A#0140005500000115
(1739018585.967) RX 1DA#C0641800000102A7
(1739018585.968) RX 1C2#5A
(1739018585.970) RX 1DB#FFE0BF6A00000087
(1739018585.971) RX 1DC#B40F8FFD0CCCD8E4
(1739018585.973) RX 1D4#F707000087460070
(1739018585.973) RX 1F2#10640000001E020E
(1739018585.974) RX 284#0000000000007D03
(1739018585.974) RX 50A#8512A00D8020
(1739018585.975) RX 11A#01400055400002D8
(1739018585.977) RX 1DA#C064180000010322
(1739018585.978) RX 1C2#5B
(1739018585.981) RX 1DB#FFE0BF6A00000102
(1739018585.981) RX 1DC#B40F8FFD0130C9CE
(1739018585.981) RX 55B#C780AA00E5401263
(1739018585.982) RX 5BC#59032026B205407A
(1739018585.983) RX 1D4#F7070000C74600B7
(1739018585.984) RX 1F2#10640000001E030F
(1739018585.986) RX 11A#014000AA800003CE
(1739018585.987) RX 1DA#C064180000010028
(1739018585.988) RX 1C2#5C
(1739018585.990) RX 1DB#FFE0BF6A00000208
(1739018585.991) RX 1DC#B40F8FFD0520C64C
(1739018585.994) RX 1D4#F70700000746007B
(1739018585.994) RX 1F2#10640000001E000C
(1739018585.994) RX 284#0000000000007E04
(1739018585.994) RX 50B#000006C00060
(1739018585.995) RX 11A#014000AAC0000003
(1739018585.997) RX 1DA#C0641800000101AD
(1739018585.998) RX 1C2#5D
(1739018586.001) RX 1DB#FFE0BF6A0000038D
(1739018586.001) RX 1DC#B40F8FFD08C0CB1B
(1739018586.004) RX 1D4#F7070000474600BC
(1739018586.004) RX 1F2#10640000001E010D
(1739018586.006) RX 11A#0140005500000115
(1739018586.007) RX 1DA#C0641800000102A7
(1739018586.007) RX 55A#00302F005F315B48
(1739018586.008) RX 1C2#5E
(1739018586.011) RX 1DB#FFE0BF6A00000087
(1739018586.011) RX 1DC#B40F8FFD0CCCD8E4
(1739018586.014) RX 1D4#F707000087460070
(1739018586.014) RX 1F2#10640000001E020E
(1739018586.014) RX 284#0000000000007F05
(1739018586.015) RX 11A#01400055400002D8
(1739018586.017) RX 1DA#C064180000010322
(1739018586.018) RX 1C2#5F
(1739018586.021) RX 1DB#FFE0BF6A00000102
(1739018586.021) RX 1DC#B40F8FFD0130C9CE
(1739018586.024) RX 1D4#F7070000C74600B7
(1739018586.024) RX 1F2#10640000001E030F
(1739018586.026) RX 11A#014000AA800003CE
(1739018586.027) RX 1DA#C064180000010028
(1739018586.028) RX 1C2#50
(1739018586.031) RX 1DB#FFE0BF6A00000208
(1739018586.031) RX 1DC#B40F8FFD0520C64C
(1739018586.034) RX 1D4#F70700000746007B
(1739018586.035) RX 1F2#10640000001E000C
(1739018586.035) RX 11A#014000AAC0000003
(1739018586.035) RX 284#0000000000008006
(1739018586.037) RX 1DA#C0641800000101AD
(1739018586.038) RX 1C2#51
(1739018586.041) RX 1DB#FFE0BF6A0000038D
(1739018586.041) RX 1DC#B40F8FFD08C0CB1B
(1739018586.045) RX 1D4#F7070000474600BC
(1739018586.045) RX 1F2#10640000001E010D
(1739018586.045) RX 380#020410210000008D
(1739018586.045) RX 54A#100070072600002C
(1739018586.046) RX 11A#0140005500000115
(1739018586.046) RX 5BF#000000002800001A
(1739018586.046) RX 54B#004888120C000001
(1739018586.047) RX 1DA#C0641800000102A7
(1739018586.047) RX 54C#7766400000405800
(1739018586.048) RX 1C2#52
(1739018586.048) RX 54F#2B01000007008A60
(1739018586.051) RX 1DB#FFE0BF6A00000087
(1739018586.051) RX 1DC#B40F8FFD0CCCD8E4
(1739018586.055) RX 1D4#F707000087460070
(1739018586.055) RX 1F2#10640000001E020E
(1739018586.056) RX 11A#01400055400002D8
(1739018586.056) RX 284#0000000000008107
(1739018586.056) RX 50C#000000015D5F
(1739018586.057) RX 1DA#C064180000010322
(1739018586.058) RX 1C2#53
(1739018586.061) RX 1DB#FFE0BF6A00000102
(1739018586.061) RX 1DC#B40F8FFD0130C9CE
(1739018586.065) RX 1D4#F7070000C74600B7
(1739018586.065) RX 1F2#10640000001E030F
(1739018586.066) RX 11A#014000AA800003CE
(1739018586.066) RX 5A9#643BB01304300000
(1739018586.067) RX 1DA#C064180000010028
(1739018586.069) RX 1C2#54
(1739018586.071) RX 1DB#FFE0BF6A00000208
(1739018586.071) RX 1DC#B40F8FFD0520C64C
(1739018586.075) RX 11A#014000AAC0000003
(1739018586.075) RX 1D4#F70700000746007B
(1739018586.076) RX 1F2#10640000001E000C
(1739018586.076) RX 284#0000000000008208
(1739018586.076) RX 50A#8532A00D8020
(1739018586.077) RX 1DA#C0641800000101AD
(1739018586.078) RX 1C2#55
(1739018586.081) RX 1DB#FFE0BF6A0000038D
(1739018586.081) RX 1DC#B40F8FFD08C0CB1B
(1739018586.081) RX 55B#C7805500E54013A1
(1739018586.082) RX 5BC#59032026B205407A
(1739018586.086) RX 11A#0140005500000115
(1739018586.086) RX 1D4#F7070000474600BC
(1739018586.086) RX 1F2#10640000001E010D
(1739018586.087) RX 1DA#C0641800000102A7
(1739018586.088) RX 1C2#56
(1739018586.091) RX 1DB#FFE0BF6A00000087
(1739018586.091) RX 1DC#B40F8FFD0CCCD8E4
(1739018586.095) RX 11A#01400055400002D8
(1739018586.096) RX 1D4#F707000087460070
(1739018586.096) RX 1F2#10640000001E020E
(1739018586.096) RX 284#0000000000008309
(1739018586.097) RX 50B#000006C00060
(1739018586.097) RX 1DA#C064180000010322
(1739018586.098) RX 1C2#57
(1739018586.101) RX 1DB#FFE0BF6A00000102
(1739018586.101) RX 1DC#B40F8FFD0130C9CE
(1739018586.106) RX 11A#014000AA800003CE
(1739018586.106) RX 1D4#F7070000C74600B7
(1739018586.106) RX 1F2#10640000001E030F
(1739018586.107) RX 1DA#C064180000010028
(1739018586.107) RX 55A#00302F005F315B48
(1739018586.108) RX 1C2#58
(1739018586.111) RX 1DB#FFE0BF6A00000208
(1739018586.111) RX 1DC#B40F8FFD0520C64C
(1739018586.115) RX 11A#014000AAC0000003
(1739018586.116) RX 1D4#F70700000746007B
(1739018586.117) RX 1F2#10640000001E000C
(1739018586.117) RX 1DA#C0641800000101AD
(1739018586.117) RX 284#000000000000840A
(1739018586.118) RX 1C2#59
(1739018586.121) RX 1DB#FFE0BF6A0000038D
(1739018586.121) RX 1DC#B40F8FFD08C0CB1B
(1739018586.126) RX 11A#0140005500000115
(1739018586.127) RX 1D4#F7070000474600BC
(1739018586.127) RX 1F2#10640000001E010D
(1739018586.127) RX 1DA#C0641800000102A7
(1739018586.128) RX 1C2#5A
(1739018586.131) RX 1DB#FFE0BF6A00000087
(1739018586.131) RX 1DC#B40F8FFD0CCCD8E4
(1739018586.135) RX 11A#01400055400002D8
(1739018586.137) RX 1DA#C064180000010322
(1739018586.137) RX 1D4#F707000087460070
(1739018586.137) RX 1F2#10640000001E020E
(1739018586.138) RX 284#000000000000850B
(1739018586.138) RX 5B9#67FF67FF28
(1739018586.138) RX 1C2#5B
(1739018586.141) RX 1DB#FFE0BF6A00000102
(1739018586.141) RX 1DC#B40F8FFD0130C9CE
(1739018586.145) RX 380#020410210000009E
(1739018586.145) RX 5BF#000000002800002B
(1739018586.145) RX 54A#9E0070072600002C
(1739018586.146) RX 11A#014000AA800003CE
(1739018586.146) RX 54B#004888120C000001
(1739018586.147) RX 1DA#C064180000010028
(1739018586.147) RX 1D4#F7070000C74600B7
(1739018586.147) RX 1F2#10640000001E030F
(1739018586.148) RX 54C#7766400000405800
(1739018586.148) RX 54F#2B01000007408A60
(1739018586.149) RX 1C2#5C
(1739018586.151) RX 1DB#FFE0BF6A00000208
(1739018586.151) RX 1DC#B40F8FFD0520C64C
(1739018586.155) RX 11A#014000AAC0000003
(1739018586.157) RX 1DA#C0641800000101AD
(1739018586.157) RX 1D4#F70700000746007B
(1739018586.158) RX 1F2#10640000001E000C
(1739018586.158) RX 284#000000000000860C
(1739018586.158) RX 50C#00000002B20D
(1739018586.158) RX 1C2#5D
(1739018586.161) RX 1DB#FFE0BF6A0000038D
(1739018586.161) RX 1DC#B40F8FFD08C0CB1B
(1739018586.166) RX 11A#0140005500000115
(1739018586.167) RX 1DA#C0641800000102A7
(1739018586.168) RX 1D4#F7070000474600BC
(1739018586.168) RX 1F2#10640000001E010D
(1739018586.169) RX 1C2#5E
(1739018586.171) RX 1DB#FFE0BF6A00000087
(1739018586.171) RX 1DC#B40F8FFD0CCCD8E4
(1739018586.175) RX 11A#01400055400002D8
(1739018586.177) RX 1DA#C064180000010322
(1739018586.178) RX 1D4#F707000087460070
(1739018586.178) RX 1F2#10640000001E020E
(1739018586.178) RX 284#000000000000870D
(1739018586.179) RX 1C2#5F
(1739018586.179) RX 50A#8552A00D8020
(1739018586.181) RX 1DB#FFE0BF6A00000102
(1739018586.182) RX 1DC#B40F8FFD0130C9CE
(1739018586.182) RX 55B#C780AA00E54010EC
(1739018586.182) RX 5BC#59032026B205407A
(1739018586.186) RX 11A#014000AA800003CE
(1739018586.187) RX 1DA#C064180000010028
(1739018586.188) RX 1D4#F7070000C74600B7
(1739018586.188) RX 1F2#10640000001E030F
(1739018586.189) RX 1C2#50
(1739018586.191) RX 1DB#FFE0BF6A00000208
(1739018586.191) RX 1DC#B40F8FFD0520C64C
(1739018586.195) RX 11A#014000AAC0000003
(1739018586.197) RX 1DA#C0641800000101AD
(1739018586.198) RX 1D4#F70700000746007B
(1739018586.199) RX 1C2#51
(1739018586.199) RX 1F2#10640000001E000C
(1739018586.199) RX 284#000000000000880E
(1739018586.199) RX 50B#000006C00060
(1739018586.201) RX 1DB#FFE0BF6A0000038D
(1739018586.201) RX 1DC#B40F8FFD08C0CB1B
(1739018586.206) RX 11A#0140005500000115
(1739018586.207) RX 1DA#C0641800000102A7
(1739018586.207) RX 55A#00302F005F315B48
(1739018586.208) RX 1C2#52
(1739018586.209) RX 1D4#F7070000474600BC
(1739018586.209) RX 1F2#10640000001E010D
(1739018586.211) RX 1DB#FFE0BF6A00000087
(1739018586.211) RX 1DC#B40F8FFD0CCCD8E4
(1739018586.215) RX 11A#01400055400002D8
(1739018586.217) RX 1DA#C064180000010322
(1739018586.218) RX 1C2#53
(1739018586.219) RX 1D4#F707000087460070
(1739018586.219) RX 1F2#10640000001E020E
(1739018586.219) RX 284#000000000000890F
(1739018586.221) RX 1DB#FFE0BF6A00000102
(1739018586.222) RX 1DC#B40F8FFD0130C9CE
(1739018586.226) RX 11A#014000AA800003CE
(1739018586.227) RX 1DA#C064180000010028
(1739018586.228) RX 1C2#54
(1739018586.229) RX 1D4#F7070000C74600B7
(1739018586.229) RX 1F2#10640000001E030F
(1739018586.231) RX 1DB#FFE0BF6A00000208
(1739018586.231) RX 1DC#B40F8FFD0520C64C
(1739018586.235) RX 11A#014000AAC0000003
(1739018586.237) RX 1DA#C0641800000101AD
(1739018586.238) RX 1C2#55
(1739018586.239) RX 1D4#F70700000746007B
(1739018586.240) RX 1F2#10640000001E000C
(1739018586.240) RX 284#0000000000008A10
(1739018586.241) RX 1DB#FFE0BF6A0000038D
(1739018586.242) RX 1DC#B40F8FFD08C0CB1B
(1739018586.245) RX 380#02041021000000AF
(1739018586.245) RX 5BF#000000002800003C
(1739018586.245) RX 54A#100070072600002C
(1739018586.246) RX 11A#0140005500000115
(1739018586.246) RX 54B#004888120C000001
(1739018586.247) RX 1DA#C0641800000102A7
(1739018586.247) RX 54C#7766400000405800
(1739018586.248) RX 54F#2B01000007808A60
(1739018586.249) RX 1C2#56
(1739018586.250) RX 1D4#F7070000474600BC
(1739018586.250) RX 1F2#10640000001E010D
(1739018586.251) RX 1DB#FFE0BF6A00000087
(1739018586.252) RX 1DC#B40F8FFD0CCCD8E4
(1739018586.255) RX 11A#01400055400002D8
(1739018586.257) RX 1DA#C064180000010322
(1739018586.259) RX 1C2#57
(1739018586.260) RX 1D4#F707000087460070
(1739018586.260) RX 1F2#10640000001E020E
(1739018586.260) RX 284#0000000000008B11
(1739018586.261) RX 50C#000000035DF4
(1739018586.261) RX 1DB#FFC0BF6A00000153
(1739018586.262) RX 1DC#B40F8FFD0130C9CE
(1739018586.266) RX 11A#014000AA800003CE
(1739018586.267) RX 1DA#C064180000010028
(1739018586.269) RX 1C2#58
(1739018586.270) RX 1D4#F7070000C74600B7
(1739018586.270) RX 1F2#10640000001E030F
(1739018586.271) RX 1DB#FFA0BF6A000002AA
(1739018586.272) RX 1DC#B40F8FFD0520C64C
(1739018586.275) RX 11A#014000AAC0000003
(1739018586.277) RX 1DA#C0641800000101AD
(1739018586.279) RX 1C2#59
(1739018586.280) RX 1D4#F70700000746007B
(1739018586.281) RX 1F2#10640000001E000C
(1739018586.281) RX 284#0000000000008C12
(1739018586.281) RX 50A#8572A00D8020
(1739018586.282) RX 1DB#FF80BF6A0000037E
(1739018586.282) RX 1DC#B40F8FFD08C0CB1B
(1739018586.282) RX 55B#C7805500E540112E
(1739018586.283) RX 5BC#59032026B205407A
(1739018586.285) RX 11A#0140005500000115
(1739018586.287) RX 1DA#C0641800000102A7
(1739018586.289) RX 1C2#5A
(1739018586.291) RX 1D4#F7070000474600BC
(1739018586.291) RX 1F2#10640000001E010D
(1739018586.291) RX 1DB#FF60BF6A00000046
(1739018586.292) RX 1DC#B40F8FFD0CCCD8E4
(1739018586.295) RX 11A#01400055400002D8
(1739018586.297) RX 1DA#C064180000010322
(1739018586.299) RX 1C2#5B
(1739018586.301) RX 1D4#F707000087460070
(1739018586.301) RX 1F2#10640000001E020E
(1739018586.301) RX 284#0000000000008D13
(1739018586.302) RX 1DB#FF60BF6A000001C3
(1739018586.302) RX 50B#000006C00060
(1739018586.302) RX 1DC#B40F8FFD0130C9CE
(1739018586.305) RX 11A#014000AA800003CE
(1739018586.307) RX 1DA#C064180000010028
(1739018586.307) RX 55A#00302F005F315B48
(1739018586.309) RX 1C2#5C
(1739018586.311) RX 1D4#F7070000C74600B7
(1739018586.311) RX 1F2#10640000001E030F
(1739018586.312) RX 1DB#FF60BF6A000002C9
(1739018586.312) RX 1DC#B40F8FFD0520C64C
(1739018586.315) RX 11A#014000AAC0000003
(1739018586.317) RX 1DA#C0641800000101AD
(1739018586.319) RX 1C2#5D
(1739018586.321) RX 1D4#F70700000746007B
(1739018586.322) RX 1DB#FF60BF6A0000034C
(1739018586.322) RX 1F2#10640000001E000C
(1739018586.322) RX 1DC#B40F8FFD08C0CB1B
(1739018586.322) RX 284#0000000000008E14
(1739018586.325) RX 11A#0140005500000115
(1739018586.327) RX 1DA#C0641800000102A7
(1739018586.329) RX 1C2#5E
(1739018586.331) RX 1DB#FF60BF6A00000046
(1739018586.332) RX 1D4#F7070000474600BC
(1739018586.332) RX 1DC#B40F8FFD0CCCD8E4
(1739018586.332) RX 1F2#10640000001E010D
(1739018586.335) RX 11A#01400055400002D8
(1739018586.337) RX 1DA#C064180000010322
(1739018586.339) RX 1C2#5F
(1739018586.341) RX 1DB#FF60BF6A000001C3
(1739018586.342) RX 1D4#F707000087460070
(1739018586.342) RX 1DC#B40F8FFD0130C9CE
(1739018586.342) RX 1F2#10640000001E020E
(1739018586.342) RX 284#0000000000008F15
(1739018586.345) RX 380#02041021000000B0
(1739018586.345) RX 5BF#0000000028000009
(1739018586.346) RX 11A#014000AA800003CE
(1739018586.346) RX 54A#9E0070072600002C
(1739018586.346) RX 54B#004888120C000001
(1739018586.347) RX 1DA#C064180000010028
(1739018586.347) RX 54C#7766400000405800
(1739018586.348) RX 54F#2B01000007C08A60
(1739018586.349) RX 1C2#50
(1739018586.351) RX 1DB#FF60BF6A000002C9
(1739018586.352) RX 1DC#B40F8FFD0520C64C
(1739018586.352) RX 1D4#F7070000C74600B7
(1739018586.352) RX 1F2#10640000001E030F
(1739018586.355) RX 11A#014000AAC0000003
(1739018586.357) RX 1DA#C0641800000101AD
(1739018586.359) RX 1C2#51
(1739018586.362) RX 1DB#FF80BF6A0000037E
(1739018586.362) RX 1DC#B40F8FFD08C0CB1B
(1739018586.362) RX 1D4#F70700000746007B
(1739018586.363) RX 1F2#10640000001E000C
(1739018586.363) RX 284#0000000000009016
(1739018586.363) RX 50C#00000000B2A6
(1739018586.365) RX 11A#0140005500000115
(1739018586.367) RX 1DA#C0641800000102A7
(1739018586.369) RX 1C2#52
(1739018586.372) RX 1DB#FFA0BF6A00000025
(1739018586.372) RX 1DC#B40F8FFD0CCCD8E4
(1739018586.372) RX 1D4#F7070000474600BC
(1739018586.373) RX 1F2#10640000001E010D
(1739018586.375) RX 11A#01400055400002D8
(1739018586.377) RX 1DA#C064180000010322
(1739018586.379) RX 1C2#53
(1739018586.382) RX 1DB#FFC0BF6A00000153
(1739018586.382) RX 1DC#B40F8FFD0130C9CE
(1739018586.382) RX 55B#C780AA00E5401263
(1739018586.383) RX 5BC#59032C26B30620A8
(1739018586.383) RX 1D4#F707000087460070
(1739018586.383) RX 1F2#10640000001E020E
(1739018586.383) RX 284#0000000000009117
(1739018586.384) RX 50A#8512A00D8020
(1739018586.385) RX 11A#014000AA800003CE
(1739018586.387) RX 1DA#C064180000010028
(1739018586.389) RX 1C2#54
(1739018586.392) RX 1DB#FFC0BF6A00000259
(1739018586.392) RX 1DC#B40F8FFD0520C64C
(1739018586.392) RX 5C0#404C4C0004E41100
(1739018586.393) RX 5EB#E00FFFFFFFFFFFFF
(1739018586.393) RX 1D4#F7070000C74600B7
(1739018586.393) RX 1F2#10640000001E030F
(1739018586.394) RX 284#0000000000009218
(1739018586.395) RX 11A#014000AAC0000003
(1739018586.397) RX 1DA#C0641800000101AD
(1739018586.399) RX 1C2#55
(1739018586.402) RX 1DB#FFE0BF6A0000038D
(1739018586.402) RX 1DC#B40F8FFD08C0CB1B
(1739018586.403) RX 1D4#F70700000746007B
(1739018586.403) RX 1F2#10640000001E000C
(1739018586.404) RX 50B#000006C00060
(1739018586.405) RX 11A#0140005500000115
(1739018586.407) RX 1DA#C0641800000102A7
(1739018586.407) RX 55A#00302F005F315B48
(1739018586.409) RX 1C2#56
(1739018586.412) RX 1DB#FFE0BF6A00000087
(1739018586.412) RX 1DC#B40F8FFD0CCCD8E4
(1739018586.413) RX 1D4#F7070000474600BC
(1739018586.414) RX 1F2#10640000001E010D
(1739018586.414) RX 284#0000000000009319
(1739018586.415) RX 11A#01400055400002D8
(1739018586.417) RX 1DA#C064180000010322
(1739018586.419) RX 1C2#57
(1739018586.422) RX 1DB#FFE0BF6A00000102
(1739018586.422) RX 1DC#B40F8FFD0130C9CE
(1739018586.424) RX 1D4#F707000087460070
(1739018586.424) RX 1F2#10640000001E020E
(1739018586.425) RX 11A#014000AA800003CE
(1739018586.427) RX 1DA#C064180000010028
(1739018586.429) RX 1C2#58
(1739018586.432) RX 1DB#FFE0BF6A00000208
(1739018586.432) RX 1DC#B40F8FFD0520C64C
(1739018586.434) RX 1D4#F7070000C74600B7
(1739018586.434) RX 1F2#10640000001E030F
(1739018586.434) RX 284#000000000000941A
(1739018586.435) RX 11A#014000AAC0000003
(1739018586.437) RX 1DA#C0641800000101AD
(1739018586.439) RX 1C2#59
(1739018586.442) RX 1DB#FFE0BF6A0000038D
(1739018586.442) RX 1DC#B40F8FFD08C0CB1B
(1739018586.444) RX 1D4#F70700000746007B
(1739018586.444) RX 1F2#10640000001E000C
(1739018586.445) RX 380#020410210000008D
(1739018586.445) RX 5BF#000000002800001A
(1739018586.446) RX 11A#0140005500000115
(1739018586.446) RX 54A#100070072600002C
(1739018586.447) RX 54B#004888120C000001
(1739018586.447) RX 1DA#C0641800000102A7
(1739018586.448) RX 54C#7766400000405800
(1739018586.449) RX 54F#2B01000007008A5F
(1739018586.449) RX 1C2#5A
(1739018586.452) RX 1DB#FFE0BF6A00000087
(1739018586.452) RX 1DC#B40F8FFD0CCCD8E4
(1739018586.455) RX 1D4#F7070000474600BC
(1739018586.455) RX 1F2#10640000001E010D
(1739018586.455) RX 284#000000000000951B
(1739018586.455) RX 11A#01400055400002D8
(1739018586.457) RX 1DA#C064180000010322
(1739018586.459) RX 1C2#5B
(1739018586.462) RX 1DB#FFE0BF6A00000102
(1739018586.462) RX 1DC#B40F8FFD0130C9CE
(1739018586.465) RX 1D4#F707000087460070
(1739018586.465) RX 1F2#10640000001E020E
(1739018586.465) RX 50C#000000015D5F
(1739018586.465) RX 11A#014000AA800003CE
(1739018586.467) RX 1DA#C064180000010028
(1739018586.469) RX 1C2#5C
(1739018586.472) RX 1DB#FFE0BF6A00000208
(1739018586.472) RX 1DC#B40F8FFD0520C64C
(1739018586.475) RX 11A#014000AAC0000003
(1739018586.475) RX 1D4#F7070000C74600B7
(1739018586.475) RX 1F2#10640000001E030F
(1739018586.475) RX 284#000000000000961C
(1739018586.477) RX 1DA#C0641800000101AD
(1739018586.479) RX 1C2#5D
(1739018586.462) RX 1DB#FFE0BF6A00000102
(1739018586.462) RX 1DC#B40F8FFD0130C9CE
(1739018586.465) RX 1D4#F707000087460070
(1739018586.465) RX 1F2#10640000001E020E
(1739018586.465) RX 50C#000000015D5F
(1739018586.465) RX 11A#014000AA800003CE
(1739018586.467) RX 1DA#C064180000010028
(1739018586.469) RX 1C2#5C
(1739018586.489) RX 1C2#5E
(1739018586.492) RX 1DB#FFE0BF6A00000087
(1739018586.492) RX 1DC#B40F8FFD0CCCD8E4
(1739018586.495) RX 11A#01400055400002D8
(1739018586.495) RX 1D4#F7070000474600BC
(1739018586.496) RX 1F2#10640000001E010D
(1739018586.496) RX 284#000000000000971D
(1739018586.497) RX 1DA#C064180000010322
(1739018586.499) RX 1C2#5F
(1739018586.502) RX 1DB#FFE0BF6A00000102
(1739018586.502) RX 1DC#B40F8FFD0130C9CE
(1739018586.505) RX 11A#014000AA800003CE
(1739018586.506) RX 1D4#F707000087460070
(1739018586.506) RX 1F2#10640000001E020E
(1739018586.506) RX 50B#000006C00060
(1739018586.507) RX 1DA#C064180000010028
(1739018586.507) RX 55A#00302F005F315B48
(1739018586.509) RX 1C2#50
(1739018586.512) RX 1DB#FFE0BF6A00000208
(1739018586.512) RX 1DC#B40F8FFD0520C64C
(1739018586.515) RX 11A#014000AAC0000003
(1739018586.516) RX 1D4#F7070000C74600B7
(1739018586.516) RX 1F2#10640000001E030F
(1739018586.516) RX 284#000000000000981E
(1739018586.517) RX 1DA#C0641800000101AD
(1739018586.519) RX 1C2#51
(1739018586.522) RX 1DB#FFE0BF6A0000038D
(1739018586.522) RX 1DC#B40F8FFD08C0CB1B
(1739018586.525) RX 11A#0140005500000115
(1739018586.526) RX 1D4#F70700000746007B
(1739018586.526) RX 1F2#10640000001E000C
(1739018586.527) RX 1DA#C0641800000102A7
(1739018586.529) RX 1C2#52
(1739018586.532) RX 1DB#FFE0BF6A00000087
(1739018586.532) RX 1DC#B40F8FFD0CCCD8E4
(1739018586.535) RX 11A#01400055400002D8
(1739018586.536) RX 1D4#F7070000474600BC
(1739018586.537) RX 1F2#10640000001E010D
(1739018586.537) RX 1DA#C064180000010322
(1739018586.537) RX 284#000000000000991F
(1739018586.539) RX 1C2#53
(1739018586.542) RX 1DB#FFE0BF6A00000102
(1739018586.542) RX 1DC#B40F8FFD0130C9CE
(1739018586.545) RX 380#020410210000009E
(1739018586.546) RX 11A#014000AA800003CE
(1739018586.546) RX 54A#9E0070072600002C
(1739018586.546) RX 5BF#000000002800002B
(1739018586.547) RX 54B#004888120C000001
(1739018586.547) RX 1D4#F707000087460070
(1739018586.547) RX 1DA#C064180000010028
(1739018586.547) RX 1F2#10640000001E020E
(1739018586.548) RX 54C#7766400000405800
(1739018586.549) RX 54F#2B01000007408A5F
(1739018586.549) RX 1C2#54
(1739018586.552) RX 1DB#FFE0BF6A00000208
(1739018586.552) RX 1DC#B40F8FFD0520C64C
(1739018586.555) RX 11A#014000AAC0000003
(1739018586.557) RX 1DA#C0641800000101AD
(1739018586.557) RX 1D4#F7070000C74600B7
(1739018586.557) RX 1F2#10640000001E030F
(1739018586.558) RX 284#0000000000009A20
(1739018586.559) RX 1C2#55
(1739018586.562) RX 1DB#FFE0BF6A0000038D
(1739018586.562) RX 1DC#B40F8FFD08C0CB1B
(1739018586.565) RX 11A#0140005500000115
(1739018586.567) RX 1DA#C0641800000102A7
(1739018586.567) RX 1D4#F70700000746007B
(1739018586.567) RX 1F2#10640000001E000C
(1739018586.568) RX 50C#00000002B20D
(1739018586.569) RX 1C2#56
(1739018586.572) RX 1DB#FFE0BF6A00000087
(1739018586.572) RX 1DC#B40F8FFD0CCCD8E4
(1739018586.575) RX 11A#01400055400002D8
(1739018586.577) RX 1DA#C064180000010322
(1739018586.577) RX 1D4#F7070000474600BC
(1739018586.578) RX 1F2#10640000001E010D
(1739018586.578) RX 284#0000000000009B21
(1739018586.578) RX 5A9#643BB01304300000
(1739018586.579) RX 1C2#57
(1739018586.582) RX 1DB#FFE0BF6A00000102
(1739018586.583) RX 1DC#B40F8FFD0130C9CE
(1739018586.583) RX 55B#C780AA00E5001071
(1739018586.583) RX 5BC#59032C26B30620A8
(1739018586.585) RX 11A#014000AA800003CE
(1739018586.587) RX 1DA#C064180000010028
(1739018586.588) RX 1D4#F707000087460070
(1739018586.588) RX 1F2#10640000001E020E
(1739018586.588) RX 50A#8552A00D8020
(1739018586.589) RX 1C2#58
(1739018586.592) RX 1DB#FFE0BF6A00000208
(1739018586.592) RX 1DC#B40F8FFD0520C64C
(1739018586.595) RX 11A#014000AAC0000003
(1739018586.597) RX 1DA#C0641800000101AD
(1739018586.598) RX 1D4#F7070000C74600B7
(1739018586.598) RX 1F2#10640000001E030F
(1739018586.598) RX 284#0000000000009C22
(1739018586.599) RX 1C2#59
(1739018586.602) RX 1DB#FFE0BF6A0000038D
(1739018586.603) RX 1DC#B40F8FFD08C0CB1B
(1739018586.605) RX 11A#0140005500000115
(1739018586.607) RX 1DA#C0641800000102A7
(1739018586.607) RX 55A#00302F005F315B48
(1739018586.608) RX 1D4#F70700000746007B
(1739018586.608) RX 1F2#10640000001E000C
(1739018586.609) RX 50B#000006C00060
(1739018586.609) RX 1C2#5A
(1739018586.612) RX 1DB#FFE0BF6A00000087
(1739018586.612) RX 1DC#B40F8FFD0CCCD8E4
(1739018586.615) RX 11A#01400055400002D8
(1739018586.617) RX 1DA#C064180000010322
(1739018586.618) RX 1D4#F7070000474600BC
(1739018586.619) RX 1F2#10640000001E010D
(1739018586.619) RX 284#0000000000009D23
(1739018586.620) RX 1C2#5B
(1739018586.622) RX 1DB#FFE0BF6A00000102
(1739018586.622) RX 1DC#B40F8FFD0130C9CE
(1739018586.625) RX 11A#014000AA800003CE
(1739018586.627) RX 1DA#C064180000010028
(1739018586.629) RX 1D4#F707000087460070
(1739018586.629) RX 1F2#10640000001E020E
(1739018586.629) RX 1C2#5C
(1739018586.632) RX 1DB#FFE0BF6A00000208
(1739018586.633) RX 1DC#B40F8FFD0520C64C
(1739018586.635) RX 11A#014000AAC0000003
(1739018586.637) RX 1DA#C0641800000101AD
(1739018586.639) RX 1D4#F7070000C74600B7
(1739018586.639) RX 1F2#10640000001E030F
(1739018586.639) RX 284#0000000000009E24
(1739018586.639) RX 1C2#5D
(1739018586.642) RX 1DB#FFE0BF6A0000038D
(1739018586.643) RX 1DC#B40F8FFD08C0CB1B
(1739018586.645) RX 380#02041021000000AF
(1739018586.646) RX 11A#0140005500000115
(1739018586.646) RX 54A#100070072600002C
(1739018586.646) RX 5BF#000000002800003C
(1739018586.647) RX 54B#004888120C000001
(1739018586.647) RX 1DA#C0641800000102A7
(1739018586.648) RX 54C#7766400000405800
(1739018586.649) RX 54F#2B01000007808A5F
(1739018586.649) RX 1D4#F70700000746007B
(1739018586.649) RX 1F2#10640000001E000C
(1739018586.650) RX 1C2#5E
(1739018586.650) RX 5B9#67FF67FF28
(1739018586.652) RX 1DB#FFE0BF6A00000087
(1739018586.653) RX 1DC#B40F8FFD0CCCD8E4
(1739018586.655) RX 11A#01400055400002D8
(1739018586.657) RX 1DA#C064180000010322
(1739018586.659) RX 1D4#F7070000474600BC
(1739018586.660) RX 1C2#5F
(1739018586.660) RX 1F2#10640000001E010D
(1739018586.660) RX 284#0000000000009F25
(1739018586.662) RX 1DB#FFE0BF6A00000102
(1739018586.663) RX 1DC#B40F8FFD0130C9CE
(1739018586.665) RX 11A#014000AA800003CE
(1739018586.667) RX 1DA#C064180000010028
(1739018586.670) RX 1D4#F707000087460070
(1739018586.670) RX 1C2#50
(1739018586.670) RX 1F2#10640000001E020E
(1739018586.670) RX 50C#000000035DF4
(1739018586.672) RX 1DB#FFE0BF6A00000208
(1739018586.673) RX 1DC#B40F8FFD0520C64C
(1739018586.675) RX 11A#014000AAC0000003
(1739018586.677) RX 1DA#C0641800000101AD
(1739018586.680) RX 1C2#51
(1739018586.680) RX 1D4#F7070000C74600B7
(1739018586.680) RX 1F2#10640000001E030F
(1739018586.680) RX 284#000000000000A026
(1739018586.683) RX 1DB#FFE0BF6A0000038D
(1739018586.683) RX 1DC#B40F8FFD08C0CB1B
(1739018586.683) RX 55B#C7805500E50011B3
(1739018586.684) RX 5BC#59032C26B30620A8
(1739018586.685) RX 11A#0140005500000115
(1739018586.687) RX 1DA#C0641800000102A7
(1739018586.690) RX 1C2#52
(1739018586.690) RX 1D4#F70700000746007B
(1739018586.690) RX 1F2#10640000001E000C
(1739018586.691) RX 50A#8572A00D8020
(1739018586.692) RX 1DB#FFE0BF6A00000087
(1739018586.693) RX 1DC#B40F8FFD0CCCD8E4
(1739018586.695) RX 11A#01400055400002D8
(1739018586.697) RX 1DA#C064180000010322
(1739018586.700) RX 1C2#53
(1739018586.700) RX 1D4#F7070000474600BC
(1739018586.701) RX 1F2#10640000001E010D
(1739018586.701) RX 284#000000000000A127
(1739018586.703) RX 1DB#FFE0BF6A00000102
(1739018586.703) RX 1DC#B40F8FFD0130C9CE
(1739018586.705) RX 11A#014000AA800003CE
(1739018586.707) RX 1DA#C064180000010028
(1739018586.707) RX 55A#00302F005F315B48
(1739018586.710) RX 1C2#54
(1739018586.711) RX 1D4#F707000087460070
(1739018586.711) RX 1F2#10640000001E020E
(1739018586.711) RX 50B#000006C00060
(1739018586.712) RX 1DB#FFE0BF6A00000208
(1739018586.713) RX 1DC#B40F8FFD0520C64C
(1739018586.715) RX 11A#014000AAC0000003
(1739018586.717) RX 1DA#C0641800000101AD
(1739018586.720) RX 1C2#55
(1739018586.721) RX 1D4#F7070000C74600B7
(1739018586.721) RX 1F2#10640000001E030F
(1739018586.721) RX 284#000000000000A228
(1739018586.723) RX 1DB#FFE0BF6A0000038D
(1739018586.723) RX 1DC#B40F8FFD08C0CB1B
(1739018586.725) RX 11A#0140005500000115
(1739018586.727) RX 1DA#C0641800000102A7
(1739018586.730) RX 1C2#56
(1739018586.731) RX 1D4#F70700000746007B
(1739018586.731) RX 1F2#10640000001E000C
(1739018586.733) RX 1DB#FFE0BF6A00000087
(1739018586.733) RX 1DC#B40F8FFD0CCCD8E4
(1739018586.735) RX 11A#01400055400002D8
(1739018586.737) RX 1DA#C064180000010322
(1739018586.740) RX 1C2#57
(1739018586.741) RX 1D4#F7070000474600BC
(1739018586.742) RX 1F2#10640000001E010D
(1739018586.742) RX 284#000000000000A329
(1739018586.743) RX 1DB#FFE0BF6A00000102
(1739018586.743) RX 1DC#B40F8FFD0130C9CE
(1739018586.745) RX 11A#014000AA800003CE
(1739018586.746) RX 380#02041021000000B0
(1739018586.746) RX 54A#9E0070072600002C
(1739018586.746) RX 5BF#0000000028000009
(1739018586.747) RX 1DA#C064180000010028
(1739018586.747) RX 54B#004888120C000001
(1739018586.748) RX 54C#7766400000405800
(1739018586.749) RX 54F#2B01000007C08A5F
(1739018586.750) RX 1C2#58
(1739018586.752) RX 1D4#F707000087460070
(1739018586.752) RX 1F2#10640000001E020E
(1739018586.753) RX 1DB#FFE0BF6A00000208
(1739018586.753) RX 1DC#B40F8FFD0520C64C
(1739018586.755) RX 11A#014000AAC0000003
(1739018586.757) RX 1DA#C0641800000101AD
(1739018586.760) RX 1C2#59
(1739018586.762) RX 1D4#F7070000C74600B7
(1739018586.762) RX 1F2#10640000001E030F
(1739018586.762) RX 284#000000000000A42A
(1739018586.763) RX 1DB#FFC0BF6A000003DC
(1739018586.763) RX 1DC#B40F8FFD08C0CB1B
(1739018586.765) RX 11A#0140005500000115
(1739018586.767) RX 1DA#C0641800000102A7
(1739018586.770) RX 1C2#5A
(1739018586.772) RX 1D4#F70700000746007B
(1739018586.772) RX 1F2#10640000001E000C
(1739018586.772) RX 50C#00000000B2A6
(1739018586.773) RX 1DB#FFC0BF6A000000D6
(1739018586.773) RX 1DC#B40F8FFD0CCCD8E4
(1739018586.775) RX 11A#01400055400002D8
(1739018586.777) RX 1DA#C064180000010322
(1739018586.780) RX 1C2#5B
(1739018586.782) RX 1D4#F7070000474600BC
(1739018586.782) RX 1F2#10640000001E010D
(1739018586.783) RX 284#000000000000A52B
(1739018586.783) RX 1DB#FFC0BF6A00000153
(1739018586.783) RX 1DC#B40F8FFD0130C9CE
(1739018586.784) RX 55B#C780AA00E50012FE
(1739018586.784) RX 5BC#59032C26B30620A8
(1739018586.785) RX 11A#014000AA800003CE
(1739018586.787) RX 1DA#C064180000010028
(1739018586.790) RX 1C2#5C
(1739018586.793) RX 1D4#F707000087460070
(1739018586.793) RX 1DB#FFC0BF6A00000259
(1739018586.793) RX 1F2#10640000001E020E
 000007C08A5F
(1739018586.750) RX 1C2#58
(1739018586.752) RX 1D4#F707000087460070
(1739018586.752) RX 1F2#10640000001E020E
(1739018586.753) RX 1DB#FFE0BF6A00000208
(1739018586.773) RX 1DC#B40F8FFD0CCCD8E4
(1739018586.775) RX 11A#01400055400002D8
(1739018586.777) RX 1DA#C064180000010322
(1739018586.780) RX 1C2#5B
(1739018586.782) RX 1D4#F7070000474600BC
(1739018586.782) RX 1F2#10640000001E010D
(1739018586.783) RX 284#000000000000A52B
(1739018586.783) RX 1DB#FFC0BF6A00000153
(1739018586.803) RX 1F2#10640000001E030F
(1739018586.803) RX 1DC#B40F8FFD08C0CB1B
(1739018586.804) RX 284#000000000000A62C
(1739018586.805) RX 11A#0140005500000115
(1739018586.807) RX 1DA#C0641800000102A7
(1739018586.807) RX 55A#00302F005F315B48
(1739018586.810) RX 1C2#5E
(1739018586.813) RX 1DB#FFC0BF6A000000D6
(1739018586.813) RX 1D4#F70700000746007B
(1739018586.813) RX 1DC#B40F8FFD0CCCD8E4
(1739018586.813) RX 1F2#10640000001E000C
(1739018586.814) RX 284#000000000000A72D
(1739018586.814) RX 50B#000006C00060
(1739018586.815) RX 11A#01400055400002D8
(1739018586.817) RX 1DA#C064180000010322
(1739018586.820) RX 1C2#5F
(1739018586.823) RX 1DB#FFC0BF6A00000153
(1739018586.823) RX 1DC#B40F8FFD0130C9CE
(1739018586.823) RX 1D4#F7070000474600BC
(1739018586.824) RX 1F2#10640000001E010D
(1739018586.825) RX 11A#014000AA800003CE
(1739018586.827) RX 1DA#C064180000010028
(1739018586.830) RX 1C2#50
(1739018586.833) RX 1DB#FFE0BF6A00000208
(1739018586.833) RX 1DC#B40F8FFD0520C64C
(1739018586.833) RX 1D4#F707000087460070
(1739018586.834) RX 1F2#10640000001E020E
(1739018586.834) RX 284#000000000000A82E
(1739018586.835) RX 11A#014000AAC0000003
(1739018586.837) RX 1DA#C0641800000101AD
(1739018586.840) RX 1C2#51
(1739018586.843) RX 1DB#FFE0BF6A0000038D
(1739018586.843) RX 1DC#B40F8FFD08C0CB1B
(1739018586.844) RX 1D4#F7070000C74600B7
(1739018586.844) RX 1F2#10640000001E030F
(1739018586.845) RX 11A#0140005500000115
(1739018586.846) RX 380#020410210000008D
(1739018586.846) RX 54A#100070072600002C
(1739018586.846) RX 5BF#000000002800001A
(1739018586.847) RX 1DA#C0641800000102A7
(1739018586.847) RX 54B#004888120C000001
(1739018586.848) RX 54C#7766400000405800
(1739018586.849) RX 54F#2B01000007008A5F
(1739018586.850) RX 1C2#52
(1739018586.853) RX 1DB#FFE0BF6A00000087
(1739018586.853) RX 1DC#B40F8FFD0CCCD8E4
(1739018586.854) RX 1D4#F70700000746007B
(1739018586.854) RX 1F2#10640000001E000C
(1739018586.855) RX 284#000000000000A92F
(1739018586.855) RX 11A#01400055400002D8
(1739018586.857) RX 1DA#C064180000010322
(1739018586.860) RX 1C2#53
(1739018586.863) RX 1DB#FFE0BF6A00000102
(1739018586.863) RX 1DC#B40F8FFD0130C9CE
(1739018586.864) RX 1D4#F7070000474600BC
(1739018586.864) RX 1F2#10640000001E010D
(1739018586.865) RX 11A#014000AA800003CE
(1739018586.867) RX 1DA#C064180000010028
(1739018586.870) RX 1C2#54
(1739018586.873) RX 1DB#FFE0BF6A00000208
(1739018586.873) RX 1DC#B40F8FFD0520C64C
(1739018586.874) RX 1D4#F707000087460070
(1739018586.875) RX 1F2#10640000001E020E
(1739018586.875) RX 11A#014000AAC0000003
(1739018586.875) RX 284#000000000000AA30
(1739018586.875) RX 50C#000000015D5F
(1739018586.877) RX 1DA#C0641800000101AD
(1739018586.880) RX 1C2#55
(1739018586.883) RX 1DB#FFE0BF6A0000038D
(1739018586.883) RX 1DC#B40F8FFD08C0CB1B
(1739018586.884) RX 55B#C7805500E500133C
(1739018586.884) RX 5BC#59032026B2064087
(1739018586.885) RX 1D4#F7070000C74600B7
(1739018586.885) RX 1F2#10640000001E030F
(1739018586.885) RX 11A#0140005500000115
(1739018586.887) RX 1DA#C0641800000102A7
(1739018586.890) RX 1C2#56
(1739018586.893) RX 1DB#FFE0BF6A00000087
(1739018586.893) RX 1DC#B40F8FFD0CCCD8E4
(1739018586.894) RX 5C0#C04C4C0004541100
(1739018586.894) RX 5EB#E00FFFFFFFFFFFFF
(1739018586.895) RX 1D4#F70700000746007B
(1739018586.895) RX 11A#01400055400002D8
(1739018586.895) RX 1F2#10640000001E000C
(1739018586.896) RX 284#000000000000AB31
(1739018586.896) RX 50A#8532A00D8020
(1739018586.897) RX 1DA#C064180000010322
(1739018586.900) RX 1C2#57
(1739018586.903) RX 1DB#FFE0BF6A00000102
(1739018586.903) RX 1DC#B40F8FFD0130C9CE
(1739018586.905) RX 1D4#F7070000474600BC
(1739018586.905) RX 1F2#10640000001E010D
(1739018586.906) RX 11A#014000AA800003CE
(1739018586.907) RX 1DA#C064180000010028
(1739018586.907) RX 55A#00302F005F315B48
(1739018586.910) RX 1C2#58
(1739018586.913) RX 1DB#FFE0BF6A00000208
(1739018586.913) RX 1DC#B40F8FFD0520C64C
(1739018586.915) RX 11A#014000AAC0000003
(1739018586.915) RX 1D4#F707000087460070
(1739018586.916) RX 1F2#10640000001E020E
(1739018586.916) RX 284#000000000000AC32
(1739018586.916) RX 50B#000006C00060
(1739018586.917) RX 1DA#C0641800000101AD
(1739018586.920) RX 1C2#59
(1739018586.923) RX 1DB#FFE0BF6A0000038D
(1739018586.923) RX 1DC#B40F8FFD08C0CB1B
(1739018586.925) RX 11A#0140005500000115
(1739018586.926) RX 1D4#F7070000C74600B7
(1739018586.926) RX 1F2#10640000001E030F
(1739018586.927) RX 1DA#C0641800000102A7
(1739018586.930) RX 1C2#5A
(1739018586.933) RX 1DB#FFE0BF6A00000087
(1739018586.933) RX 1DC#B40F8FFD0CCCD8E4
(1739018586.935) RX 11A#01400055400002D8
(1739018586.936) RX 1D4#F70700000746007B
(1739018586.936) RX 1F2#10640000001E000C
(1739018586.936) RX 284#000000000000AD33
(1739018586.937) RX 1DA#C064180000010322
(1739018586.940) RX 1C2#5B
(1739018586.943) RX 1DB#FFE0BF6A00000102
(1739018586.944) RX 1DC#B40F8FFD0130C9CE
(1739018586.945) RX 11A#014000AA800003CE
(1739018586.946) RX 380#020410210000009E
(1739018586.946) RX 5BF#000000002800002B
(1739018586.946) RX 1D4#F7070000474600BC
(1739018586.946) RX 1F2#10640000001E010D
(1739018586.947) RX 54A#9E0070072600002C
(1739018586.947) RX 1DA#C064180000010028
(1739018586.948) RX 54B#004888120C000001
(1739018586.949) RX 54C#7766400000405800
(1739018586.950) RX 54F#2B01000007408A5F
(1739018586.950) RX 1C2#5C
(1739018586.953) RX 1DB#FFE0BF6A00000208
(1739018586.953) RX 1DC#B40F8FFD0520C64C
(1739018586.955) RX 11A#014000AAC0000003
(1739018586.956) RX 1D4#F707000087460070
(1739018586.957) RX 1F2#10640000001E020E
(1739018586.957) RX 1DA#C0641800000101AD
(1739018586.957) RX 284#000000000000AE34
(1739018586.960) RX 1C2#5D
(1739018586.963) RX 1DB#FFE0BF6A0000038D
(1739018586.964) RX 1DC#B40F8FFD08C0CB1B
(1739018586.965) RX 11A#0140005500000115
(1739018586.967) RX 1D4#F7070000C74600B7
(1739018586.967) RX 1DA#C0641800000102A7
(1739018586.967) RX 1F2#10640000001E030F
(1739018586.970) RX 1C2#5E
(1739018586.973) RX 1DB#FFE0BF6A00000087
(1739018586.974) RX 1DC#B40F8FFD0CCCD8E4
(1739018586.975) RX 11A#01400055400002D8
(1739018586.977) RX 1DA#C064180000010322
(1739018586.977) RX 1D4#F70700000746007B
(1739018586.977) RX 1F2#10640000001E000C
(1739018586.977) RX 284#000000000000AF35
(1739018586.978) RX 50C#00000002B20D
(1739018586.980) RX 1C2#5F
(1739018586.983) RX 1DB#FFE0BF6A00000102
(1739018586.984) RX 1DC#B40F8FFD0130C9CE
(1739018586.984) RX 55B#C780AA00E5001071
(1739018586.984) RX 5BC#59032026B2064087
(1739018586.985) RX 11A#014000AA800003CE
(1739018586.987) RX 1DA#C064180000010028
(1739018586.987) RX 1D4#F7070000474600BC
(1739018586.987) RX 1F2#10640000001E010D
(1739018586.990) RX 1C2#50
(1739018586.993) RX 1DB#FFE0BF6A00000208
(1739018586.994) RX 1DC#B40F8FFD0520C64C
(1739018586.995) RX 11A#014000AAC0000003
(1739018586.997) RX 1DA#C0641800000101AD
(1739018586.997) RX 1D4#F707000087460070
(1739018586.998) RX 1F2#10640000001E020E
(1739018586.998) RX 284#000000000000B036
(1739018586.998) RX 50A#8552A00D8020
(1739018587.000) RX 1C2#51
(1739018587.003) RX 1DB#FFE0BF6A0000038D
(1739018587.004) RX 1DC#B40F8FFD08C0CB1B
(1739018587.005) RX 11A#0140005500000115
(1739018587.007) RX 1DA#C0641800000102A7
(1739018587.007) RX 55A#00302F005F315B48
(1739018587.008) RX 1D4#F7070000C74600B7
(1739018587.008) RX 1F2#10640000001E030F
(1739018587.010) RX 1C2#52
(1739018587.013) RX 1DB#FFE0BF6A00000087
(1739018587.014) RX 1DC#B40F8FFD0CCCD8E4
(1739018587.015) RX 11A#01400055400002D8
(1739018587.017) RX 1DA#C064180000010322
(1739018587.018) RX 1D4#F70700000746007B
(1739018587.018) RX 1F2#10640000001E000C
(1739018587.018) RX 284#000000000000B137
(1739018587.019) RX 50B#000006C00060
(1739018587.020) RX 1C2#53
(1739018587.023) RX 1DB#FFE0BF6A00000102
(1739018587.024) RX 1DC#B40F8FFD0130C9CE
(1739018587.025) RX 11A#014000AA800003CE
(1739018587.027) RX 1DA#C064180000010028
(1739018587.028) RX 1D4#F7070000474600BC
(1739018587.028) RX 1F2#10640000001E010D
(1739018587.030) RX 1C2#54
(1739018587.033) RX 1DB#FFE0BF6A00000208
(1739018587.034) RX 1DC#B40F8FFD0520C64C
(1739018587.035) RX 11A#014000AAC0000003
(1739018587.037) RX 1DA#C0641800000101AD
(1739018587.038) RX 1D4#F707000087460070
(1739018587.039) RX 1F2#10640000001E020E
(1739018587.039) RX 284#000000000000B238
(1739018587.040) RX 1C2#55
(1739018587.043) RX 1DB#FFE0BF6A0000038D
(1739018587.044) RX 1DC#B40F8FFD08C0CB1B
(1739018587.045) RX 11A#0140005500000115
(1739018587.046) RX 380#02041021000000AF
(1739018587.046) RX 54A#100070072600002C
(1739018587.046) RX 5BF#000000002800003C
(1739018587.047) RX 1DA#C0641800000102A7
(1739018587.047) RX 54B#004888120C000001
(1739018587.048) RX 54C#7766400000405800
(1739018587.049) RX 1D4#F7070000C74600B7
(1739018587.049) RX 1F2#10640000001E030F
(1739018587.049) RX 54F#2B01000007808A5F
(1739018587.050) RX 1C2#56
(1739018587.053) RX 1DB#FFE0BF6A00000087
(1739018587.054) RX 1DC#B40F8FFD0CCCD8E4
(1739018587.055) RX 11A#01400055400002D8
(1739018587.057) RX 1DA#C064180000010322
(1739018587.059) RX 1D4#F70700000746007B
(1739018587.059) RX 1F2#10640000001E000C
(1739018587.059) RX 284#000000000000B339
(1739018587.060) RX 1C2#57
(1739018587.064) RX 1DB#FFE0BF6A00000102
(1739018587.064) RX 1DC#B40F8FFD0130C9CE
(1739018587.065) RX 11A#014000AA800003CE
(1739018587.067) RX 1DA#C064180000010028
(1739018587.069) RX 1D4#F7070000474600BC
(1739018587.069) RX 1F2#10640000001E010D
(1739018587.070) RX 1C2#58
(1739018587.073) RX 1DB#FFC0BF6A00000259
(1739018587.074) RX 1DC#B40F8FFD0520C64C
(1739018587.075) RX 11A#014000AAC0000003
(1739018587.077) RX 1DA#C0641800000101AD
(1739018587.079) RX 1D4#F707000087460070
(1739018587.080) RX 1F2#10640000001E020E
(1739018587.080) RX 284#000000000000B43A
(1739018587.080) RX 50C#000000035DF4
(1739018587.081) RX 1C2#59
(1739018587.084) RX 1DB#FFA0BF6A0000032F
(1739018587.084) RX 1DC#B40F8FFD08C0CB1B
(1739018587.084) RX 55B#C7805500E50011B3
(1739018587.085) RX 5BC#59032026B2064087
(1739018587.085) RX 11A#0140005500000115
(1739018587.087) RX 1DA#C0641800000102A7
(1739018587.090) RX 1D4#F7070000C74600B7
(1739018587.090) RX 1F2#10640000001E030F
(1739018587.090) RX 5A9#643BB01304300000
(1739018587.090) RX 1C2#5A
(1739018587.094) RX 1DB#FF80BF6A00000074
(1739018587.094) RX 1DC#B40F8FFD0CCCD8E4
(1739018587.095) RX 11A#01400055400002D8
(1739018587.097) RX 1DA#C064180000010322
(1739018587.100) RX 1D4#F70700000746007B
(1739018587.100) RX 1F2#10640000001E000C
(1739018587.100) RX 284#000000000000B53B
(1739018587.101) RX 50A#8572A00D8020
(1739018587.101) RX 1C2#5B
(1739018587.104) RX 1DB#FF80BF6A000001F1
(1739018587.104) RX 1DC#B40F8FFD0130C9CE
(1739018587.105) RX 11A#014000AA800003CE
(1739018587.107) RX 1DA#C064180000010028
(1739018587.107) RX 55A#00302F005F315B48
(1739018587.110) RX 1D4#F7070000474600BC
(1739018587.110) RX 1F2#10640000001E010D
(1739018587.111) RX 1C2#5C
(1739018587.114) RX 1DB#FF60BF6A000002C9
(1739018587.114) RX 1DC#B40F8FFD0520C64C
(1739018587.115) RX 11A#014000AAC0000003
(1739018587.117) RX 1DA#C0641800000101AD
(1739018587.120) RX 1D4#F707000087460070
(1739018587.121) RX 1F2#10640000001E020E
(1739018587.121) RX 1C2#5D
(1739018587.121) RX 284#000000000000B63C
(1739018587.121) RX 50B#000006C00060
(1739018587.124) RX 1DB#FF60BF6A0000034C
(1739018587.124) RX 1DC#B40F8FFD08C0CB1B
(1739018587.125) RX 11A#0140005500000115
(1739018587.127) RX 1DA#C0641800000102A7
(1739018587.131) RX 1D4#F7070000C74600B7
(1739018587.131) RX 1C2#5E
(1739018587.131) RX 1F2#10640000001E030F
(1739018587.134) RX 1DB#FF60BF6A00000046
(1739018587.134) RX 1DC#B40F8FFD0CCCD8E4
(1739018587.135) RX 11A#01400055400002D8
(1739018587.137) RX 1DA#C064180000010322
(1739018587.141) RX 1C2#5F
(1739018587.141) RX 1D4#F70700000746007B
(1739018587.141) RX 1F2#10640000001E000C
(1739018587.141) RX 284#000000000000B73D
(1739018587.144) RX 1DB#FF60BF6A000001C3
(1739018587.144) RX 1DC#B40F8FFD0130C9CE
(1739018587.145) RX 11A#014000AA800003CE
(1739018587.146) RX 380#02041021000000B0
(1739018587.146) RX 54A#9E0070072600002C
(1739018587.146) RX 5BF#0000000028000009
(1739018587.147) RX 1DA#C064180000010028
(1739018587.147) RX 54B#004888120C000001
(1739018587.148) RX 54C#7766400000405800
(1739018587.149) RX 54F#2B01000007C08A5F
(1739018587.151) RX 1C2#50
(1739018587.151) RX 1D4#F7070000474600BC
(1739018587.151) RX 1F2#10640000001E010D
(1739018587.154) RX 1DB#FF60BF6A000002C9
(1739018587.154) RX 1DC#B40F8FFD0520C64C
(1739018587.155) RX 11A#014000AAC0000003
(1739018587.157) RX 1DA#C0641800000101AD
(1739018587.161) RX 1C2#51
(1739018587.161) RX 1D4#F707000087460070
(1739018587.162) RX 1F2#10640000001E020E
(1739018587.162) RX 284#000000000000B83E
(1739018587.162) RX 5B9#67FF67FF28
(1739018587.164) RX 1DB#FF60BF6A0000034C
(1739018587.164) RX 1DC#B40F8FFD08C0CB1B
(1739018587.165) RX 11A#0140005500000115
(1739018587.167) RX 1DA#C0641800000102A7
(1739018587.171) RX 1C2#52
(1739018587.172) RX 1D4#F7070000C74600B7
(1739018587.172) RX 1F2#10640000001E030F
(1739018587.174) RX 1DB#FF80BF6A00000074
(1739018587.174) RX 1DC#B40F8FFD0CCCD8E4
(1739018587.175) RX 11A#01400055400002D8
(1739018587.177) RX 1DA#C064180000010322
(1739018587.181) RX 1C2#53
(1739018587.182) RX 1D4#F70700000746007B
(1739018587.182) RX 1F2#10640000001E000C
(1739018587.182) RX 284#000000000000B93F
(1739018587.182) RX 50C#00000000B2A6
(1739018587.184) RX 1DB#FFA0BF6A000001A0
(1739018587.184) RX 1DC#B40F8FFD0130C9CE
(1739018587.185) RX 55B#C780AA00E50012FE
(1739018587.185) RX 5BC#59032026B2064087
(1739018587.185) RX 11A#014000AA800003CE
(1739018587.187) RX 1DA#C064180000010028
(1739018587.191) RX 1C2#54
(1739018587.192) RX 1D4#F7070000474600BC
(1739018587.192) RX 1F2#10640000001E010D
(1739018587.194) RX 1DB#FFC0BF6A00000259
(1739018587.194) RX 1DC#B40F8FFD0520C64C
(1739018587.195) RX 11A#014000AAC0000003
(1739018587.197) RX 1DA#C0641800000101AD
(1739018587.201) RX 1C2#55
(1739018587.202) RX 1D4#F707000087460070
(1739018587.202) RX 1F2#10640000001E020E
(1739018587.203) RX 284#000000000000BA40
(1739018587.203) RX 50A#8512A00D8020
(1739018587.204) RX 1DB#FFC0BF6A000003DC
(1739018587.204) RX 1DC#B40F8FFD08C0CB1B
(1739018587.205) RX 11A#0140005500000115
(1739018587.207) RX 1DA#C0641800000102A7
(1739018587.207) RX 55A#00302F005F315B48
(1739018587.211) RX 1C2#56
(1739018587.212) RX 1D4#F7070000C74600B7
(1739018587.213) RX 1F2#10640000001E030F
(1739018587.214) RX 1DB#FFE0BF6A00000087
(1739018587.214) RX 1DC#B40F8FFD0CCCD8E4
(1739018587.215) RX 11A#01400055400002D8
(1739018587.217) RX 1DA#C064180000010322
(1739018587.221) RX 1C2#57
(1739018587.223) RX 1D4#F70700000746007B
(1739018587.223) RX 1F2#10640000001E000C
(1739018587.223) RX 284#000000000000BB41
(1739018587.223) RX 50B#000006C00060
(1739018587.224) RX 1DB#FFE0BF6A00000102
(1739018587.225) RX 1DC#B40F8FFD0130C9CE
(1739018587.225) RX 11A#014000AA800003CE
(1739018587.227) RX 1DA#C064180000010028
(1739018587.231) RX 1C2#58
(1739018587.233) RX 1D4#F7070000474600BC
(1739018587.233) RX 1F2#10640000001E010D
(1739018587.233) RX 284#000000000000BC42
(1739018587.234) RX 1DB#FFE0BF6A00000208
(1739018587.234) RX 1DC#B40F8FFD0520C64C
(1739018587.235) RX 11A#014000AAC0000003
(1739018587.237) RX 1DA#C0641800000101AD
(1739018587.241) RX 1C2#59
(1739018587.243) RX 1D4#F707000087460070
(1739018587.243) RX 1F2#10640000001E020E
(1739018587.244) RX 1DB#FFE0BF6A0000038D
(1739018587.244) RX 1DC#B40F8FFD08C0CB1B
(1739018587.245) RX 11A#0140005500000115
(1739018587.246) RX 380#020410210000008D
(1739018587.246) RX 54A#100070072600002C
(1739018587.246) RX 5BF#000000002800001A
(1739018587.247) RX 1DA#C0641800000102A7
(1739018587.247) RX 54B#004888120C000001
(1739018587.248) RX 54C#7766400000405800
(1739018587.249) RX 54F#2B01000007008A5F
(1739018587.251) RX 1C2#5A
(1739018587.254) RX 1D4#F7070000C74600B7
(1739018587.254) RX 1F2#10640000001E030F
(1739018587.254) RX 1DB#FFE0BF6A00000087
(1739018587.254) RX 284#000000000000BD43
(1739018587.254) RX 1DC#B40F8FFD0CCCD8E4
(1739018587.255) RX 11A#01400055400002D8
(1739018587.257) RX 1DA#C064180000010322
(1739018587.261) RX 1C2#5B
(1739018587.264) RX 1D4#F70700000746007B
(1739018587.264) RX 1F2#10640000001E000C
(1739018587.264) RX 1DB#FFE0BF6A00000102
(1739018587.264) RX 1DC#B40F8FFD0130C9CE
(1739018587.265) RX 11A#014000AA800003CE
(1739018587.267) RX 1DA#C064180000010028
(1739018587.271) RX 1C2#5C
(1739018587.274) RX 1D4#F7070000474600BC
(1739018587.274) RX 1DB#FFE0BF6A00000208
(1739018587.274) RX 1F2#10640000001E010D
(1739018587.275) RX 1DC#B40F8FFD0520C64C
(1739018587.275) RX 11A#014000AAC0000003
(1739018587.275) RX 284#000000000000BE44
(1739018587.277) RX 1DA#C0641800000101AD
(1739018587.281) RX 1C2#5D
(1739018587.284) RX 1D4#F707000087460070
(1739018587.284) RX 1DB#FFE0BF6A0000038D
(1739018587.285) RX 1F2#10640000001E020E
(1739018587.285) RX 1DC#B40F8FFD08C0CB1B
(1739018587.285) RX 50C#000000015D5F
(1739018587.285) RX 55B#C780AA00E500137B
(1739018587.286) RX 11A#0140005500000115
(1739018587.286) RX 5BC#59032026B2064087
(1739018587.287) RX 1DA#C0641800000102A7
(1739018587.291) RX 1C2#5E
(1739018587.294) RX 1DB#FFE0BF6A00000087
(1739018587.294) RX 1DC#B40F8FFD0CCCD8E4
(1739018587.295) RX 1D4#F7070000C74600B7
(1739018587.295) RX 1F2#10640000001E030F
(1739018587.295) RX 11A#01400055400002D8
(1739018587.295) RX 284#000000000000BF45
(1739018587.297) RX 1DA#C064180000010322
(1739018587.301) RX 1C2#5F
(1739018587.304) RX 1DB#FFE0BF6A00000102
(1739018587.305) RX 1DC#B40F8FFD0130C9CE
(1739018587.305) RX 1D4#F70700000746007B
(1739018587.305) RX 1F2#10640000001E000C
(1739018587.305) RX 50A#8532A00D8020
(1739018587.305) RX 11A#014000AA800003CE
(1739018587.307) RX 1DA#C064180000010028
(1739018587.307) RX 55A#00302F005F315B48
(1739018587.311) RX 1C2#50
(1739018587.314) RX 1DB#FFE0BF6A00000208
(1739018587.314) RX 1DC#B40F8FFD0520C64C
(1739018587.315) RX 11A#014000AAC0000003
(1739018587.315) RX 1D4#F7070000474600BC
(1739018587.315) RX 1F2#10640000001E010D
(1739018587.315) RX 284#000000000000C046
(1739018587.317) RX 1DA#C0641800000101AD
(1739018587.321) RX 1C2#51
(1739018587.324) RX 1DB#FFE0BF6A0000038D
(1739018587.325) RX 1DC#B40F8FFD08C0CB1B
(1739018587.325) RX 1D4#F707000087460070
(1739018587.325) RX 1F2#10640000001E020E
(1739018587.326) RX 11A#0140005500000115
(1739018587.326) RX 50B#000006C00060
(1739018587.327) RX 1DA#C0641800000102A7
(1739018587.331) RX 1C2#52
(1739018587.334) RX 1DB#FFE0BF6A00000087
(1739018587.335) RX 1DC#B40F8FFD0CCCD8E4
(1739018587.335) RX 11A#01400055400002D8
(1739018587.335) RX 1D4#F7070000C74600B7
(1739018587.336) RX 1F2#10640000001E030F
(1739018587.336) RX 284#000000000000C147
(1739018587.337) RX 1DA#C064180000010322
(1739018587.341) RX 1C2#53
(1739018587.344) RX 1DB#FFE0BF6A00000102
(1739018587.345) RX 1DC#B40F8FFD0130C9CE
(1739018587.345) RX 11A#014000AA800003CE
(1739018587.346) RX 1D4#F70700000746007B
(1739018587.346) RX 1F2#10640000001E000C
(1739018587.346) RX 380#020410210000009E
(1739018587.346) RX 54A#9E0070072600002C
(1739018587.347) RX 5BF#000000002800002B
(1739018587.347) RX 1DA#C064180000010028
(1739018587.347) RX 54B#004888120C000001
(1739018587.348) RX 54C#7766400000405800
(1739018587.349) RX 54F#2B01000007408A5F
(1739018587.351) RX 1C2#54
(1739018587.354) RX 1DB#FFE0BF6A00000208
(1739018587.355) RX 1DC#B40F8FFD0520C64C
(1739018587.355) RX 11A#014000AAC0000003
(1739018587.356) RX 1D4#F7070000474600BC
(1739018587.356) RX 1F2#10640000001E010D
(1739018587.356) RX 284#000000000000C248
(1739018587.357) RX 1DA#C0641800000101AD
(1739018587.361) RX 1C2#55
(1739018587.364) RX 1DB#FFE0BF6A0000038D
(1739018587.365) RX 1DC#B40F8FFD08C0CB1B
(1739018587.365) RX 11A#0140005500000115
(1739018587.366) RX 1D4#F707000087460070
(1739018587.366) RX 1F2#10640000001E020E
(1739018587.367) RX 1DA#C0641800000102A7
(1739018587.371) RX 1C2#56
(1739018587.374) RX 1DB#FFE0BF6A00000087
(1739018587.375) RX 1DC#B40F8FFD0CCCD8E4
(1739018587.375) RX 11A#01400055400002D8
(1739018587.376) RX 1D4#F7070000C74600B7
(1739018587.377) RX 1F2#10640000001E030F
(1739018587.377) RX 1DA#C064180000010322
(1739018587.377) RX 284#000000000000C349
(1739018587.381) RX 1C2#57
(1739018587.385) RX 1DB#FFE0BF6A00000102
(1739018587.385) RX 1DC#B40F8FFD0130C9CE
(1739018587.385) RX 55B#C7805500E5001036
(1739018587.385) RX 11A#014000AA800003CE
(1739018587.386) RX 5BC#59032C26B3040087
(1739018587.387) RX 1D4#F70700000746007B
(1739018587.387) RX 1DA#C064180000010028
(1739018587.387) RX 1F2#10640000001E000C
(1739018587.387) RX 50C#000000025D63
(1739018587.391) RX 1C2#58
(1739018587.394) RX 1DB#FFE0BF6A00000208
(1739018587.395) RX 11A#014000AAC0000003
(1739018587.395) RX 1DC#B40F8FFD0520C64C
(1739018587.395) RX 5C0#804C4C0004A01100
(1739018587.396) RX 5EB#E00FFFFFFFFFFFFF
(1739018587.397) RX 1DA#C0641800000101AD
(1739018587.397) RX 1D4#F7070000474600BC
(1739018587.397) RX 1F2#10640000001E010D
(1739018587.397) RX 284#000000000000C44A
(1739018587.401) RX 1C2#59
(1739018587.405) RX 1DB#FFE0BF6A0000038D
(1739018587.405) RX 1DC#B40F8FFD08C0CB1B
(1739018587.405) RX 11A#0140005500000115
(1739018587.407) RX 1DA#C0641800000102A7
(1739018587.407) RX 55A#00302F005F315B48
(1739018587.407) RX 1D4#F707000087460070
(1739018587.407) RX 1F2#10640000001E020E
(1739018587.408) RX 50A#8552A00D8020
(1739018587.411) RX 1C2#5A
(1739018587.414) RX 1DB#FFE0BF6A00000087
(1739018587.415) RX 1DC#B40F8FFD0CCCD8E4
(1739018587.415) RX 11A#01400055400002D8
(1739018587.417) RX 1DA#C064180000010322
(1739018587.417) RX 1D4#F7070000C74600B7
(1739018587.418) RX 1F2#10640000001E030F
(1739018587.418) RX 284#000000000000C54B
(1739018587.421) RX 1C2#5B
(1739018587.425) RX 1DB#FFE0BF6A00000102
(1739018587.425) RX 1DC#B40F8FFD0130C9CE
(1739018587.425) RX 11A#014000AA800003CE
(1739018587.427) RX 1DA#C064180000010028
(1739018587.428) RX 1D4#F70700000746007B
(1739018587.428) RX 1F2#10640000001E000C
(1739018587.428) RX 50B#000006C00060
(1739018587.431) RX 1C2#5C
(1739018587.434) RX 1DB#FFE0BF6A00000208
(1739018587.435) RX 11A#014000AAC0000003
(1739018587.435) RX 1DC#B40F8FFD0520C64C
(1739018587.437) RX 1DA#C0641800000101AD
(1739018587.438) RX 1D4#F7070000474600BC
(1739018587.438) RX 1F2#10640000001E010D
(1739018587.438) RX 284#000000000000C64C
(1739018587.441) RX 1C2#5D
(1739018587.445) RX 1DB#FFE0BF6A0000038D
(1739018587.445) RX 1DC#B40F8FFD08C0CB1B
(1739018587.445) RX 11A#0140005500000115
(1739018587.446) RX 380#02041021000000AF
(1739018587.446) RX 54A#100070072600002C
(1739018587.447) RX 1DA#C0641800000102A7
(1739018587.447) RX 5BF#000000002800003C
(1739018587.447) RX 54B#004888120C000001
(1739018587.448) RX 1D4#F707000087460070
(1739018587.448) RX 1F2#10640000001E020E
(1739018587.449) RX 54C#7766400000405800
(1739018587.449) RX 54F#2B01000007808A5F
(1739018587.451) RX 1C2#5E
(1739018587.455) RX 1DB#FFE0BF6A00000087
(1739018587.455) RX 1DC#B40F8FFD0CCCD8E4
(1739018587.455) RX 11A#01400055400002D8
(1739018587.457) RX 1DA#C064180000010322
(1739018587.458) RX 1D4#F7070000C74600B7
(1739018587.459) RX 1F2#10640000001E030F
(1739018587.459) RX 284#000000000000C74D
(1739018587.461) RX 1C2#5F
(1739018587.465) RX 1DB#FFE0BF6A00000102
(1739018587.465) RX 1DC#B40F8FFD0130C9CE
(1739018587.465) RX 11A#014000AA800003CE
(1739018587.467) RX 1DA#C064180000010028
(1739018587.469) RX 1D4#F70700000746007B
(1739018587.469) RX 1F2#10640000001E000C
(1739018587.471) RX 1C2#50
(1739018587.475) RX 1DB#FFE0BF6A00000208
(1739018587.475) RX 11A#014000AAC0000003
(1739018587.475) RX 1DC#B40F8FFD0520C64C
(1739018587.477) RX 1DA#C0641800000101AD
(1739018587.479) RX 1D4#F7070000474600BC
(1739018587.479) RX 1F2#10640000001E010D
(1739018587.479) RX 284#000000000000C84E
(1739018587.481) RX 1C2#51
(1739018587.485) RX 1DB#FFE0BF6A0000038D
(1739018587.485) RX 1DC#B40F8FFD08C0CB1B
(1739018587.485) RX 11A#0140005500000115
(1739018587.486) RX 55B#C7805500E50011B3
(1739018587.486) RX 5BC#59032C26B3040087
(1739018587.487) RX 1DA#C0641800000102A7
(1739018587.489) RX 1D4#F707000087460070
(1739018587.489) RX 1F2#10640000001E020E
(1739018587.490) RX 50C#00000003B29A
(1739018587.491) RX 1C2#52
(1739018587.495) RX 1DB#FFE0BF6A00000087
(1739018587.495) RX 1DC#B40F8FFD0CCCD8E4
(1739018587.495) RX 11A#01400055400002D8
(1739018587.497) RX 1DA#C064180000010322
(1739018587.499) RX 1D4#F7070000C74600B7
(1739018587.500) RX 1F2#10640000001E030F
(1739018587.500) RX 284#000000000000C94F
(1739018587.501) RX 1C2#53
(1739018587.505) RX 1DB#FFE0BF6A00000102
(1739018587.505) RX 1DC#B40F8FFD0130C9CE
(1739018587.505) RX 11A#014000AA800003CE
(1739018587.507) RX 1DA#C064180000010028
(1739018587.507) RX 55A#00302F005F315B48
(1739018587.510) RX 1D4#F70700000746007B
(1739018587.510) RX 1F2#10640000001E000C
(1739018587.510) RX 50A#8572A00D8020
(1739018587.511) RX 1C2#54
(1739018587.515) RX 11A#014000AAC0000003
(1739018587.515) RX 1DB#FFE0BF6A00000208
(1739018587.515) RX 1DC#B40F8FFD0520C64C
(1739018587.517) RX 1DA#C0641800000101AD
(1739018587.520) RX 1D4#F7070000474600BC
(1739018587.520) RX 1F2#10640000001E010D
(1739018587.520) RX 284#000000000000CA50
(1739018587.521) RX 1C2#55
(1739018587.525) RX 1DB#FFE0BF6A0000038D
(1739018587.525) RX 1DC#B40F8FFD08C0CB1B
(1739018587.525) RX 11A#0140005500000115
(1739018587.527) RX 1DA#C0641800000102A7
(1739018587.530) RX 1D4#F707000087460070
(1739018587.530) RX 1F2#10640000001E020E
(1739018587.530) RX 50B#000006C00060
(1739018587.531) RX 1C2#56
(1739018587.535) RX 1DB#FFE0BF6A00000087
(1739018587.535) RX 1DC#B40F8FFD0CCCD8E4
(1739018587.535) RX 11A#01400055400002D8
(1739018587.537) RX 1DA#C064180000010322
(1739018587.540) RX 1D4#F7070000C74600B7
(1739018587.541) RX 1F2#10640000001E030F
(1739018587.541) RX 284#000000000000CB51
(1739018587.542) RX 1C2#57
(1739018587.545) RX 1DB#FFE0BF6A00000102
(1739018587.545) RX 1DC#B40F8FFD0130C9CE
(1739018587.545) RX 11A#014000AA800003CE
(1739018587.546) RX 380#02041021000000B0
(1739018587.547) RX 54A#9E0070072600002C
(1739018587.547) RX 1DA#C064180000010028
(1739018587.547) RX 5BF#0000000028000009
(1739018587.547) RX 54B#004888120C000001
(1739018587.548) RX 54C#7766400000405800
(1739018587.549) RX 54F#2B01000007C08A5F
(1739018587.551) RX 1D4#F70700000746007B
(1739018587.551) RX 1F2#10640000001E000C
(1739018587.552) RX 1C2#58
(1739018587.555) RX 11A#014000AAC0000003
(1739018587.555) RX 1DB#FFE0BF6A00000208
(1739018587.555) RX 1DC#B40F8FFD0520C64C
(1739018587.557) RX 1DA#C0641800000101AD
(1739018587.561) RX 1D4#F7070000474600BC
(1739018587.561) RX 1F2#10640000001E010D
(1739018587.561) RX 284#000000000000CC52
(1739018587.562) RX 1C2#59
(1739018587.565) RX 1DB#FFE0BF6A0000038D
(1739018587.565) RX 1DC#B40F8FFD08C0CB1B
(1739018587.565) RX 11A#0140005500000115
(1739018587.567) RX 1DA#C0641800000102A7
(1739018587.571) RX 1D4#F707000087460070
(1739018587.571) RX 1F2#10640000001E020E
(1739018587.572) RX 1C2#5A
(1739018587.575) RX 1DB#FFE0BF6A00000087
(1739018587.575) RX 11A#01400055400002D8
(1739018587.575) RX 1DC#B40F8FFD0CCCD8E4
(1739018587.577) RX 1DA#C064180000010322
(1739018587.581) RX 1D4#F7070000C74600B7
(1739018587.582) RX 1F2#10640000001E030F
(1739018587.582) RX 1C2#5B
(1739018587.582) RX 284#000000000000CD53
(1739018587.585) RX 1DB#FFE0BF6A00000102
(1739018587.585) RX 11A#014000AA800003CE
(1739018587.586) RX 1DC#B40F8FFD0130C9CE
(1739018587.586) RX 55B#C780AA00E50012FE
(1739018587.586) RX 5BC#59032C26B3040087
(1739018587.587) RX 1DA#C064180000010028
(1739018587.592) RX 1D4#F70700000746007B
(1739018587.592) RX 1C2#5C
(1739018587.592) RX 1F2#10640000001E000C
(1739018587.592) RX 50C#00000000B2A6
(1739018587.595) RX 11A#014000AAC0000003
(1739018587.595) RX 1DB#FFE0BF6A00000208
(1739018587.595) RX 1DC#B40F8FFD0520C64C
(1739018587.597) RX 1DA#C0641800000101AD
(1739018587.602) RX 1D4#F7070000474600BC
(1739018587.602) RX 1C2#5D
(1739018587.602) RX 1F2#10640000001E010D
(1739018587.602) RX 284#000000000000CE54
(1739018587.603) RX 5A9#643BB01304300000
(1739018587.605) RX 1DB#FFE0BF6A0000038D
(1739018587.605) RX 1DC#B40F8FFD08C0CB1B
(1739018587.606) RX 11A#0140005500000115
(1739018587.607) RX 1DA#C0641800000102A7
(1739018587.607) RX 55A#00302F005F315B48
(1739018587.612) RX 1C2#5E
(1739018587.612) RX 1D4#F707000087460070
(1739018587.612) RX 1F2#10640000001E020E
(1739018587.612) RX 50A#8512A00D8020
(1739018587.615) RX 1DB#FFE0BF6A00000087
(1739018587.615) RX 11A#01400055400002D8
(1739018587.615) RX 1DC#B40F8FFD0CCCD8E4
(1739018587.617) RX 1DA#C064180000010322
(1739018587.622) RX 1C2#5F
(1739018587.622) RX 1D4#F7070000C74600B7
(1739018587.622) RX 1F2#10640000001E030F
(1739018587.623) RX 284#000000000000CF55
(1739018587.625) RX 1DB#FFE0BF6A00000102
(1739018587.625) RX 1DC#B40F8FFD0130C9CE
(1739018587.626) RX 11A#014000AA800003CE
(1739018587.627) RX 1DA#C064180000010028
(1739018587.632) RX 1C2#50
(1739018587.632) RX 1D4#F70700000746007B
(1739018587.633) RX 1F2#10640000001E000C
(1739018587.633) RX 50B#000006C00060
(1739018587.635) RX 11A#014000AAC0000003
(1739018587.635) RX 1DB#FFE0BF6A00000208
(1739018587.636) RX 1DC#B40F8FFD0520C64C
(1739018587.637) RX 1DA#C0641800000101AD
(1739018587.642) RX 1C2#51
(1739018587.643) RX 1D4#F7070000474600BC
(1739018587.643) RX 1F2#10640000001E010D
(1739018587.643) RX 284#000000000000D056
(1739018587.645) RX 1DB#FFE0BF6A0000038D
(1739018587.645) RX 11A#0140005500000115
(1739018587.646) RX 1DC#B40F8FFD08C0CB1B
(1739018587.646) RX 380#020410210000008D
(1739018587.647) RX 54A#100070072600002C
(1739018587.647) RX 1DA#C0641800000102A7
(1739018587.647) RX 5BF#000000002800001A
(1739018587.647) RX 54B#004888120C000001
(1739018587.648) RX 54C#7766400000405800
(1739018587.649) RX 54F#2B01000007008A5F
(1739018587.652) RX 1C2#52
(1739018587.653) RX 1D4#F707000087460070
(1739018587.653) RX 1F2#10640000001E020E
(1739018587.654) RX 284#000000000000D157
(1739018587.655) RX 11A#01400055400002D8
(1739018587.655) RX 1DB#FFE0BF6A00000087
(1739018587.656) RX 1DC#B40F8FFD0CCCD8E4
(1739018587.657) RX 1DA#C064180000010322
(1739018587.662) RX 1C2#53
(1739018587.663) RX 1D4#F7070000C74600B7
(1739018587.663) RX 1F2#10640000001E030F
(1739018587.665) RX 1DB#FFE0BF6A00000102
(1739018587.665) RX 11A#014000AA800003CE
(1739018587.666) RX 1DC#B40F8FFD0130C9CE
(1739018587.667) RX 1DA#C064180000010028
(1739018587.672) RX 1C2#54
(1739018587.673) RX 1D4#F70700000746007B
(1739018587.674) RX 1F2#10640000001E000C
(1739018587.674) RX 284#000000000000D258
(1739018587.674) RX 5B9#67FF67FF28
(1739018587.675) RX 11A#014000AAC0000003
(1739018587.675) RX 1DB#FFE0BF6A00000208
(1739018587.676) RX 1DC#B40F8FFD0520C64C
(1739018587.677) RX 1DA#C0641800000101AD
(1739018587.682) RX 1C2#55
(1739018587.684) RX 1D4#F7070000474600BC
(1739018587.684) RX 1F2#10640000001E010D
(1739018587.685) RX 1DB#FFE0BF6A0000038D
(1739018587.686) RX 11A#0140005500000115
(1739018587.686) RX 1DC#B40F8FFD08C0CB1B
(1739018587.686) RX 55B#C780AA00E500137B
(1739018587.686) RX 5BC#59032C26B3040087
(1739018587.687) RX 1DA#C0641800000102A7
(1739018587.692) RX 1C2#56
(1739018587.694) RX 1D4#F707000087460070
(1739018587.694) RX 1F2#10640000001E020E
(1739018587.694) RX 284#000000000000D359
(1739018587.695) RX 50C#000000015D5F
(1739018587.695) RX 11A#01400055400002D8
(1739018587.695) RX 1DB#FFE0BF6A00000087
(1739018587.696) RX 1DC#B40F8FFD0CCCD8E4
(1739018587.697) RX 1DA#C064180000010322
(1739018587.702) RX 1C2#57
(1739018587.704) RX 1D4#F7070000C74600B7
(1739018587.704) RX 1F2#10640000001E030F
(1739018587.705) RX 1DB#FFE0BF6A00000102
(1739018587.706) RX 11A#014000AA800003CE
(1739018587.706) RX 1DC#B40F8FFD0130C9CE
(1739018587.707) RX 1DA#C064180000010028
(1739018587.707) RX 55A#00302F005F315B48
(1739018587.712) RX 1C2#58
(1739018587.714) RX 1D4#F70700000746007B
(1739018587.715) RX 11A#014000AAC0000003
(1739018587.715) RX 1F2#10640000001E000C
(1739018587.715) RX 284#000000000000D45A
(1739018587.715) RX 1DB#FFE0BF6A00000208
(1739018587.716) RX 50A#8532A00D8020
(1739018587.716) RX 1DC#B40F8FFD0520C64C
(1739018587.717) RX 1DA#C0641800000101AD
(1739018587.722) RX 1C2#59
(1739018587.725) RX 1D4#F7070000474600BC
(1739018587.725) RX 1F2#10640000001E010D
(1739018587.725) RX 11A#0140005500000115
(1739018587.726) RX 1DB#FFC0BF6A000003DC
(1739018587.726) RX 1DC#B40F8FFD08C0CB1B
(1739018587.727) RX 1DA#C0641800000102A7
(1739018587.732) RX 1C2#5A
(1739018587.735) RX 1D4#F707000087460070
(1739018587.735) RX 11A#01400055400002D8
(1739018587.735) RX 1DB#FFC0BF6A000000D6
(1739018587.736) RX 1F2#10640000001E020E
(1739018587.736) RX 1DC#B40F8FFD0CCCD8E4
(1739018587.736) RX 284#000000000000D55B
(1739018587.736) RX 50B#000006C00060
(1739018587.737) RX 1DA#C064180000010322
(1739018587.742) RX 1C2#5B
(1739018587.745) RX 1D4#F7070000C74600B7
(1739018587.745) RX 1DB#FFC0BF6A00000153
(1739018587.746) RX 11A#014000AA800003CE
(1739018587.746) RX 1DC#B40F8FFD0130C9CE
(1739018587.746) RX 1F2#10640000001E030F
(1739018587.746) RX 380#020410210000009E
(1739018587.747) RX 1DA#C064180000010028
(1739018587.747) RX 54A#9E0070072600002C
(1739018587.747) RX 5BF#000000002800002B
(1739018587.748) RX 54B#004888120C000001
(1739018587.749) RX 54C#7766400000405800
(1739018587.750) RX 54F#2B01000007408A5F
(1739018587.752) RX 1C2#5C
(1739018587.755) RX 11A#014000AAC0000003
(1739018587.755) RX 1D4#F70700000746007B
(1739018587.756) RX 1DB#FFC0BF6A00000259
(1739018587.756) RX 1F2#10640000001E000C
(1739018587.756) RX 1DC#B40F8FFD0520C64C
(1739018587.756) RX 284#000000000000D65C
(1739018587.757) RX 1DA#C0641800000101AD
(1739018587.762) RX 1C2#5D
(1739018587.765) RX 11A#0140005500000115
(1739018587.766) RX 1D4#F7070000474600BC
(1739018587.766) RX 1DB#FFC0BF6A000003DC
(1739018587.766) RX 1F2#10640000001E010D
(1739018587.766) RX 1DC#B40F8FFD08C0CB1B
(1739018587.767) RX 1DA#C0641800000102A7
(1739018587.772) RX 1C2#5E
(1739018587.775) RX 11A#01400055400002D8
(1739018587.776) RX 1DB#FFC0BF6A000000D6
(1739018587.776) RX 1DC#B40F8FFD0CCCD8E4
(1739018587.776) RX 1D4#F707000087460070
(1739018587.776) RX 1F2#10640000001E020E
(1739018587.777) RX 284#000000000000D75D
(1739018587.777) RX 1DA#C064180000010322
(1739018587.782) RX 1C2#5F
(1739018587.785) RX 11A#014000AA800003CE
(1739018587.786) RX 1DB#FFC0BF6A00000153
(1739018587.786) RX 1DC#B40F8FFD0130C9CE
(1739018587.786) RX 1D4#F7070000C74600B7
(1739018587.786) RX 1F2#10640000001E030F
(1739018587.787) RX 1DA#C064180000010028
(1739018587.787) RX 55B#C7805500E5001036
(1739018587.787) RX 5BC#59032C26B3040087
(1739018587.792) RX 1C2#50
