(1739001973.500) RX 1DA#C1641800000102A0
(1739001973.500) RX 11A#01400055400002D8
(1739001973.500) RX 1C2#54
(1739001973.505) RX 1D4#F7070000C74600B7
(1739001973.506) RX 1F2#10640000001E030F
(1739001973.506) RX 1DB#FDC0BFEA000002EE
(1739001973.507) RX 1DC#B40F8FFD0520C64C
(1739001973.510) RX 1DA#C164180000010325
(1739001973.510) RX 1C2#55
(1739001973.510) RX 11A#014000AA800003CE
(1739001973.513) RX 54A#100070062600002D
(1739001973.514) RX 1D4#F70700000746007B
(1739001973.514) RX 1F2#10640000001E000C
(1739001973.514) RX 284#00000000000070F6
(1739001973.514) RX 50C#00000000B2A6
(1739001973.515) RX 54B#0076981224000000
(1739001973.515) RX 54C#6C66400000705B00
(1739001973.516) RX 54F#2501000007878A5A
(1739001973.517) RX 1DB#FDC0BFEA0000036B
(1739001973.517) RX 1DC#B40F8FFD08C0CB1B
(1739001973.519) RX 11A#014000AAC0000003
(1739001973.520) RX 1DA#C16418000001002F
(1739001973.520) RX 1C2#56
(1739001973.524) RX 1D4#F7070000474600BC
(1739001973.524) RX 1F2#10640000001E010D
(1739001973.526) RX 1DB#FDC0BFEA00000061
(1739001973.527) RX 1DC#B40F8FFD0CCCD8E4
(1739001973.530) RX 1DA#C1641800000101AA
(1739001973.530) RX 1C2#57
(1739001973.530) RX 11A#0140005500000115
(1739001973.534) RX 1D4#F707000087460070
(1739001973.534) RX 1F2#10640000001E020E
(1739001973.534) RX 284#00000000000071F7
(1739001973.535) RX 50A#8512A00D8020
(1739001973.537) RX 1DB#FDC0BFEA000001E4
(1739001973.537) RX 1DC#B40F8FFD0130C9CE
(1739001973.540) RX 1DA#C1641800000102A0
(1739001973.540) RX 11A#01400055400002D8
(1739001973.540) RX 1C2#58
(1739001973.544) RX 1D4#F7070000C74600B7
(1739001973.544) RX 1F2#10640000001E030F
(1739001973.547) RX 1DB#FDC0BFEA000002EE
(1739001973.547) RX 1DC#B40F8FFD0520C64C
(1739001973.550) RX 1DA#C164180000010325
(1739001973.550) RX 11A#014000AA800003CE
(1739001973.550) RX 1C2#59
(1739001973.554) RX 1D4#F70700000746007B
(1739001973.555) RX 1F2#10640000001E000C
(1739001973.555) RX 284#00000000000072F8
(1739001973.555) RX 50B#000006C00060
(1739001973.557) RX 1DB#FDC0BFEA0000036B
(1739001973.557) RX 1DC#B40F8FFD08C0CB1B
(1739001973.560) RX 11A#014000AAC0000003
(1739001973.560) RX 1DA#C16418000001002F
(1739001973.560) RX 55A#003330005F365B08
(1739001973.560) RX 1C2#5A
(1739001973.565) RX 1D4#F7070000474600BC
(1739001973.565) RX 1F2#10640000001E010D
(1739001973.567) RX 1DB#FDC0BFEA00000061
(1739001973.567) RX 1DC#B40F8FFD0CCCD8E4
(1739001973.570) RX 1DA#C1641800000101AA
(1739001973.570) RX 11A#0140005500000115
(1739001973.570) RX 1C2#5B
(1739001973.575) RX 1D4#F707000087460070
(1739001973.575) RX 1F2#10640000001E020E
(1739001973.575) RX 284#00000000000073F9
(1739001973.577) RX 1DB#FDC0BFEA000001E4
(1739001973.577) RX 1DC#B40F8FFD0130C9CE
(1739001973.577) RX 55B#C980AA00E440103D
(1739001973.578) RX 5BC#5A032C26B30620A0
(1739001973.580) RX 1DA#C1641800000102A0
(1739001973.580) RX 11A#01400055400002D8
(1739001973.580) RX 1C2#5C
(1739001973.585) RX 1D4#F7070000C74600B7
(1739001973.585) RX 1F2#10640000001E030F
(1739001973.587) RX 1DB#FDC0BFEA000002EE
(1739001973.587) RX 1DC#B40F8FFD0520C64C
(1739001973.590) RX 1DA#C164180000010325
(1739001973.590) RX 11A#014000AA800003CE
(1739001973.590) RX 1C2#5D
(1739001973.595) RX 1D4#F70700000746007B
(1739001973.596) RX 1F2#10640000001E000C
(1739001973.596) RX 284#00000000000074FA
(1739001973.596) RX 380#020410210000008D
(1739001973.596) RX 5BF#000000002800001A
(1739001973.597) RX 1DB#FDC0BFEA0000036B
(1739001973.597) RX 1DC#B40F8FFD08C0CB1B
(1739001973.599) RX 11A#014000AAC0000003
(1739001973.600) RX 1DA#C16418000001002F
(1739001973.600) RX 1C2#5E
(1739001973.612) RX 1D4#F7070000474600BC
(1739001973.612) RX 1F2#10640000001E010D
(1739001973.612) RX 1DB#FDE0BFEA00000030
(1739001973.613) RX 1DC#B40F8FFD0CCCD8E4
(1739001973.613) RX 1DA#C1641800000101AA
(1739001973.613) RX 11A#0140005500000115
(1739001973.613) RX 1C2#5F
(1739001973.613) RX 54A#9E0070062600002D
(1739001973.614) RX 54B#0076981224000000
(1739001973.615) RX 54C#6C66400000705B00
(1739001973.616) RX 1D4#F707000087460070
(1739001973.616) RX 1F2#10640000001E020E
(1739001973.618) RX 284#00000000000075FB
(1739001973.618) RX 50C#000000015D5F
(1739001973.618) RX 54F#2501000007C78A5A
(1739001973.618) RX 1DB#FE00BFEA0000018E
(1739001973.618) RX 1DC#B40F8FFD0130C9CE
(1739001973.620) RX 1DA#C1641800000102A0
(1739001973.620) RX 11A#01400055400002D8
(1739001973.620) RX 1C2#50
(1739001973.626) RX 1D4#F7070000C74600B7
(1739001973.627) RX 1F2#10640000001E030F
(1739001973.627) RX 1DB#FE20BFEA000002D5
(1739001973.627) RX 1DC#B40F8FFD0520C64C
(1739001973.630) RX 1DA#C164180000010325
(1739001973.630) RX 11A#014000AA800003CE
(1739001973.630) RX 1C2#51
(1739001973.636) RX 1D4#F70700000746007B
(1739001973.637) RX 1F2#10640000001E000C
(1739001973.637) RX 284#00000000000076FC
(1739001973.637) RX 1DB#FE40BFEA000003A3
(1739001973.637) RX 50A#8532A00D8020
(1739001973.637) RX 1DC#B40F8FFD08C0CB1B
(1739001973.640) RX 11A#014000AAC0000003
(1739001973.640) RX 1DA#C16418000001002F
(1739001973.640) RX 1C2#52
(1739001973.646) RX 1D4#F7070000474600BC
(1739001973.647) RX 1F2#10640000001E010D
(1739001973.647) RX 1DB#FE60BFEA000000F8
(1739001973.647) RX 1DC#B40F8FFD0CCCD8E4
(1739001973.650) RX 1DA#C1641800000101AA
(1739001973.650) RX 11A#0140005500000115
(1739001973.650) RX 1C2#53
(1739001973.657) RX 1D4#F707000087460070
(1739001973.657) RX 1DB#FE60C02A00000102
(1739001973.657) RX 1F2#10640000001E020E
(1739001973.657) RX 1DC#B40F8FFD0130C9CE
(1739001973.658) RX 284#00000000000077FD
(1739001973.658) RX 50B#000006C00060
(1739001973.660) RX 1DA#C1641800000102A0
(1739001973.660) RX 55A#003230005F365B08
(1739001973.660) RX 11A#01400055400002D8
(1739001973.660) RX 1C2#54
(1739001973.667) RX 1DB#FE80C02A0000023A
(1739001973.667) RX 1D4#F7070000C74600B7
(1739001973.667) RX 1DC#B40F8FFD0520C64C
(1739001973.668) RX 1F2#10640000001E030F
(1739001973.670) RX 1DA#C164180000010325
(1739001973.670) RX 11A#014000AA800003CE
(1739001973.670) RX 1C2#55
(1739001973.677) RX 1DB#FEA0C02A000003EE
(1739001973.677) RX 1D4#F70700000746007B
(1739001973.678) RX 1DC#B40F8FFD08C0CB1B
(1739001973.678) RX 1F2#10640000001E000C
(1739001973.678) RX 284#00000000000078FE
(1739001973.678) RX 55B#C9805500E44011FF
(1739001973.679) RX 5BC#5A032C26B30620A0
(1739001973.679) RX 11A#014000AAC0000003
(1739001973.680) RX 1DA#C16418000001002F
(1739001973.680) RX 1C2#56
(1739001973.687) RX 1DB#FEC0C02A00000017
(1739001973.687) RX 1DC#B40F8FFD0CCCD8E4
(1739001973.688) RX 1D4#F7070000474600BC
(1739001973.688) RX 1F2#10640000001E010D
(1739001973.690) RX 1DA#C1641800000101AA
(1739001973.690) RX 11A#0140005500000115
(1739001973.690) RX 1C2#57
(1739001973.696) RX 380#020410210000009E
(1739001973.696) RX 5BF#000000002800002B
(1739001973.697) RX 1DB#FEE0C02A000001C3
(1739001973.698) RX 1DC#B40F8FFD0130C9CE
(1739001973.698) RX 1D4#F707000087460070
(1739001973.698) RX 1F2#10640000001E020E
(1739001973.698) RX 284#00000000000079FF
(1739001973.700) RX 1DA#C1641800000102A0
(1739001973.700) RX 11A#01400055400002D8
(1739001973.701) RX 1C2#58
(1739001973.707) RX 1DB#FEE0C02A000002C9
(1739001973.707) RX 1DC#B40F8FFD0520C64C
(1739001973.708) RX 1D4#F7070000C74600B7
(1739001973.708) RX 1F2#10640000001E030F
(1739001973.710) RX 1DA#C164180000010325
(1739001973.710) RX 11A#014000AA800003CE
(1739001973.710) RX 1C2#59
(1739001973.714) RX 54A#100070062600002D
(1739001973.714) RX 54B#0076981224000000
(1739001973.716) RX 54C#6C66400000705B00
(1739001973.717) RX 54F#2501000007078A5A
(1739001973.717) RX 1DB#FEE0C02A0000034C
(1739001973.717) RX 1DC#B40F8FFD08C0CB1B
(1739001973.718) RX 1D4#F70700000746007B
(1739001973.719) RX 1F2#10640000001E000C
(1739001973.719) RX 284#0000000000007A00
(1739001973.719) RX 50C#00000002B20D
(1739001973.720) RX 11A#014000AAC0000003
(1739001973.720) RX 1DA#C16418000001002F
(1739001973.721) RX 1C2#5A
(1739001973.727) RX 1DB#FEE0C02A00000046
(1739001973.727) RX 1DC#B40F8FFD0CCCD8E4
(1739001973.728) RX 1D4#F7070000474600BC
(1739001973.729) RX 1F2#10640000001E010D
(1739001973.730) RX 1DA#C1641800000101AA
(1739001973.730) RX 11A#0140005500000115
(1739001973.731) RX 1C2#5B
(1739001973.737) RX 1DB#FEE0C02A000001C3
(1739001973.737) RX 1DC#B40F8FFD0130C9CE
(1739001973.739) RX 1D4#F707000087460070
(1739001973.739) RX 1F2#10640000001E020E
(1739001973.739) RX 284#0000000000007B01
(1739001973.739) RX 50A#8552A00D8020
(1739001973.740) RX 1DA#C1641800000102A0
(1739001973.740) RX 11A#01400055400002D8
(1739001973.741) RX 1C2#5C
(1739001973.747) RX 1DB#FEE0C02A000002C9
(1739001973.747) RX 1DC#B40F8FFD0520C64C
(1739001973.749) RX 1D4#F7070000C74600B7
(1739001973.749) RX 1F2#10640000001E030F
(1739001973.750) RX 1DA#C164180000010325
(1739001973.750) RX 11A#014000AA800003CE
(1739001973.751) RX 1C2#5D
(1739001973.757) RX 1DB#FEE0C02A0000034C
(1739001973.757) RX 1DC#B40F8FFD08C0CB1B
(1739001973.759) RX 1D4#F70700000746007B
(1739001973.759) RX 1F2#10640000001E000C
(1739001973.760) RX 11A#014000AAC0000003
(1739001973.760) RX 1DA#C16418000001002F
(1739001973.760) RX 284#0000000000007C02
(1739001973.760) RX 50B#000006C00060
(1739001973.761) RX 55A#003230005F365B08
(1739001973.761) RX 1C2#5E
(1739001973.767) RX 1DB#FEE0C02A00000046
(1739001973.767) RX 1DC#B40F8FFD0CCCD8E4
(1739001973.769) RX 1D4#F7070000474600BC
(1739001973.770) RX 1DA#C1641800000101AA
(1739001973.770) RX 1F2#10640000001E010D
(1739001973.770) RX 11A#0140005500000115
(1739001973.771) RX 1C2#5F
(1739001973.777) RX 1DB#FEE0C02A000001C3
(1739001973.778) RX 1DC#B40F8FFD0130C9CE
(1739001973.778) RX 55B#C980AA00E4C0120D
(1739001973.778) RX 5BC#5A032C26B30620A0
(1739001973.780) RX 1DA#C1641800000102A0
(1739001973.780) RX 1D4#F707000087460070
(1739001973.780) RX 11A#01400055400002D8
(1739001973.780) RX 1F2#10640000001E020E
(1739001973.781) RX 284#0000000000007D03
(1739001973.781) RX 1C2#50
(1739001973.787) RX 1DB#FEE0C02A000002C9
(1739001973.787) RX 1DC#B40F8FFD0520C64C
(1739001973.790) RX 1DA#C164180000010325
(1739001973.790) RX 1D4#F7070000C74600B7
(1739001973.790) RX 1F2#10640000001E030F
(1739001973.790) RX 11A#014000AA800003CE
(1739001973.791) RX 1C2#51
(1739001973.796) RX 380#02041021000000AF
(1739001973.796) RX 5BF#000000002800003C
(1739001973.797) RX 1DB#FEE0C02A0000034C
(1739001973.798) RX 1DC#B40F8FFD08C0CB1B
(1739001973.799) RX 11A#014000AAC0000003
(1739001973.800) RX 1DA#C16418000001002F
(1739001973.800) RX 1D4#F70700000746007B
(1739001973.800) RX 1F2#10640000001E000C
(1739001973.801) RX 284#0000000000007E04
(1739001973.801) RX 1C2#52
(1739001973.807) RX 1DB#FEE0C02A00000046
(1739001973.808) RX 1DC#B40F8FFD0CCCD8E4
(1739001973.810) RX 1DA#C1641800000101AA
(1739001973.810) RX 11A#0140005500000115
(1739001973.810) RX 1D4#F7070000474600BC
(1739001973.811) RX 1F2#10640000001E010D
(1739001973.811) RX 1C2#53
(1739001973.811) RX 284#0000000000007F05
(1739001973.814) RX 54A#9E0070062600002D
(1739001973.815) RX 54B#0076981224000000
(1739001973.816) RX 54C#6C66400000705B00
(1739001973.817) RX 54F#2501000007478A5A
(1739001973.817) RX 1DB#FEE0C02A000001C3
(1739001973.818) RX 1DC#B40F8FFD0130C9CE
(1739001973.820) RX 1DA#C1641800000102A0
(1739001973.820) RX 11A#01400055400002D8
(1739001973.821) RX 1D4#F707000087460070
(1739001973.821) RX 1C2#54
(1739001973.821) RX 1F2#10640000001E020E
(1739001973.821) RX 50C#000000035DF4
(1739001973.827) RX 1DB#FEE0C02A000002C9
(1739001973.828) RX 1DC#B40F8FFD0520C64C
(1739001973.830) RX 1DA#C164180000010325
(1739001973.830) RX 11A#014000AA800003CE
(1739001973.831) RX 1D4#F7070000C74600B7
(1739001973.831) RX 1C2#55
(1739001973.831) RX 1F2#10640000001E030F
(1739001973.832) RX 284#0000000000008006
(1739001973.832) RX 5A9#643C501304300000
(1739001973.837) RX 1DB#FEE0C02A0000034C
(1739001973.838) RX 1DC#B40F8FFD08C0CB1B
(1739001973.839) RX 11A#014000AAC0000003
(1739001973.840) RX 1DA#C16418000001002F
(1739001973.841) RX 1C2#56
(1739001973.841) RX 1D4#F70700000746007B
(1739001973.841) RX 1F2#10640000001E000C
(1739001973.842) RX 50A#8572A00D8020
(1739001973.847) RX 1DB#FEE0C02A00000046
(1739001973.848) RX 1DC#B40F8FFD0CCCD8E4
(1739001973.850) RX 1DA#C1641800000101AA
(1739001973.850) RX 11A#0140005500000115
(1739001973.851) RX 1C2#57
(1739001973.851) RX 1D4#F7070000474600BC
(1739001973.852) RX 1F2#10640000001E010D
(1739001973.852) RX 284#0000000000008107
(1739001973.857) RX 1DB#FEE0C02A000001C3
(1739001973.858) RX 1DC#B40F8FFD0130C9CE
(1739001973.860) RX 1DA#C1641800000102A0
(1739001973.860) RX 55A#003330005F365B08
(1739001973.860) RX 11A#01400055400002D8
(1739001973.861) RX 1C2#58
(1739001973.862) RX 1D4#F707000087460070
(1739001973.862) RX 1F2#10640000001E020E
(1739001973.862) RX 50B#000006C00060
(1739001973.867) RX 1DB#FEE0C02A000002C9
(1739001973.868) RX 1DC#B40F8FFD0520C64C
(1739001973.870) RX 1DA#C164180000010325
(1739001973.870) RX 11A#014000AA800003CE
(1739001973.871) RX 1C2#59
(1739001973.872) RX 1D4#F7070000C74600B7
(1739001973.872) RX 1F2#10640000001E030F
(1739001973.872) RX 284#0000000000008208
(1739001973.878) RX 1DB#FEE0C02A0000034C
(1739001973.878) RX 1DC#B40F8FFD08C0CB1B
(1739001973.878) RX 55B#C9805500E4C013CF
(1739001973.879) RX 5BC#5A032C26B30620A0
(1739001973.879) RX 11A#014000AAC0000003
(1739001973.880) RX 1DA#C16418000001002F
(1739001973.881) RX 1C2#5A
(1739001973.882) RX 1D4#F70700000746007B
(1739001973.882) RX 1F2#10640000001E000C
(1739001973.887) RX 1DB#FEE0C02A00000046
(1739001973.888) RX 1DC#B40F8FFD0CCCD8E4
(1739001973.890) RX 1DA#C1641800000101AA
(1739001973.890) RX 11A#0140005500000115
(1739001973.891) RX 1C2#5B
(1739001973.892) RX 1D4#F7070000474600BC
(1739001973.893) RX 1F2#10640000001E010D
(1739001973.893) RX 284#0000000000008309
(1739001973.896) RX 380#02041021000000B0
(1739001973.896) RX 5BF#0000000028000009
(1739001973.898) RX 1DB#FEE0C02A000001C3
(1739001973.898) RX 1DC#B40F8FFD0130C9CE
(1739001973.900) RX 1DA#C1641800000102A0
(1739001973.900) RX 11A#01400055400002D8
(1739001973.901) RX 1C2#5C
(1739001973.903) RX 1D4#F707000087460070
(1739001973.903) RX 1F2#10640000001E020E
(1739001973.903) RX 5B9#67FF67FF28
(1739001973.908) RX 1DB#FEE0C02A000002C9
(1739001973.908) RX 1DC#B40F8FFD0520C64C
(1739001973.910) RX 1DA#C164180000010325
(1739001973.910) RX 11A#014000AA800003CE
(1739001973.911) RX 1C2#5D
(1739001973.913) RX 1D4#F7070000C74600B7
(1739001973.913) RX 1F2#10640000001E030F
(1739001973.913) RX 284#000000000000840A
(1739001973.914) RX 54A#100070062600002D
(1739001973.915) RX 54B#0076981224000000
(1739001973.916) RX 54C#6C66400000705B00
(1739001973.917) RX 54F#2501000007878A5A
(1739001973.918) RX 1DB#FEE0C02A0000034C
(1739001973.918) RX 1DC#B40F8FFD08C0CB1B
(1739001973.919) RX 11A#014000AAC0000003
(1739001973.920) RX 1DA#C16418000001002F
(1739001973.921) RX 1C2#5E
(1739001973.923) RX 1D4#F70700000746007B
(1739001973.923) RX 1F2#10640000001E000C
(1739001973.924) RX 50C#00000000B2A6
(1739001973.928) RX 1DB#FEE0C02A00000046
(1739001973.928) RX 1DC#B40F8FFD0CCCD8E4
(1739001973.930) RX 1DA#C1641800000101AA
(1739001973.930) RX 11A#0140005500000115
(1739001973.931) RX 1C2#5F
(1739001973.933) RX 1D4#F7070000474600BC
(1739001973.934) RX 1F2#10640000001E010D
(1739001973.934) RX 284#000000000000850B
(1739001973.938) RX 1DB#FEE0C02A000001C3
(1739001973.938) RX 1DC#B40F8FFD0130C9CE
(1739001973.940) RX 1DA#C1641800000102A0
(1739001973.940) RX 11A#01400055400002D8
(1739001973.941) RX 1C2#50
(1739001973.944) RX 1D4#F707000087460070
(1739001973.944) RX 1F2#10640000001E020E
(1739001973.944) RX 50A#8512A00D8020
(1739001973.948) RX 1DB#FEE0C02A000002C9
(1739001973.948) RX 1DC#B40F8FFD0520C64C
(1739001973.950) RX 1DA#C164180000010325
(1739001973.950) RX 11A#014000AA800003CE
(1739001973.951) RX 1C2#51
(1739001973.954) RX 1D4#F7070000C74600B7
(1739001973.954) RX 1F2#10640000001E030F
(1739001973.954) RX 284#000000000000860C
(1739001973.958) RX 1DB#FEE0C02A0000034C
(1739001973.958) RX 1DC#B40F8FFD08C0CB1B
(1739001973.959) RX 11A#014000AAC0000003
(1739001973.960) RX 1DA#C16418000001002F
(1739001973.960) RX 55A#003230005F365B08
(1739001973.961) RX 1C2#52
(1739001973.964) RX 1D4#F70700000746007B
(1739001973.964) RX 1F2#10640000001E000C
(1739001973.965) RX 50B#000006C00060
(1739001973.968) RX 1DB#FEE0C02A00000046
(1739001973.968) RX 1DC#B40F8FFD0CCCD8E4
(1739001973.970) RX 1DA#C1641800000101AA
(1739001973.970) RX 11A#0140005500000115
(1739001973.971) RX 1C2#53
(1739001973.974) RX 1D4#F7070000474600BC
(1739001973.975) RX 1F2#10640000001E010D
(1739001973.975) RX 284#000000000000870D
(1739001973.978) RX 1DB#FEE0C02A000001C3
(1739001973.978) RX 1DC#B40F8FFD0130C9CE
(1739001973.979) RX 55B#C980AA00E4C01082
(1739001973.979) RX 5BC#5A032C26B30620A0
(1739001973.980) RX 1DA#C1641800000102A0
(1739001973.980) RX 11A#01400055400002D8
(1739001973.981) RX 1C2#54
(1739001973.985) RX 1D4#F707000087460070
(1739001973.985) RX 1F2#10640000001E020E
(1739001973.988) RX 1DB#FEE0C02A000002C9
(1739001973.988) RX 1DC#B40F8FFD0520C64C
(1739001973.989) RX 5C0#804C4C0004A01400
(1739001973.989) RX 5EB#E00FFFFFFFFFFFFF
(1739001973.990) RX 1DA#C164180000010325
(1739001973.990) RX 11A#014000AA800003CE
(1739001973.991) RX 1C2#55
(1739001973.995) RX 1D4#F7070000C74600B7
(1739001973.995) RX 1F2#10640000001E030F
(1739001973.995) RX 284#000000000000880E
(1739001973.996) RX 380#020410210000008D
(1739001973.996) RX 5BF#000000002800001A
(1739001973.998) RX 1DB#FEE0C02A0000034C
(1739001973.998) RX 1DC#B40F8FFD08C0CB1B
(1739001973.999) RX 11A#014000AAC0000003
(1739001974.000) RX 1DA#C16418000001002F
(1739001974.001) RX 1C2#56
(1739001974.005) RX 1D4#F70700000746007B
(1739001974.005) RX 1F2#10640000001E000C
(1739001974.008) RX 1DB#FEE0C02A00000046
(1739001974.008) RX 1DC#B40F8FFD0CCCD8E4
(1739001974.010) RX 1DA#C1641800000101AA
(1739001974.010) RX 11A#0140005500000115
(1739001974.011) RX 1C2#57
(1739001974.014) RX 54A#9E0070062600002D
(1739001974.015) RX 54B#0076981224000000
(1739001974.015) RX 1D4#F7070000474600BC
(1739001974.016) RX 1F2#10640000001E010D
(1739001974.016) RX 284#000000000000890F
(1739001974.016) RX 54C#6C66400000705B00
(1739001974.017) RX 54F#2501000007C78A5A
(1739001974.018) RX 1DB#FEE0C02A000001C3
(1739001974.018) RX 1DC#B40F8FFD0130C9CE
(1739001974.020) RX 1DA#C1641800000102A0
(1739001974.020) RX 11A#01400055400002D8
(1739001974.021) RX 1C2#58
(1739001974.026) RX 1D4#F707000087460070
(1739001974.026) RX 1F2#10640000001E020E
(1739001974.026) RX 50C#000000015D5F
(1739001974.028) RX 1DB#FEE0C02A000002C9
(1739001974.028) RX 1DC#B40F8FFD0520C64C
(1739001974.030) RX 1DA#C164180000010325
(1739001974.030) RX 11A#014000AA800003CE
(1739001974.031) RX 1C2#59
(1739001974.036) RX 1D4#F7070000C74600B7
(1739001974.036) RX 1F2#10640000001E030F
(1739001974.036) RX 284#0000000000008A10
(1739001974.038) RX 1DB#FEE0C02A0000034C
(1739001974.038) RX 1DC#B40F8FFD08C0CB1B
(1739001974.039) RX 11A#014000AAC0000003
(1739001974.040) RX 1DA#C16418000001002F
(1739001974.041) RX 1C2#5A
(1739001974.046) RX 1D4#F70700000746007B
(1739001974.046) RX 1F2#10640000001E000C
(1739001974.046) RX 50A#8532A00D8020
(1739001974.048) RX 1DB#FEE0C02A00000046
(1739001974.048) RX 1DC#B40F8FFD0CCCD8E4
(1739001974.050) RX 1DA#C1641800000101AA
(1739001974.050) RX 11A#0140005500000115
(1739001974.051) RX 1C2#5B
(1739001974.056) RX 1D4#F7070000474600BC
(1739001974.057) RX 1F2#10640000001E010D
(1739001974.057) RX 284#0000000000008B11
(1739001974.058) RX 1DB#FEE0C02A000001C3
(1739001974.058) RX 1DC#B40F8FFD0130C9CE
(1739001974.060) RX 1DA#C1641800000102A0
(1739001974.060) RX 55A#003230005F365B08
(1739001974.060) RX 11A#01400055400002D8
(1739001974.061) RX 1C2#5C
(1739001974.067) RX 1D4#F707000087460070
(1739001974.067) RX 1F2#10640000001E020E
(1739001974.067) RX 50B#000006C00060
(1739001974.068) RX 1DB#FEE0C02A000002C9
(1739001974.068) RX 1DC#B40F8FFD0520C64C
(1739001974.070) RX 1DA#C164180000010325
(1739001974.070) RX 11A#014000AA800003CE
(1739001974.071) RX 1C2#5D
(1739001974.077) RX 1D4#F7070000C74600B7
(1739001974.077) RX 1F2#10640000001E030F
(1739001974.077) RX 284#0000000000008C12
(1739001974.078) RX 1DB#FEE0C02A0000034C
(1739001974.079) RX 1DC#B40F8FFD08C0CB1B
(1739001974.079) RX 55B#C9805500E4C01140
(1739001974.079) RX 5BC#5A032026B2064080
(1739001974.079) RX 11A#014000AAC0000003
(1739001974.080) RX 1DA#C16418000001002F
(1739001974.081) RX 1C2#5E
(1739001974.087) RX 1D4#F70700000746007B
(1739001974.087) RX 1F2#10640000001E000C
(1739001974.088) RX 1DB#FEE0C02A00000046
(1739001974.089) RX 1DC#B40F8FFD0CCCD8E4
(1739001974.090) RX 1DA#C1641800000101AA
(1739001974.090) RX 11A#0140005500000115
(1739001974.091) RX 1C2#5F
(1739001974.096) RX 380#020410210000009E
(1739001974.097) RX 5BF#000000002800002B
(1739001974.097) RX 1D4#F7070000474600BC
(1739001974.097) RX 1F2#10640000001E010D
(1739001974.098) RX 284#0000000000008D13
(1739001974.098) RX 1DB#FEE0C02A000001C3
(1739001974.098) RX 1DC#B40F8FFD0130C9CE
(1739001974.100) RX 1DA#C1641800000102A0
(1739001974.100) RX 11A#01400055400002D8
(1739001974.101) RX 1C2#50
(1739001974.107) RX 1D4#F707000087460070
(1739001974.108) RX 1F2#10640000001E020E
(1739001974.108) RX 1DB#FEE0C02A000002C9
(1739001974.109) RX 1DC#B40F8FFD0520C64C
(1739001974.110) RX 1DA#C164180000010325
(1739001974.110) RX 11A#014000AA800003CE
(1739001974.111) RX 1C2#51
(1739001974.114) RX 54A#100070062600002D
(1739001974.115) RX 54B#0076981224000000
(1739001974.116) RX 54C#6C66400000705B00
(1739001974.117) RX 54F#2501000007078A5A
(1739001974.118) RX 1D4#F7070000C74600B7
(1739001974.118) RX 1F2#10640000001E030F
(1739001974.118) RX 1DB#FEE0C02A0000034C
(1739001974.119) RX 284#0000000000008E14
(1739001974.119) RX 1DC#B40F8FFD08C0CB1B
(1739001974.119) RX 11A#014000AAC0000003
(1739001974.120) RX 1DA#C16418000001002F
(1739001974.121) RX 1C2#52
(1739001974.128) RX 1D4#F70700000746007B
(1739001974.128) RX 1DB#FEE0C02A00000046
(1739001974.128) RX 1F2#10640000001E000C
(1739001974.129) RX 1DC#B40F8FFD0CCCD8E4
(1739001974.129) RX 50C#00000002B20D
(1739001974.130) RX 1DA#C1641800000101AA
(1739001974.130) RX 11A#0140005500000115
(1739001974.131) RX 1C2#53
(1739001974.138) RX 1D4#F7070000474600BC
(1739001974.138) RX 1DB#FEE0C02A000001C3
(1739001974.139) RX 1F2#10640000001E010D
(1739001974.139) RX 1DC#B40F8FFD0130C9CE
(1739001974.139) RX 284#0000000000008F15
(1739001974.140) RX 1DA#C1641800000102A0
(1739001974.140) RX 11A#01400055400002D8
(1739001974.141) RX 1C2#54
(1739001974.148) RX 1DB#FEE0C02A000002C9
(1739001974.148) RX 1D4#F707000087460070
(1739001974.149) RX 1DC#B40F8FFD0520C64C
(1739001974.149) RX 1F2#10640000001E020E
(1739001974.149) RX 50A#8552A00D8020
(1739001974.150) RX 1DA#C164180000010325
(1739001974.150) RX 11A#014000AA800003CE
(1739001974.151) RX 1C2#55
(1739001974.158) RX 1DB#FEE0C02A0000034C
(1739001974.158) RX 1DC#B40F8FFD08C0CB1B
(1739001974.159) RX 1D4#F7070000C74600B7
(1739001974.159) RX 1F2#10640000001E030F
(1739001974.159) RX 284#0000000000009016
(1739001974.159) RX 11A#014000AAC0000003
(1739001974.160) RX 1DA#C16418000001002F
(1739001974.160) RX 55A#003230005F365B08
(1739001974.162) RX 1C2#56
(1739001974.168) RX 1DB#FEE0C02A00000046
(1739001974.169) RX 1DC#B40F8FFD0CCCD8E4
(1739001974.169) RX 1D4#F70700000746007B
(1739001974.169) RX 1F2#10640000001E000C
(1739001974.169) RX 50B#000006C00060
(1739001974.170) RX 1DA#C1641800000101AA
(1739001974.170) RX 11A#0140005500000115
(1739001974.172) RX 1C2#57
(1739001974.178) RX 1DB#FEE0C02A000001C3
(1739001974.179) RX 1DC#B40F8FFD0130C9CE
(1739001974.179) RX 55B#C980AA00E4C0120D
(1739001974.179) RX 1D4#F7070000474600BC
(1739001974.180) RX 1F2#10640000001E010D
(1739001974.180) RX 1DA#C1641800000102A0
(1739001974.180) RX 11A#01400055400002D8
(1739001974.180) RX 284#0000000000009117
(1739001974.181) RX 5BC#5A032026B2064080
(1739001974.182) RX 1C2#58
(1739001974.188) RX 1DB#FEE0C02A000002C9
(1739001974.189) RX 1DC#B40F8FFD0520C64C
(1739001974.189) RX 1D4#F707000087460070
(1739001974.190) RX 1DA#C164180000010325
(1739001974.190) RX 1F2#10640000001E020E
(1739001974.190) RX 11A#014000AA800003CE
(1739001974.192) RX 1C2#59
(1739001974.196) RX 380#02041021000000AF
(1739001974.197) RX 5BF#000000002800003C
(1739001974.198) RX 1DB#FEE0C02A0000034C
(1739001974.199) RX 1DC#B40F8FFD08C0CB1B
(1739001974.199) RX 11A#014000AAC0000003
(1739001974.200) RX 1DA#C16418000001002F
(1739001974.200) RX 1D4#F7070000C74600B7
(1739001974.200) RX 1F2#10640000001E030F
(1739001974.200) RX 284#0000000000009218
(1739001974.202) RX 1C2#5A
(1739001974.208) RX 1DB#FEE0C02A00000046
(1739001974.209) RX 1DC#B40F8FFD0CCCD8E4
(1739001974.210) RX 1DA#C1641800000101AA
(1739001974.210) RX 1D4#F70700000746007B
(1739001974.210) RX 1F2#10640000001E000C
(1739001974.210) RX 11A#0140005500000115
(1739001974.212) RX 1C2#5B
(1739001974.214) RX 54A#9E0070062600002D
(1739001974.215) RX 54B#0076981224000000
(1739001974.216) RX 54C#6C66400000705B00
(1739001974.217) RX 54F#2501000007478A5A
(1739001974.218) RX 1DB#FEE0C02A000001C3
(1739001974.219) RX 1DC#B40F8FFD0130C9CE
(1739001974.220) RX 1DA#C1641800000102A0
(1739001974.220) RX 11A#01400055400002D8
(1739001974.220) RX 1D4#F7070000474600BC
(1739001974.221) RX 1F2#10640000001E010D
(1739001974.221) RX 284#0000000000009319
(1739001974.222) RX 1C2#5C
(1739001974.228) RX 1DB#FEE0C02A000002C9
(1739001974.229) RX 1DC#B40F8FFD0520C64C
(1739001974.230) RX 1DA#C164180000010325
(1739001974.230) RX 11A#014000AA800003CE
(1739001974.230) RX 1D4#F707000087460070
(1739001974.231) RX 1F2#10640000001E020E
(1739001974.231) RX 284#000000000000941A
(1739001974.231) RX 50C#000000035DF4
(1739001974.232) RX 1C2#5D
(1739001974.239) RX 1DB#FEC0C02A0000031D
(1739001974.239) RX 1DC#B40F8FFD08C0CB1B
(1739001974.239) RX 11A#014000AAC0000003
(1739001974.240) RX 1DA#C16418000001002F
(1739001974.241) RX 1D4#F7070000C74600B7
(1739001974.241) RX 1F2#10640000001E030F
(1739001974.242) RX 1C2#5E
(1739001974.248) RX 1DB#FEA0C02A000000E4
(1739001974.249) RX 1DC#B40F8FFD0CCCD8E4
(1739001974.250) RX 1DA#C1641800000101AA
(1739001974.250) RX 11A#0140005500000115
(1739001974.251) RX 1D4#F70700000746007B
(1739001974.251) RX 1F2#10640000001E000C
(1739001974.251) RX 284#000000000000951B
(1739001974.252) RX 50A#8572A00D8020
(1739001974.252) RX 1C2#5F
(1739001974.259) RX 1DB#FE80C02A00000130
(1739001974.259) RX 1DC#B40F8FFD0130C9CE
(1739001974.260) RX 1DA#C1641800000102A0
(1739001974.260) RX 55A#003330005F365B08
(1739001974.260) RX 11A#01400055400002D8
(1739001974.261) RX 1D4#F7070000474600BC
(1739001974.261) RX 1F2#10640000001E010D
(1739001974.262) RX 1C2#50
(1739001974.269) RX 1DB#FE60C02A00000208
(1739001974.269) RX 1DC#B40F8FFD0520C64C
(1739001974.270) RX 1DA#C164180000010325
(1739001974.270) RX 11A#014000AA800003CE
(1739001974.271) RX 1D4#F707000087460070
(1739001974.272) RX 1F2#10640000001E020E
(1739001974.272) RX 284#000000000000961C
(1739001974.272) RX 1C2#51
(1739001974.272) RX 50B#000006C00060
(1739001974.279) RX 1DB#FE40BFEA000003A3
(1739001974.279) RX 1DC#B40F8FFD08C0CB1B
(1739001974.279) RX 55B#C9805500E40013ED
(1739001974.280) RX 11A#014000AAC0000003
(1739001974.280) RX 1DA#C16418000001002F
(1739001974.280) RX 5BC#5A032026B2064080
(1739001974.282) RX 1D4#F7070000C74600B7
(1739001974.282) RX 1F2#10640000001E030F
(1739001974.282) RX 1C2#52
(1739001974.289) RX 1DB#FE20BFEA0000005A
(1739001974.289) RX 1DC#B40F8FFD0CCCD8E4
(1739001974.290) RX 1DA#C1641800000101AA
(1739001974.290) RX 11A#0140005500000115
(1739001974.292) RX 1D4#F70700000746007B
(1739001974.292) RX 1C2#53
(1739001974.292) RX 1F2#10640000001E000C
(1739001974.292) RX 284#000000000000971D
(1739001974.297) RX 380#02041021000000B0
(1739001974.297) RX 5BF#0000000028000009
(1739001974.299) RX 1DB#FE00BFEA0000018E
(1739001974.299) RX 1DC#B40F8FFD0130C9CE
(1739001974.300) RX 1DA#C1641800000102A0
(1739001974.300) RX 11A#01400055400002D8
(1739001974.302) RX 1C2#54
(1739001974.302) RX 1D4#F7070000474600BC
(1739001974.302) RX 1F2#10640000001E010D
(1739001974.309) RX 1DB#FDE0BFEA000002BF
(1739001974.309) RX 1DC#B40F8FFD0520C64C
(1739001974.310) RX 1DA#C164180000010325
(1739001974.310) RX 11A#014000AA800003CE
(1739001974.312) RX 1C2#55
(1739001974.312) RX 1D4#F707000087460070
(1739001974.313) RX 1F2#10640000001E020E
(1739001974.313) RX 284#000000000000981E
(1739001974.314) RX 54A#100070062600002D
(1739001974.315) RX 54B#0076981224000000
(1739001974.316) RX 54C#6C66400000705B00
(1739001974.317) RX 54F#2601000007878A5A
(1739001974.319) RX 1DB#FDC0BFEA0000036B
(1739001974.319) RX 1DC#B40F8FFD08C0CB1B
(1739001974.319) RX 11A#014000AAC0000003
(1739001974.320) RX 1DA#C16418000001002F
(1739001974.322) RX 1C2#56
(1739001974.323) RX 1D4#F7070000C74600B7
(1739001974.323) RX 1F2#10640000001E030F
(1739001974.329) RX 1DB#FDC0BFEA00000061
(1739001974.329) RX 1DC#B40F8FFD0CCCD8E4
(1739001974.330) RX 1DA#C1641800000101AA
(1739001974.330) RX 11A#0140005500000115
(1739001974.332) RX 1C2#57
(1739001974.333) RX 1D4#F70700000746007B
(1739001974.333) RX 1F2#10640000001E000C
(1739001974.333) RX 284#000000000000991F
(1739001974.334) RX 50C#00000000B2A6
(1739001974.339) RX 1DB#FDC0BFEA000001E4
(1739001974.339) RX 1DC#B40F8FFD0130C9CE
(1739001974.340) RX 1DA#C1641800000102A0
(1739001974.340) RX 11A#01400055400002D8
(1739001974.342) RX 1C2#58
(1739001974.343) RX 1D4#F7070000474600BC
(1739001974.343) RX 1F2#10640000001E010D
(1739001974.344) RX 5A9#643C501304300000
(1739001974.349) RX 1DB#FDC0BFEA000002EE
(1739001974.349) RX 1DC#B40F8FFD0520C64C
(1739001974.350) RX 1DA#C164180000010325
(1739001974.350) RX 11A#014000AA800003CE
(1739001974.352) RX 1C2#59
(1739001974.353) RX 1D4#F707000087460070
(1739001974.354) RX 1F2#10640000001E020E
(1739001974.354) RX 284#0000000000009A20
(1739001974.354) RX 50A#8512A00D8020
(1739001974.359) RX 1DB#FDC0BFEA0000036B
(1739001974.359) RX 1DC#B40F8FFD08C0CB1B
(1739001974.359) RX 11A#014000AAC0000003
(1739001974.360) RX 1DA#C16418000001002F
(1739001974.360) RX 55A#003230005F365B08
(1739001974.362) RX 1C2#5A
(1739001974.364) RX 1D4#F7070000C74600B7
(1739001974.364) RX 1F2#10640000001E030F
(1739001974.369) RX 1DB#FDC0BFEA00000061
(1739001974.369) RX 1DC#B40F8FFD0CCCD8E4
(1739001974.370) RX 1DA#C1641800000101AA
(1739001974.370) RX 11A#0140005500000115
(1739001974.372) RX 1C2#5B
(1739001974.374) RX 1D4#F70700000746007B
(1739001974.374) RX 1F2#10640000001E000C
(1739001974.374) RX 284#0000000000009B21
(1739001974.375) RX 50B#000006C00060
(1739001974.379) RX 1DB#FDC0BFEA000001E4
(1739001974.379) RX 1DC#B40F8FFD0130C9CE
(1739001974.380) RX 1DA#C1641800000102A0
(1739001974.380) RX 55B#C980AA00E40010A0
(1739001974.380) RX 11A#01400055400002D8
(1739001974.380) RX 5BC#5A032026B2064080
(1739001974.382) RX 1C2#5C
(1739001974.384) RX 1D4#F7070000474600BC
(1739001974.384) RX 1F2#10640000001E010D
(1739001974.389) RX 1DB#FDC0BFEA000002EE
(1739001974.389) RX 1DC#B40F8FFD0520C64C
(1739001974.390) RX 1DA#C164180000010325
(1739001974.390) RX 11A#014000AA800003CE
(1739001974.392) RX 1C2#5D
(1739001974.394) RX 1D4#F707000087460070
(1739001974.395) RX 1F2#10640000001E020E
(1739001974.395) RX 284#0000000000009C22
(1739001974.397) RX 380#020410210000008D
(1739001974.397) RX 5BF#000000002800001A
(1739001974.399) RX 1DB#FDC0BFEA0000036B
(1739001974.399) RX 1DC#B40F8FFD08C0CB1B
(1739001974.400) RX 11A#014000AAC0000003
(1739001974.400) RX 1DA#C16418000001002F
(1739001974.402) RX 1C2#5E
(1739001974.405) RX 1D4#F7070000C74600B7
(1739001974.405) RX 1F2#10640000001E030F
(1739001974.409) RX 1DB#FDC0BFEA00000061
(1739001974.409) RX 1DC#B40F8FFD0CCCD8E4
(1739001974.410) RX 1DA#C1641800000101AA
(1739001974.410) RX 11A#0140005500000115
(1739001974.412) RX 1C2#5F
(1739001974.414) RX 54A#9E0070062600002D
(1739001974.415) RX 1D4#F70700000746007B
(1739001974.415) RX 1F2#10640000001E000C
(1739001974.415) RX 284#0000000000009D23
(1739001974.416) RX 54B#0076981224000000
(1739001974.416) RX 5B9#67FF67FF28
(1739001974.416) RX 54C#6C66400000705B00
(1739001974.417) RX 54F#2601000007C78A5A
(1739001974.419) RX 1DB#FDC0BFEA000001E4
(1739001974.419) RX 1DC#B40F8FFD0130C9CE
(1739001974.420) RX 1DA#C1641800000102A0
(1739001974.420) RX 11A#01400055400002D8
(1739001974.422) RX 1C2#50
(1739001974.425) RX 1D4#F7070000474600BC
(1739001974.425) RX 1F2#10640000001E010D
(1739001974.429) RX 1DB#FDC0BFEA000002EE
(1739001974.429) RX 1DC#B40F8FFD0520C64C
(1739001974.430) RX 1DA#C164180000010325
(1739001974.430) RX 11A#014000AA800003CE
(1739001974.432) RX 1C2#51
(1739001974.435) RX 1D4#F707000087460070
(1739001974.436) RX 1F2#10640000001E020E
(1739001974.436) RX 284#0000000000009E24
(1739001974.436) RX 50C#000000015D5F
(1739001974.439) RX 1DB#FDC0BFEA0000036B
(1739001974.439) RX 1DC#B40F8FFD08C0CB1B
(1739001974.440) RX 11A#014000AAC0000003
(1739001974.440) RX 1DA#C16418000001002F
(1739001974.442) RX 1C2#52
(1739001974.446) RX 1D4#F7070000C74600B7
(1739001974.446) RX 1F2#10640000001E030F
(1739001974.449) RX 1DB#FDE0BFEA00000030
(1739001974.449) RX 1DC#B40F8FFD0CCCD8E4
(1739001974.450) RX 1DA#C1641800000101AA
(1739001974.450) RX 11A#0140005500000115
(1739001974.452) RX 1C2#53
(1739001974.456) RX 1D4#F70700000746007B
(1739001974.456) RX 1F2#10640000001E000C
(1739001974.456) RX 284#0000000000009F25
(1739001974.456) RX 50A#8532A00D8020
(1739001974.459) RX 1DB#FE00BFEA0000018E
(1739001974.459) RX 1DC#B40F8FFD0130C9CE
(1739001974.460) RX 1DA#C1641800000102A0
(1739001974.460) RX 11A#01400055400002D8
(1739001974.460) RX 55A#003230005F365B08
(1739001974.462) RX 1C2#54
(1739001974.466) RX 1D4#F7070000474600BC
(1739001974.466) RX 1F2#10640000001E010D
(1739001974.469) RX 1DB#FE20BFEA000002D5
(1739001974.469) RX 1DC#B40F8FFD0520C64C
(1739001974.470) RX 1DA#C164180000010325
(1739001974.470) RX 11A#014000AA800003CE
(1739001974.472) RX 1C2#55
(1739001974.476) RX 1D4#F707000087460070
(1739001974.476) RX 1F2#10640000001E020E
(1739001974.477) RX 284#000000000000A026
(1739001974.477) RX 50B#000006C00060
(1739001974.479) RX 1DB#FE40BFEA000003A3
(1739001974.480) RX 11A#014000AAC0000003
(1739001974.480) RX 1DA#C16418000001002F
(1739001974.480) RX 1DC#B40F8FFD08C0CB1B
(1739001974.480) RX 55B#C9805500E4001162
(1739001974.481) RX 5BC#5A032026B2064080
(1739001974.482) RX 1C2#56
(1739001974.487) RX 1D4#F7070000C74600B7
(1739001974.487) RX 1F2#10640000001E030F
(1739001974.489) RX 1DB#FE40BFEA000000A9
(1739001974.490) RX 1DA#C1641800000101AA
(1739001974.490) RX 1DC#B40F8FFD0CCCD8E4
(1739001974.490) RX 5C0#404C4C0004E41400
(1739001974.490) RX 11A#0140005500000115
(1739001974.491) RX 5EB#E00FFFFFFFFFFFFF
(1739001974.492) RX 1C2#57
(1739001974.497) RX 1D4#F70700000746007B
(1739001974.497) RX 1F2#10640000001E000C
(1739001974.497) RX 284#000000000000A127
(1739001974.497) RX 380#020410210000009E
(1739001974.498) RX 5BF#000000002800002B
(1739001974.499) RX 1DB#FE60C02A00000102
(1739001974.500) RX 1DA#C1641800000102A0
(1739001974.500) RX 1DC#B40F8FFD0130C9CE
(1739001974.500) RX 11A#01400055400002D8
(1739001974.502) RX 1C2#58
(1739001974.507) RX 1D4#F7070000474600BC
(1739001974.507) RX 1F2#10640000001E010D
(1739001974.509) RX 1DB#FE80C02A0000023A
(1739001974.510) RX 1DA#C164180000010325
(1739001974.510) RX 1DC#B40F8FFD0520C64C
(1739001974.510) RX 11A#014000AA800003CE
(1739001974.512) RX 1C2#59
(1739001974.514) RX 54A#100070062600002D
(1739001974.515) RX 54B#0076981224000000
(1739001974.516) RX 54C#6C66400000705B00
(1739001974.517) RX 54F#2601000007078A5A
(1739001974.517) RX 1D4#F707000087460070
(1739001974.518) RX 1F2#10640000001E020E
(1739001974.518) RX 284#000000000000A228
(1739001974.519) RX 1DB#FEA0C02A000003EE
(1739001974.520) RX 11A#014000AAC0000003
(1739001974.520) RX 1DA#C16418000001002F
(1739001974.520) RX 1DC#B40F8FFD08C0CB1B
(1739001974.522) RX 1C2#5A
(1739001974.528) RX 1D4#F7070000C74600B7
(1739001974.528) RX 1F2#10640000001E030F
(1739001974.529) RX 1DB#FEC0C02A00000017
(1739001974.530) RX 1DA#C1641800000101AA
(1739001974.530) RX 1DC#B40F8FFD0CCCD8E4
(1739001974.530) RX 11A#0140005500000115
(1739001974.532) RX 1C2#5B
(1739001974.538) RX 1D4#F70700000746007B
(1739001974.538) RX 1F2#10640000001E000C
(1739001974.538) RX 284#000000000000A329
(1739001974.538) RX 50C#00000002B20D
(1739001974.540) RX 1DB#FEE0C02A000001C3
(1739001974.540) RX 1DA#C1641800000102A0
(1739001974.540) RX 11A#01400055400002D8
(1739001974.540) RX 1DC#B40F8FFD0130C9CE
(1739001974.542) RX 1C2#5C
(1739001974.548) RX 1D4#F7070000474600BC
(1739001974.548) RX 1F2#10640000001E010D
(1739001974.549) RX 1DB#FEE0C02A000002C9
(1739001974.550) RX 1DA#C164180000010325
(1739001974.550) RX 1DC#B40F8FFD0520C64C
(1739001974.550) RX 11A#014000AA800003CE
(1739001974.552) RX 1C2#5D
(1739001974.558) RX 1D4#F707000087460070
(1739001974.558) RX 1F2#10640000001E020E
(1739001974.559) RX 284#000000000000A42A
(1739001974.559) RX 50A#8552A00D8020
(1739001974.559) RX 11A#014000AAC0000003
(1739001974.560) RX 1DA#C16418000001002F
(1739001974.560) RX 1DB#FEE0C02A0000034C
(1739001974.560) RX 55A#003230005F365B08
(1739001974.560) RX 1DC#B40F8FFD08C0CB1B
(1739001974.562) RX 1C2#5E
(1739001974.568) RX 1D4#F7070000C74600B7
(1739001974.569) RX 1F2#10640000001E030F
(1739001974.570) RX 1DA#C1641800000101AA
(1739001974.570) RX 1DB#FEE0C02A00000046
(1739001974.570) RX 1DC#B40F8FFD0CCCD8E4
(1739001974.570) RX 11A#0140005500000115
(1739001974.572) RX 1C2#5F
(1739001974.579) RX 1D4#F70700000746007B
(1739001974.579) RX 1F2#10640000001E000C
(1739001974.579) RX 284#000000000000A52B
(1739001974.579) RX 50B#000006C00060
(1739001974.580) RX 1DA#C1641800000102A0
(1739001974.580) RX 1DB#FEE0C02A000001C3
(1739001974.580) RX 11A#01400055400002D8
(1739001974.580) RX 1DC#B40F8FFD0130C9CE
(1739001974.581) RX 55B#C980AA00E38012FE
(1739001974.581) RX 5BC#5A032C26B3040080
(1739001974.582) RX 1C2#50
(1739001974.589) RX 1D4#F7070000474600BC
(1739001974.589) RX 1F2#10640000001E010D
(1739001974.589) RX 1DB#FEE0C02A000002C9
(1739001974.590) RX 1DA#C164180000010325
(1739001974.590) RX 1DC#B40F8FFD0520C64C
(1739001974.590) RX 11A#014000AA800003CE
(1739001974.593) RX 1C2#51
(1739001974.597) RX 380#02041021000000AF
(1739001974.597) RX 5BF#000000002800003C
(1739001974.599) RX 1D4#F707000087460070
(1739001974.599) RX 11A#014000AAC0000003
(1739001974.600) RX 1DA#C16418000001002F
(1739001974.600) RX 1DB#FEE0C02A0000034C
(1739001974.600) RX 1F2#10640000001E020E
(1739001974.600) RX 1DC#B40F8FFD08C0CB1B
(1739001974.601) RX 284#000000000000A62C
(1739001974.603) RX 1C2#52
(1739001974.609) RX 1D4#F7070000C74600B7
(1739001974.610) RX 1DA#C1641800000101AA
(1739001974.610) RX 1DB#FEE0C02A00000046
(1739001974.610) RX 1F2#10640000001E030F
(1739001974.610) RX 11A#0140005500000115
(1739001974.611) RX 1DC#B40F8FFD0CCCD8E4
(1739001974.613) RX 1C2#53
(1739001974.614) RX 54A#9E0070062600002D
(1739001974.615) RX 54B#0076981224000000
(1739001974.616) RX 54C#6C66400000705B00
(1739001974.617) RX 54F#2601000007478A5A
(1739001974.619) RX 1DA#C1641800000102A0
(1739001974.620) RX 1D4#F70700000746007B
(1739001974.620) RX 11A#01400055400002D8
(1739001974.620) RX 1DB#FEE0C02A000001C3
(1739001974.620) RX 1F2#10640000001E000C
(1739001974.621) RX 1DC#B40F8FFD0130C9CE
(1739001974.621) RX 284#000000000000A72D
(1739001974.623) RX 1C2#54
(1739001974.629) RX 1DA#C164180000010325
(1739001974.630) RX 1DB#FEE0C02A000002C9
(1739001974.630) RX 1D4#F7070000474600BC
(1739001974.630) RX 11A#014000AA800003CE
(1739001974.630) RX 1DC#B40F8FFD0520C64C
(1739001974.631) RX 1F2#10640000001E010D
(1739001974.633) RX 1C2#55
(1739001974.639) RX 11A#014000AAC0000003
(1739001974.640) RX 1DA#C16418000001002F
(1739001974.640) RX 1DB#FEE0C02A0000034C
(1739001974.640) RX 1DC#B40F8FFD08C0CB1B
(1739001974.640) RX 1D4#F707000087460070
(1739001974.641) RX 1F2#10640000001E020E
(1739001974.641) RX 284#000000000000A82E
(1739001974.641) RX 50C#000000035DF4
(1739001974.643) RX 1C2#56
(1739001974.649) RX 1DA#C1641800000101AA
(1739001974.650) RX 1DB#FEE0C02A00000046
(1739001974.650) RX 1DC#B40F8FFD0CCCD8E4
(1739001974.650) RX 11A#0140005500000115
(1739001974.651) RX 1D4#F7070000C74600B7
(1739001974.651) RX 1F2#10640000001E030F
(1739001974.651) RX 284#000000000000A92F
(1739001974.653) RX 1C2#57
(1739001974.659) RX 1DA#C1641800000102A0
(1739001974.660) RX 1DB#FEE0C02A000001C3
(1739001974.660) RX 11A#01400055400002D8
(1739001974.660) RX 1DC#B40F8FFD0130C9CE
(1739001974.660) RX 55A#003330005F365B08
(1739001974.661) RX 1D4#F70700000746007B
(1739001974.661) RX 1F2#10640000001E000C
(1739001974.661) RX 50A#8572A00D8020
(1739001974.663) RX 1C2#58
(1739001974.669) RX 1DA#C164180000010325
(1739001974.670) RX 1DB#FEE0C02A000002C9
(1739001974.670) RX 1DC#B40F8FFD0520C64C
(1739001974.670) RX 11A#014000AA800003CE
(1739001974.671) RX 1D4#F7070000474600BC
(1739001974.671) RX 1F2#10640000001E010D
(1739001974.671) RX 284#000000000000AA30
(1739001974.673) RX 1C2#59
(1739001974.679) RX 11A#014000AAC0000003
(1739001974.680) RX 1DA#C16418000001002F
(1739001974.680) RX 1DB#FEE0C02A0000034C
(1739001974.680) RX 1DC#B40F8FFD08C0CB1B
(1739001974.681) RX 55B#C9805500E380133C
(1739001974.681) RX 1D4#F707000087460070
(1739001974.681) RX 1F2#10640000001E020E
(1739001974.682) RX 50B#000006C00060
(1739001974.682) RX 5BC#5A032C26B3040080
(1739001974.683) RX 1C2#5A
(1739001974.689) RX 1DA#C1641800000101AA
(1739001974.690) RX 1DB#FEE0C02A00000046
(1739001974.690) RX 1DC#B40F8FFD0CCCD8E4
(1739001974.690) RX 11A#0140005500000115
(1739001974.691) RX 1D4#F7070000C74600B7
(1739001974.692) RX 1F2#10640000001E030F
(1739001974.692) RX 284#000000000000AB31
(1739001974.693) RX 1C2#5B
(1739001974.697) RX 380#02041021000000B0
(1739001974.697) RX 5BF#0000000028000009
(1739001974.699) RX 1DA#C1641800000102A0
(1739001974.700) RX 1DB#FEE0C02A000001C3
(1739001974.700) RX 1DC#B40F8FFD0130C9CE
(1739001974.700) RX 11A#01400055400002D8
(1739001974.702) RX 1D4#F70700000746007B
(1739001974.702) RX 1F2#10640000001E000C
(1739001974.703) RX 1C2#5C
(1739001974.709) RX 1DA#C164180000010325
(1739001974.710) RX 1DB#FEE0C02A000002C9
(1739001974.710) RX 1DC#B40F8FFD0520C64C
(1739001974.710) RX 11A#014000AA800003CE
(1739001974.712) RX 1D4#F7070000474600BC
(1739001974.712) RX 1F2#10640000001E010D
(1739001974.712) RX 284#000000000000AC32
(1739001974.713) RX 1C2#5D
(1739001974.714) RX 54A#100070062600002D
(1739001974.715) RX 54B#0076981224000000
(1739001974.716) RX 54C#6C66400000705B00
(1739001974.717) RX 54F#2601000007878A5A
(1739001974.719) RX 11A#014000AAC0000003
(1739001974.720) RX 1DA#C16418000001002F
(1739001974.720) RX 1DB#FEE0C02A0000034C
(1739001974.720) RX 1DC#B40F8FFD08C0CB1B
(1739001974.722) RX 1D4#F707000087460070
(1739001974.722) RX 1F2#10640000001E020E
(1739001974.723) RX 1C2#5E
(1739001974.729) RX 1DA#C1641800000101AA
(1739001974.730) RX 1DB#FEE0C02A00000046
(1739001974.730) RX 11A#0140005500000115
(1739001974.730) RX 1DC#B40F8FFD0CCCD8E4
(1739001974.732) RX 1D4#F7070000C74600B7
(1739001974.733) RX 1F2#10640000001E030F
(1739001974.733) RX 284#000000000000AD33
(1739001974.733) RX 1C2#5F
(1739001974.739) RX 1DA#C1641800000102A0
(1739001974.740) RX 11A#01400055400002D8
(1739001974.740) RX 1DB#FEE0C02A000001C3
(1739001974.740) RX 1DC#B40F8FFD0130C9CE
(1739001974.743) RX 1D4#F70700000746007B
(1739001974.743) RX 1F2#10640000001E000C
(1739001974.743) RX 1C2#50
(1739001974.743) RX 50C#00000000B2A6
(1739001974.749) RX 1DA#C164180000010325
(1739001974.750) RX 1DB#FEE0C02A000002C9
(1739001974.750) RX 11A#014000AA800003CE
(1739001974.750) RX 1DC#B40F8FFD0520C64C
(1739001974.753) RX 1D4#F7070000474600BC
(1739001974.753) RX 1C2#51
(1739001974.753) RX 1F2#10640000001E010D
(1739001974.753) RX 284#000000000000AE34
(1739001974.759) RX 11A#014000AAC0000003
(1739001974.760) RX 1DA#C16418000001002F
(1739001974.760) RX 55A#003230005F365B08
(1739001974.760) RX 1DB#FEE0C02A0000034C
(1739001974.760) RX 1DC#B40F8FFD08C0CB1B
(1739001974.763) RX 1C2#52
(1739001974.763) RX 1D4#F707000087460070
(1739001974.763) RX 1F2#10640000001E020E
(1739001974.764) RX 50A#8512A00D8020
(1739001974.769) RX 1DA#C1641800000101AA
(1739001974.770) RX 1DB#FEE0C02A00000046
(1739001974.770) RX 11A#0140005500000115
(1739001974.770) RX 1DC#B40F8FFD0CCCD8E4
(1739001974.773) RX 1C2#53
(1739001974.773) RX 1D4#F7070000C74600B7
(1739001974.774) RX 1F2#10640000001E030F
(1739001974.774) RX 284#000000000000AF35
(1739001974.779) RX 1DA#C1641800000102A0
(1739001974.780) RX 11A#01400055400002D8
(1739001974.780) RX 1DB#FEE0C02A000001C3
(1739001974.781) RX 1DC#B40F8FFD0130C9CE
(1739001974.781) RX 55B#C980AA00E3801071
(1739001974.781) RX 5BC#5A032C26B3040080
(1739001974.783) RX 1C2#54
(1739001974.784) RX 1D4#F70700000746007B
(1739001974.784) RX 1F2#10640000001E000C
(1739001974.784) RX 50B#000006C00060
(1739001974.789) RX 1DA#C164180000010325
(1739001974.790) RX 1DB#FEE0C02A000002C9
(1739001974.790) RX 11A#014000AA800003CE
(1739001974.790) RX 1DC#B40F8FFD0520C64C
(1739001974.793) RX 1C2#55
(1739001974.794) RX 1D4#F7070000474600BC
(1739001974.794) RX 1F2#10640000001E010D
(1739001974.794) RX 284#000000000000B036
(1739001974.797) RX 380#020410210000008D
(1739001974.797) RX 5BF#000000002800001A
(1739001974.799) RX 11A#014000AAC0000003
(1739001974.800) RX 1DA#C16418000001002F
(1739001974.800) RX 1DB#FEE0C02A0000034C
(1739001974.801) RX 1DC#B40F8FFD08C0CB1B
(1739001974.803) RX 1C2#56
(1739001974.804) RX 1D4#F707000087460070
(1739001974.804) RX 1F2#10640000001E020E
(1739001974.809) RX 1DA#C1641800000101AA
(1739001974.810) RX 1DB#FEE0C02A00000046
(1739001974.810) RX 11A#0140005500000115
(1739001974.811) RX 1DC#B40F8FFD0CCCD8E4
(1739001974.813) RX 1C2#57
(1739001974.814) RX 1D4#F7070000C74600B7
(1739001974.815) RX 1F2#10640000001E030F
(1739001974.815) RX 284#000000000000B137
(1739001974.815) RX 54A#9E0070062600002D
(1739001974.816) RX 54B#0076981224000000
(1739001974.817) RX 54C#6C66400000705B00
(1739001974.818) RX 54F#2601000007C78A5A
(1739001974.819) RX 1DA#C1641800000102A0
(1739001974.820) RX 11A#01400055400002D8
(1739001974.820) RX 1DB#FEE0C02A000001C3
(1739001974.821) RX 1DC#B40F8FFD0130C9CE
(1739001974.823) RX 1C2#58
(1739001974.825) RX 1D4#F70700000746007B
(1739001974.825) RX 1F2#10640000001E000C
(1739001974.829) RX 1DA#C164180000010325
(1739001974.830) RX 11A#014000AA800003CE
(1739001974.830) RX 1DB#FEE0C02A000002C9
(1739001974.831) RX 1DC#B40F8FFD0520C64C
(1739001974.833) RX 1C2#59
(1739001974.835) RX 1D4#F7070000474600BC
(1739001974.835) RX 1F2#10640000001E010D
(1739001974.835) RX 284#000000000000B238
(1739001974.839) RX 11A#014000AAC0000003
(1739001974.840) RX 1DA#C16418000001002F
(1739001974.840) RX 1DB#FEE0C02A0000034C
(1739001974.841) RX 1DC#B40F8FFD08C0CB1B
(1739001974.843) RX 1C2#5A
(1739001974.845) RX 1D4#F707000087460070
(1739001974.845) RX 1F2#10640000001E020E
(1739001974.846) RX 50C#000000015D5F
(1739001974.849) RX 1DA#C1641800000101AA
(1739001974.850) RX 11A#0140005500000115
(1739001974.850) RX 1DB#FEE0C02A00000046
(1739001974.851) RX 1DC#B40F8FFD0CCCD8E4
(1739001974.853) RX 1C2#5B
(1739001974.855) RX 1D4#F7070000C74600B7
(1739001974.856) RX 1F2#10640000001E030F
(1739001974.856) RX 284#000000000000B339
(1739001974.856) RX 5A9#643C501304300000
(1739001974.859) RX 1DA#C1641800000102A0
(1739001974.860) RX 55A#003230005F365B08
(1739001974.860) RX 11A#01400055400002D8
(1739001974.860) RX 1DB#FEE0C02A000001C3
(1739001974.861) RX 1DC#B40F8FFD0130C9CE
(1739001974.863) RX 1C2#5C
(1739001974.866) RX 1D4#F70700000746007B
(1739001974.866) RX 1F2#10640000001E000C
(1739001974.866) RX 50A#8532A00D8020
(1739001974.869) RX 1DA#C164180000010325
(1739001974.870) RX 11A#014000AA800003CE
(1739001974.870) RX 1DB#FEE0C02A000002C9
(1739001974.871) RX 1DC#B40F8FFD0520C64C
(1739001974.873) RX 1C2#5D
(1739001974.876) RX 1D4#F7070000474600BC
(1739001974.876) RX 1F2#10640000001E010D
(1739001974.876) RX 284#000000000000B43A
(1739001974.879) RX 11A#014000AAC0000003
(1739001974.880) RX 1DA#C16418000001002F
(1739001974.881) RX 1DB#FEE0C02A0000034C
(1739001974.881) RX 1DC#B40F8FFD08C0CB1B
(1739001974.881) RX 55B#C9805500E38011B3
(1739001974.881) RX 5BC#5A032C26B3040080
(1739001974.883) RX 1C2#5E
(1739001974.886) RX 1D4#F707000087460070
(1739001974.886) RX 1F2#10640000001E020E
(1739001974.886) RX 50B#000006C00060
(1739001974.889) RX 1DA#C1641800000101AA
(1739001974.890) RX 11A#0140005500000115
(1739001974.890) RX 1DB#FEE0C02A00000046
(1739001974.891) RX 1DC#B40F8FFD0CCCD8E4
(1739001974.893) RX 1C2#5F
(1739001974.896) RX 1D4#F7070000C74600B7
(1739001974.896) RX 1F2#10640000001E030F
(1739001974.897) RX 284#000000000000B53B
(1739001974.897) RX 380#020410210000009E
(1739001974.897) RX 5BF#000000002800002B
(1739001974.899) RX 1DA#C1641800000102A0
(1739001974.900) RX 11A#01400055400002D8
(1739001974.900) RX 1DB#FEE0C02A000001C3
(1739001974.901) RX 1DC#B40F8FFD0130C9CE
(1739001974.903) RX 1C2#50
(1739001974.906) RX 1D4#F70700000746007B
(1739001974.907) RX 1F2#10640000001E000C
(1739001974.909) RX 1DA#C164180000010325
(1739001974.910) RX 11A#014000AA800003CE
(1739001974.910) RX 1DB#FEE0C02A000002C9
(1739001974.911) RX 1DC#B40F8FFD0520C64C
(1739001974.913) RX 1C2#51
(1739001974.914) RX 54A#100070062600002D
(1739001974.915) RX 54B#0076981224000000
(1739001974.916) RX 54C#6C66400000705B00
(1739001974.917) RX 1D4#F7070000474600BC
(1739001974.917) RX 1F2#10640000001E010D
(1739001974.917) RX 284#000000000000B63C
(1739001974.917) RX 54F#2501000007078A5A
(1739001974.919) RX 11A#014000AAC0000003
(1739001974.920) RX 1DA#C16418000001002F
(1739001974.920) RX 1DB#FEE0C02A0000034C
(1739001974.921) RX 1DC#B40F8FFD08C0CB1B
(1739001974.923) RX 1C2#52
(1739001974.927) RX 1D4#F707000087460070
(1739001974.927) RX 1F2#10640000001E020E
(1739001974.927) RX 5B9#67FF67FF28
(1739001974.929) RX 1DA#C1641800000101AA
(1739001974.930) RX 11A#0140005500000115
(1739001974.930) RX 1DB#FEE0C02A00000046
(1739001974.931) RX 1DC#B40F8FFD0CCCD8E4
(1739001974.933) RX 1C2#53
(1739001974.937) RX 1D4#F7070000C74600B7
(1739001974.937) RX 1F2#10640000001E030F
(1739001974.938) RX 284#000000000000B73D
(1739001974.939) RX 1DA#C1641800000102A0
(1739001974.940) RX 11A#01400055400002D8
(1739001974.941) RX 1DB#FEE0C02A000001C3
(1739001974.941) RX 1DC#B40F8FFD0130C9CE
(1739001974.943) RX 1C2#54
(1739001974.947) RX 1D4#F70700000746007B
(1739001974.948) RX 1F2#10640000001E000C
(1739001974.948) RX 50C#00000002B20D
(1739001974.949) RX 1DA#C164180000010325
(1739001974.950) RX 11A#014000AA800003CE
(1739001974.950) RX 1DB#FEE0C02A000002C9
(1739001974.951) RX 1DC#B40F8FFD0520C64C
(1739001974.953) RX 1C2#55
(1739001974.958) RX 1D4#F7070000474600BC
(1739001974.958) RX 1F2#10640000001E010D
(1739001974.958) RX 284#000000000000B83E
(1739001974.959) RX 11A#014000AAC0000003
(1739001974.960) RX 1DA#C16418000001002F
(1739001974.960) RX 55A#003230005F365B08
(1739001974.961) RX 1DB#FEE0C02A0000034C
(1739001974.961) RX 1DC#B40F8FFD08C0CB1B
(1739001974.963) RX 1C2#56
(1739001974.968) RX 1D4#F707000087460070
(1739001974.968) RX 1F2#10640000001E020E
(1739001974.968) RX 50A#8552A00D8020
(1739001974.969) RX 1DA#C1641800000101AA
(1739001974.970) RX 11A#0140005500000115
(1739001974.971) RX 1DB#FEE0C02A00000046
(1739001974.971) RX 1DC#B40F8FFD0CCCD8E4
(1739001974.973) RX 1C2#57
(1739001974.978) RX 1D4#F7070000C74600B7
(1739001974.978) RX 1F2#10640000001E030F
(1739001974.979) RX 284#000000000000B93F
(1739001974.979) RX 1DA#C1641800000102A0
(1739001974.980) RX 11A#01400055400002D8
(1739001974.981) RX 1DB#FEE0C02A000001C3
(1739001974.981) RX 1DC#B40F8FFD0130C9CE
(1739001974.981) RX 55B#C980AA00E38012FE
(1739001974.982) RX 5BC#5A032C26B3040080
(1739001974.983) RX 1C2#58
(1739001974.988) RX 1D4#F70700000746007B
(1739001974.989) RX 1F2#10640000001E000C
(1739001974.989) RX 50B#000006C00060
(1739001974.989) RX 1DA#C164180000010325
(1739001974.990) RX 11A#014000AA800003CE
(1739001974.991) RX 1DB#FEE0C02A000002C9
(1739001974.991) RX 1DC#B40F8FFD0520C64C
(1739001974.992) RX 5C0#C04C4C0004541400
(1739001974.992) RX 5EB#E00FFFFFFFFFFFFF
(1739001974.993) RX 1C2#59
(1739001974.997) RX 380#02041021000000AF
(1739001974.997) RX 5BF#000000002800003C
(1739001974.999) RX 1D4#F7070000474600BC
(1739001974.999) RX 1F2#10640000001E010D
(1739001974.999) RX 284#000000000000BA40
(1739001974.999) RX 11A#014000AAC0000003
(1739001975.000) RX 1DA#C16418000001002F
(1739001975.001) RX 1DB#FEE0C02A0000034C
(1739001975.001) RX 1DC#B40F8FFD08C0CB1B
(1739001975.003) RX 1C2#5A
(1739001975.009) RX 1D4#F707000087460070
(1739001975.009) RX 1F2#10640000001E020E
(1739001975.009) RX 1DA#C1641800000101AA
(1739001975.010) RX 11A#0140005500000115
(1739001975.011) RX 1DB#FEE0C02A00000046
(1739001975.011) RX 1DC#B40F8FFD0CCCD8E4
(1739001975.013) RX 1C2#5B
(1739001975.015) RX 54A#9E0070062600002D
(1739001975.016) RX 54B#0076981224000000
(1739001975.017) RX 54C#6C66400000705B00
(1739001975.018) RX 54F#2501000007478A5A
(1739001975.019) RX 1D4#F7070000C74600B7
(1739001975.019) RX 1DA#C1641800000102A0
(1739001975.020) RX 1F2#10640000001E030F
(1739001975.020) RX 11A#01400055400002D8
(1739001975.020) RX 284#000000000000BB41
(1739001975.021) RX 1DB#FEE0C02A000001C3
(1739001975.021) RX 1DC#B40F8FFD0130C9CE
(1739001975.023) RX 1C2#5C
(1739001975.029) RX 1D4#F70700000746007B
(1739001975.030) RX 1DA#C164180000010325
(1739001975.030) RX 1F2#10640000001E000C
(1739001975.030) RX 11A#014000AA800003CE
(1739001975.031) RX 1DB#FEE0C02A000002C9
(1739001975.031) RX 1DC#B40F8FFD0520C64C
(1739001975.034) RX 1C2#5D
(1739001975.039) RX 11A#014000AAC0000003
(1739001975.040) RX 1DA#C16418000001002F
(1739001975.040) RX 1D4#F7070000474600BC
(1739001975.040) RX 1F2#10640000001E010D
(1739001975.040) RX 284#000000000000BC42
(1739001975.041) RX 1DB#FEC0C02A0000031D
(1739001975.041) RX 1DC#B40F8FFD08C0CB1B
(1739001975.044) RX 1C2#5E
(1739001975.049) RX 1DA#C1641800000101AA
(1739001975.050) RX 1D4#F707000087460070
(1739001975.050) RX 11A#0140005500000115
(1739001975.050) RX 1F2#10640000001E020E
(1739001975.051) RX 50C#000000035DF4
(1739001975.051) RX 1DB#FEA0C02A000000E4
(1739001975.051) RX 1DC#B40F8FFD0CCCD8E4
(1739001975.054) RX 1C2#5F
(1739001975.059) RX 1DA#C1641800000102A0
(1739001975.060) RX 55A#003230005F365B08
(1739001975.060) RX 11A#01400055400002D8
(1739001975.060) RX 1D4#F7070000C74600B7
(1739001975.061) RX 1F2#10640000001E030F
(1739001975.061) RX 284#000000000000BD43
(1739001975.061) RX 1DB#FE80C02A00000130
(1739001975.061) RX 1DC#B40F8FFD0130C9CE
(1739001975.064) RX 1C2#50
(1739001975.069) RX 1DA#C164180000010325
(1739001975.070) RX 11A#014000AA800003CE
(1739001975.070) RX 1D4#F70700000746007B
(1739001975.071) RX 1F2#10640000001E000C
(1739001975.071) RX 284#000000000000BE44
(1739001975.071) RX 1DB#FE60C02A00000208
(1739001975.071) RX 50A#8572A00D8020
(1739001975.072) RX 1DC#B40F8FFD0520C64C
(1739001975.074) RX 1C2#51
(1739001975.079) RX 11A#014000AAC0000003
(1739001975.080) RX 1DA#C16418000001002F
(1739001975.081) RX 1D4#F7070000474600BC
(1739001975.081) RX 1F2#10640000001E010D
(1739001975.081) RX 1DB#FE40C02A000003DC
(1739001975.081) RX 1DC#B40F8FFD08C0CB1B
(1739001975.082) RX 55B#C9805500E340131E
(1739001975.082) RX 5BC#5A032026B2052092
(1739001975.084) RX 1C2#52
(1739001975.089) RX 1DA#C1641800000101AA
(1739001975.090) RX 11A#0140005500000115
(1739001975.091) RX 1D4#F707000087460070
(1739001975.091) RX 1DB#FE40C02A000000D6
(1739001975.091) RX 1F2#10640000001E020E
(1739001975.092) RX 1DC#B40F8FFD0CCCD8E4
(1739001975.092) RX 284#000000000000BF45
(1739001975.092) RX 50B#000006C00060
(1739001975.094) RX 1C2#53
(1739001975.097) RX 380#02041021000000B0
(1739001975.098) RX 5BF#0000000028000009
(1739001975.099) RX 1DA#C1641800000102A0
(1739001975.100) RX 11A#01400055400002D8
(1739001975.101) RX 1DB#FE20BFEA000001DF
(1739001975.101) RX 1D4#F7070000C74600B7
(1739001975.101) RX 1DC#B40F8FFD0130C9CE
(1739001975.102) RX 1F2#10640000001E030F
(1739001975.104) RX 1C2#54
(1739001975.109) RX 1DA#C164180000010325
(1739001975.110) RX 11A#014000AA800003CE
(1739001975.111) RX 1DB#FE00BFEA00000284
(1739001975.111) RX 1DC#B40F8FFD0520C64C
(1739001975.111) RX 1D4#F70700000746007B
(1739001975.112) RX 1F2#10640000001E000C
(1739001975.112) RX 284#000000000000C046
(1739001975.114) RX 1C2#55
(1739001975.115) RX 54A#100070062600002D
(1739001975.116) RX 54B#0076981224000000
(1739001975.117) RX 54C#6C66400000705B00
(1739001975.118) RX 54F#2501000007878A5A
(1739001975.119) RX 11A#014000AAC0000003
(1739001975.120) RX 1DA#C16418000001002F
(1739001975.121) RX 1DB#FDE0BFEA0000033A
(1739001975.121) RX 1DC#B40F8FFD08C0CB1B
(1739001975.122) RX 1D4#F7070000474600BC
(1739001975.122) RX 1F2#10640000001E010D
(1739001975.124) RX 1C2#56
(1739001975.129) RX 1DA#C1641800000101AA
(1739001975.130) RX 11A#0140005500000115
(1739001975.131) RX 1DB#FDC0BFEA00000061
(1739001975.131) RX 1DC#B40F8FFD0CCCD8E4
(1739001975.132) RX 1D4#F707000087460070
(1739001975.132) RX 1F2#10640000001E020E
(1739001975.132) RX 284#000000000000C147
(1739001975.134) RX 1C2#57
(1739001975.139) RX 1DA#C1641800000102A0
(1739001975.140) RX 11A#01400055400002D8
(1739001975.141) RX 1DB#FDC0BFEA000001E4
(1739001975.141) RX 1DC#B40F8FFD0130C9CE
(1739001975.142) RX 1D4#F7070000C74600B7
(1739001975.142) RX 1F2#10640000001E030F
(1739001975.144) RX 1C2#58
(1739001975.149) RX 1DA#C164180000010325
(1739001975.150) RX 11A#014000AA800003CE
(1739001975.151) RX 1DB#FDC0BFEA000002EE
(1739001975.151) RX 1DC#B40F8FFD0520C64C
(1739001975.152) RX 1D4#F70700000746007B
(1739001975.153) RX 1F2#10640000001E000C
(1739001975.153) RX 284#000000000000C248
(1739001975.153) RX 50C#00000000B2A6
(1739001975.154) RX 1C2#59
(1739001975.159) RX 11A#014000AAC0000003
(1739001975.160) RX 1DA#C16418000001002F
(1739001975.160) RX 55A#003330005F365B08
(1739001975.161) RX 1DB#FDC0BFEA0000036B
(1739001975.161) RX 1DC#B40F8FFD08C0CB1B
(1739001975.163) RX 1D4#F7070000474600BC
(1739001975.163) RX 1F2#10640000001E010D
(1739001975.164) RX 1C2#5A
(1739001975.169) RX 1DA#C1641800000101AA
(1739001975.170) RX 11A#0140005500000115
(1739001975.171) RX 1DB#FDC0BFEA00000061
(1739001975.171) RX 1DC#B40F8FFD0CCCD8E4
(1739001975.173) RX 1D4#F707000087460070
(1739001975.173) RX 1F2#10640000001E020E
(1739001975.173) RX 284#000000000000C349
(1739001975.173) RX 50A#8512A00D8020
(1739001975.174) RX 1C2#5B
(1739001975.179) RX 1DA#C1641800000102A0
(1739001975.180) RX 11A#01400055400002D8
(1739001975.181) RX 1DB#FDC0BFEA000001E4
(1739001975.182) RX 1DC#B40F8FFD0130C9CE
(1739001975.182) RX 55B#C980AA00E3401053
(1739001975.182) RX 5BC#5A032026B2052092
(1739001975.183) RX 1D4#F7070000C74600B7
(1739001975.183) RX 1F2#10640000001E030F
(1739001975.184) RX 1C2#5C
(1739001975.189) RX 1DA#C164180000010325
(1739001975.190) RX 11A#014000AA800003CE
(1739001975.191) RX 1DB#FDC0BFEA000002EE
(1739001975.191) RX 1DC#B40F8FFD0520C64C
(1739001975.193) RX 1D4#F70700000746007B
(1739001975.194) RX 1F2#10640000001E000C
(1739001975.194) RX 284#000000000000C44A
(1739001975.194) RX 1C2#5D
(1739001975.194) RX 50B#000006C00060
(1739001975.197) RX 380#020410210000008D
(1739001975.198) RX 5BF#000000002800001A
(1739001975.199) RX 11A#014000AAC0000003
(1739001975.200) RX 1DA#C16418000001002F
(1739001975.201) RX 1DB#FDC0BFEA0000036B
(1739001975.201) RX 1DC#B40F8FFD08C0CB1B
(1739001975.204) RX 1D4#F7070000474600BC
(1739001975.204) RX 1F2#10640000001E010D
(1739001975.204) RX 1C2#5E
(1739001975.209) RX 1DA#C1641800000101AA
(1739001975.210) RX 11A#0140005500000115
(1739001975.211) RX 1DB#FDC0BFEA00000061
(1739001975.211) RX 1DC#B40F8FFD0CCCD8E4
(1739001975.214) RX 1D4#F707000087460070
(1739001975.214) RX 1F2#10640000001E020E
(1739001975.214) RX 1C2#5F
(1739001975.214) RX 284#000000000000C54B
(1739001975.215) RX 54A#9E0070062600002D
(1739001975.216) RX 54B#0076981224000000
(1739001975.217) RX 54C#6C66400000705B00
(1739001975.218) RX 54F#2501000007C78A5A
(1739001975.219) RX 1DA#C1641800000102A0
(1739001975.220) RX 11A#01400055400002D8
(1739001975.221) RX 1DB#FDC0BFEA000001E4
(1739001975.222) RX 1DC#B40F8FFD0130C9CE
(1739001975.224) RX 1D4#F7070000C74600B7
(1739001975.224) RX 1C2#50
(1739001975.224) RX 1F2#10640000001E030F
(1739001975.229) RX 1DA#C164180000010325
(1739001975.230) RX 11A#014000AA800003CE
(1739001975.231) RX 1DB#FDC0BFEA000002EE
(1739001975.231) RX 1DC#B40F8FFD0520C64C
(1739001975.234) RX 1C2#51
(1739001975.234) RX 1D4#F70700000746007B
(1739001975.234) RX 1F2#10640000001E000C
(1739001975.235) RX 284#000000000000C64C
(1739001975.239) RX 11A#014000AAC0000003
(1739001975.240) RX 1DA#C16418000001002F
(1739001975.241) RX 1DB#FDC0BFEA0000036B
(1739001975.242) RX 1DC#B40F8FFD08C0CB1B
(1739001975.244) RX 1C2#52
(1739001975.245) RX 1D4#F7070000474600BC
(1739001975.245) RX 1F2#10640000001E010D
(1739001975.249) RX 1DA#C1641800000101AA
(1739001975.250) RX 11A#0140005500000115
(1739001975.251) RX 1DB#FDC0BFEA00000061
(1739001975.252) RX 1DC#B40F8FFD0CCCD8E4
(1739001975.254) RX 1C2#53
(1739001975.255) RX 1D4#F707000087460070
(1739001975.255) RX 1F2#10640000001E020E
(1739001975.255) RX 284#000000000000C74D
(1739001975.255) RX 50C#000000015D5F
(1739001975.259) RX 1DA#C1641800000102A0
(1739001975.260) RX 55A#003330005F365B08
(1739001975.260) RX 11A#01400055400002D8
(1739001975.261) RX 1DB#FDE0BFEA000001B5
(1739001975.262) RX 1DC#B40F8FFD0130C9CE
(1739001975.264) RX 1C2#54
(1739001975.265) RX 1D4#F7070000C74600B7
(1739001975.265) RX 1F2#10640000001E030F
(1739001975.269) RX 1DA#C164180000010325
(1739001975.270) RX 11A#014000AA800003CE
(1739001975.271) RX 1DB#FDE0BFEA000002BF
(1739001975.272) RX 1DC#B40F8FFD0520C64C
(1739001975.274) RX 1C2#55
(1739001975.275) RX 1D4#F70700000746007B
(1739001975.275) RX 1F2#10640000001E000C
(1739001975.276) RX 284#000000000000C84E
(1739001975.276) RX 50A#8532A00D8020
(1739001975.279) RX 11A#014000AAC0000003
(1739001975.280) RX 1DA#C16418000001002F
(1739001975.282) RX 1DB#FE00BFEA00000301
(1739001975.282) RX 1DC#B40F8FFD08C0CB1B
(1739001975.282) RX 55B#C9805500E4001162
(1739001975.282) RX 5BC#5A032026B2052092
(1739001975.284) RX 1C2#56
(1739001975.285) RX 1D4#F7070000474600BC
(1739001975.286) RX 1F2#10640000001E010D
(1739001975.289) RX 1DA#C1641800000101AA
(1739001975.290) RX 11A#0140005500000115
(1739001975.291) RX 1DB#FE20BFEA0000005A
(1739001975.292) RX 1DC#B40F8FFD0CCCD8E4
(1739001975.294) RX 1C2#57
(1739001975.296) RX 1D4#F707000087460070
(1739001975.296) RX 1F2#10640000001E020E
(1739001975.296) RX 284#000000000000C94F
(1739001975.296) RX 50B#000006C00060
(1739001975.298) RX 380#020410210000009E
(1739001975.298) RX 5BF#000000002800002B
(1739001975.299) RX 1DA#C1641800000102A0
(1739001975.300) RX 11A#01400055400002D8
(1739001975.301) RX 1DB#FE40BFEA0000012C
(1739001975.302) RX 1DC#B40F8FFD0130C9CE
(1739001975.304) RX 1C2#58
(1739001975.306) RX 1D4#F7070000C74600B7
(1739001975.306) RX 1F2#10640000001E030F
(1739001975.309) RX 1DA#C164180000010325
(1739001975.310) RX 11A#014000AA800003CE
(1739001975.311) RX 1DB#FE60BFEA00000277
(1739001975.312) RX 1DC#B40F8FFD0520C64C
(1739001975.314) RX 1C2#59
(1739001975.315) RX 54A#100070062600002D
(1739001975.316) RX 54B#0076981224000000
(1739001975.316) RX 1D4#F70700000746007B
(1739001975.316) RX 1F2#10640000001E000C
(1739001975.317) RX 284#000000000000CA50
(1739001975.317) RX 54C#6C66400000705B00
(1739001975.318) RX 54F#2501000007078A5A
(1739001975.319) RX 1DA#C16418000001002F
(1739001975.320) RX 11A#014000AAC0000003
(1739001975.322) RX 1DB#FE80C02A000003BF
(1739001975.322) RX 1DC#B40F8FFD08C0CB1B
(1739001975.324) RX 1C2#5A
(1739001975.327) RX 1D4#F7070000474600BC
(1739001975.327) RX 1F2#10640000001E010D
(1739001975.329) RX 1DA#C1641800000101AA
(1739001975.330) RX 11A#0140005500000115
(1739001975.331) RX 1DB#FEA0C02A000000E4
(1739001975.332) RX 1DC#B40F8FFD0CCCD8E4
(1739001975.334) RX 1C2#5B
(1739001975.337) RX 1D4#F707000087460070
(1739001975.337) RX 1F2#10640000001E020E
(1739001975.337) RX 284#000000000000CB51
(1739001975.339) RX 1DA#C1641800000102A0
(1739001975.340) RX 11A#01400055400002D8
(1739001975.342) RX 1DB#FEC0C02A00000192
(1739001975.342) RX 1DC#B40F8FFD0130C9CE
(1739001975.344) RX 1C2#5C
(1739001975.347) RX 1D4#F7070000C74600B7
(1739001975.347) RX 1F2#10640000001E030F
(1739001975.349) RX 1DA#C164180000010325
(1739001975.350) RX 11A#014000AA800003CE
(1739001975.352) RX 1DB#FEE0C02A000002C9
(1739001975.352) RX 1DC#B40F8FFD0520C64C
(1739001975.354) RX 1C2#5D
(1739001975.357) RX 1D4#F70700000746007B
(1739001975.358) RX 1F2#10640000001E000C
(1739001975.358) RX 284#000000000000CC52
(1739001975.358) RX 50C#00000002B20D
(1739001975.358) RX 54A#9E0070072600002D
(1739001975.359) RX 54B#007898122C000001
(1739001975.359) RX 11A#014000AAC0000003
(1739001975.360) RX 1DA#C16418000001002F
(1739001975.360) RX 54C#6C66400000705B00
(1739001975.360) RX 55A#003230005F365B08
(1739001975.361) RX 54F#2501000007478A5A
(1739001975.362) RX 1DB#FEE0C02A0000034C
(1739001975.362) RX 1DC#B40F8FFD08C0CB1B
(1739001975.364) RX 1C2#5E
(1739001975.367) RX 1D4#F7070000474600BC
(1739001975.368) RX 1F2#10640000001E010D
(1739001975.368) RX 5A9#643C501304300000
(1739001975.369) RX 1DA#C1641800000101AA
(1739001975.370) RX 11A#0140005500000115
(1739001975.372) RX 1DB#FEE0C02A00000046
(1739001975.372) RX 1DC#B40F8FFD0CCCD8E4
(1739001975.374) RX 1C2#5F
(1739001975.378) RX 1D4#F707000087460070
(1739001975.378) RX 1F2#10640000001E020E
(1739001975.378) RX 284#000000000000CD53
(1739001975.378) RX 50A#8552A00D8020
(1739001975.379) RX 1DA#C1641800000102A0
(1739001975.380) RX 11A#01400055400002D8
(1739001975.382) RX 1DB#FEE0C02A000001C3
(1739001975.382) RX 1DC#B40F8FFD0130C9CE
(1739001975.382) RX 55B#C980AA00E400122F
(1739001975.383) RX 5BC#5A032026B2052092
(1739001975.384) RX 1C2#50
(1739001975.388) RX 1D4#F7070000C74600B7
(1739001975.388) RX 1F2#10640000001E030F
(1739001975.389) RX 1DA#C164180000010325
(1739001975.390) RX 11A#014000AA800003CE
(1739001975.392) RX 1DB#FEE0C02A000002C9
(1739001975.392) RX 1DC#B40F8FFD0520C64C
(1739001975.394) RX 1C2#51
(1739001975.398) RX 380#02041021000000AF
(1739001975.398) RX 5BF#000000002800003C
(1739001975.398) RX 1D4#F70700000746007B
(1739001975.398) RX 1F2#10640000001E000C
(1739001975.399) RX 284#000000000000CE54
(1739001975.399) RX 50B#000006C00060
(1739001975.399) RX 1DA#C16418000001002F
(1739001975.400) RX 11A#014000AAC0000003
(1739001975.402) RX 1DB#FEE0C02A0000034C
(1739001975.402) RX 1DC#B40F8FFD08C0CB1B
(1739001975.404) RX 1C2#52
(1739001975.408) RX 1D4#F7070000474600BC
(1739001975.409) RX 1F2#10640000001E010D
(1739001975.409) RX 1DA#C1641800000101AA
(1739001975.410) RX 11A#0140005500000115
(1739001975.412) RX 1DB#FEE0C02A00000046
(1739001975.412) RX 1DC#B40F8FFD0CCCD8E4
(1739001975.414) RX 1C2#53
(1739001975.419) RX 1D4#F707000087460070
(1739001975.419) RX 1F2#10640000001E020E
(1739001975.419) RX 284#000000000000CF55
(1739001975.419) RX 1DA#C1641800000102A0
(1739001975.420) RX 11A#01400055400002D8
(1739001975.422) RX 1DB#FEE0C02A000001C3
(1739001975.422) RX 1DC#B40F8FFD0130C9CE
(1739001975.424) RX 1C2#54
(1739001975.429) RX 1D4#F7070000C74600B7
(1739001975.429) RX 1F2#10640000001E030F
(1739001975.429) RX 1DA#C164180000010325
(1739001975.430) RX 11A#014000AA800003CE
(1739001975.432) RX 1DB#FEE0C02A000002C9
(1739001975.432) RX 1DC#B40F8FFD0520C64C
(1739001975.434) RX 1C2#55
(1739001975.439) RX 1D4#F70700000746007B
(1739001975.439) RX 11A#014000AAC0000003
(1739001975.440) RX 1DA#C16418000001002F
(1739001975.440) RX 1F2#10640000001E000C
(1739001975.440) RX 284#000000000000D056
(1739001975.440) RX 5B9#67FF67FF28
(1739001975.442) RX 1DB#FEE0C02A0000034C
(1739001975.442) RX 1DC#B40F8FFD08C0CB1B
(1739001975.444) RX 1C2#56
(1739001975.449) RX 1DA#C1641800000101AA
(1739001975.450) RX 1D4#F7070000474600BC
(1739001975.450) RX 1F2#10640000001E010D
(1739001975.450) RX 11A#0140005500000115
(1739001975.452) RX 1DB#FEE0C02A00000046
(1739001975.452) RX 1DC#B40F8FFD0CCCD8E4
(1739001975.455) RX 1C2#57
(1739001975.455) RX 54A#100070072600002D
(1739001975.456) RX 54B#007898122C000001
(1739001975.457) RX 54C#6C66400000705B00
(1739001975.458) RX 54F#2501000007878A5A
(1739001975.459) RX 1DA#C1641800000102A0
(1739001975.460) RX 55A#003230005F365B08
(1739001975.460) RX 11A#01400055400002D8
(1739001975.460) RX 1D4#F707000087460070
(1739001975.460) RX 1F2#10640000001E020E
(1739001975.461) RX 284#000000000000D157
(1739001975.461) RX 50C#000000035DF4
(1739001975.462) RX 1DB#FEE0C02A000001C3
(1739001975.462) RX 1DC#B40F8FFD0130C9CE
(1739001975.465) RX 1C2#58
(1739001975.469) RX 1DA#C164180000010325
(1739001975.470) RX 1D4#F7070000C74600B7
(1739001975.470) RX 11A#014000AA800003CE
(1739001975.470) RX 1F2#10640000001E030F
(1739001975.472) RX 1DB#FEE0C02A000002C9
(1739001975.472) RX 1DC#B40F8FFD0520C64C
(1739001975.475) RX 1C2#59
(1739001975.479) RX 1DA#C16418000001002F
(1739001975.480) RX 11A#014000AAC0000003
(1739001975.480) RX 1D4#F70700000746007B
(1739001975.480) RX 1F2#10640000001E000C
(1739001975.481) RX 284#000000000000D258
(1739001975.481) RX 50A#8572A00D8020
(1739001975.482) RX 1DB#FEE0C02A0000034C
(1739001975.482) RX 1DC#B40F8FFD08C0CB1B
(1739001975.483) RX 55B#C9805500E40013ED
(1739001975.483) RX 5BC#5A032026B2052092
(1739001975.485) RX 1C2#5A
(1739001975.489) RX 1DA#C1641800000101AA
(1739001975.490) RX 11A#0140005500000115
(1739001975.490) RX 1D4#F7070000474600BC
(1739001975.491) RX 1F2#10640000001E010D
(1739001975.491) RX 284#000000000000D359
(1739001975.492) RX 1DB#FEE0C02A00000046
(1739001975.492) RX 1DC#B40F8FFD0CCCD8E4
(1739001975.493) RX 5C0#804C4C0004A01400
(1739001975.493) RX 5EB#E00FFFFFFFFFFFFF
(1739001975.495) RX 1C2#5B
(1739001975.498) RX 380#02041021000000B0
(1739001975.498) RX 5BF#0000000028000009
(1739001975.499) RX 1DA#C1641800000102A0
(1739001975.500) RX 11A#01400055400002D8
(1739001975.501) RX 1D4#F707000087460070
(1739001975.501) RX 1F2#10640000001E020E
(1739001975.501) RX 50B#000006C00060
(1739001975.502) RX 1DB#FEE0C02A000001C3
(1739001975.502) RX 1DC#B40F8FFD0130C9CE
(1739001975.505) RX 1C2#5C
(1739001975.509) RX 1DA#C164180000010325
(1739001975.510) RX 11A#014000AA800003CE
(1739001975.511) RX 1D4#F7070000C74600B7
(1739001975.511) RX 1F2#10640000001E030F
(1739001975.511) RX 284#000000000000D45A
(1739001975.512) RX 1DB#FEE0C02A000002C9
(1739001975.512) RX 1DC#B40F8FFD0520C64C
(1739001975.515) RX 1C2#5D
(1739001975.519) RX 11A#014000AAC0000003
(1739001975.520) RX 1DA#C16418000001002F
(1739001975.521) RX 1D4#F70700000746007B
(1739001975.521) RX 1F2#10640000001E000C
(1739001975.522) RX 1DB#FEE0C02A0000034C
(1739001975.523) RX 1DC#B40F8FFD08C0CB1B
(1739001975.525) RX 1C2#5E
(1739001975.529) RX 1DA#C1641800000101AA
(1739001975.530) RX 11A#0140005500000115
(1739001975.531) RX 1D4#F7070000474600BC
(1739001975.532) RX 1F2#10640000001E010D
(1739001975.532) RX 284#000000000000D55B
(1739001975.532) RX 1DB#FEE0C02A00000046
(1739001975.533) RX 1DC#B40F8FFD0CCCD8E4
(1739001975.535) RX 1C2#5F
(1739001975.539) RX 1DA#C1641800000102A0
(1739001975.540) RX 11A#01400055400002D8
(1739001975.542) RX 1D4#F707000087460070
(1739001975.542) RX 1F2#10640000001E020E
(1739001975.542) RX 1DB#FEE0C02A000001C3
(1739001975.543) RX 1DC#B40F8FFD0130C9CE
(1739001975.545) RX 1C2#50
(1739001975.549) RX 1DA#C164180000010325
(1739001975.550) RX 11A#014000AA800003CE
(1739001975.552) RX 1D4#F7070000C74600B7
(1739001975.552) RX 1F2#10640000001E030F
(1739001975.552) RX 1DB#FEE0C02A000002C9
(1739001975.553) RX 284#000000000000D65C
(1739001975.553) RX 1DC#B40F8FFD0520C64C
(1739001975.555) RX 1C2#51
(1739001975.555) RX 54A#9E0070072600002D
(1739001975.556) RX 54B#007898122C000001
(1739001975.557) RX 54C#6C66400000705B00
(1739001975.558) RX 54F#2501000007C78A5A
(1739001975.559) RX 1DA#C16418000001002F
(1739001975.560) RX 11A#014000AAC0000003
(1739001975.560) RX 55A#003230005F365B08
(1739001975.562) RX 1DB#FEE0C02A0000034C
(1739001975.562) RX 1D4#F70700000746007B
(1739001975.563) RX 1DC#B40F8FFD08C0CB1B
(1739001975.563) RX 1F2#10640000001E000C
(1739001975.563) RX 50C#00000000B2A6
(1739001975.565) RX 1C2#52
(1739001975.569) RX 1DA#C1641800000101AA
(1739001975.570) RX 11A#0140005500000115
(1739001975.572) RX 1DB#FEE0C02A00000046
(1739001975.572) RX 1D4#F7070000474600BC
(1739001975.573) RX 1DC#B40F8FFD0CCCD8E4
(1739001975.573) RX 1F2#10640000001E010D
(1739001975.573) RX 284#000000000000D75D
(1739001975.575) RX 1C2#53
(1739001975.579) RX 1DA#C1641800000102A0
(1739001975.580) RX 11A#01400055400002D8
(1739001975.582) RX 1DB#FEE0C02A000001C3
(1739001975.583) RX 1D4#F707000087460070
(1739001975.583) RX 1DC#B40F8FFD0130C9CE
(1739001975.583) RX 1F2#10640000001E020E
(1739001975.583) RX 50A#8512A00D8020
(1739001975.584) RX 55B#C980AA00E40010A0
(1739001975.584) RX 5BC#5A032C26B3054074
(1739001975.585) RX 1C2#54
(1739001975.589) RX 1DA#C164180000010325
(1739001975.590) RX 11A#014000AA800003CE
(1739001975.592) RX 1DB#FEE0C02A000002C9
(1739001975.593) RX 1DC#B40F8FFD0520C64C
(1739001975.593) RX 1D4#F7070000C74600B7
(1739001975.593) RX 1F2#10640000001E030F
(1739001975.593) RX 284#000000000000D85E
(1739001975.595) RX 1C2#55
(1739001975.598) RX 380#020410210000008D
(1739001975.598) RX 5BF#000000002800001A
(1739001975.599) RX 11A#014000AAC0000003
(1739001975.600) RX 1DA#C16418000001002F
(1739001975.602) RX 1DB#FEE0C02A0000034C
(1739001975.603) RX 1DC#B40F8FFD08C0CB1B
(1739001975.603) RX 1D4#F70700000746007B
(1739001975.603) RX 1F2#10640000001E000C
(1739001975.603) RX 50B#000006C00060
(1739001975.605) RX 1C2#56
(1739001975.609) RX 1DA#C1641800000101AA
(1739001975.610) RX 11A#0140005500000115
(1739001975.612) RX 1DB#FEE0C02A00000046
(1739001975.613) RX 1DC#B40F8FFD0CCCD8E4
(1739001975.613) RX 1D4#F7070000474600BC
(1739001975.614) RX 1F2#10640000001E010D
(1739001975.614) RX 284#000000000000D95F
(1739001975.615) RX 1C2#57
(1739001975.619) RX 1DA#C1641800000102A0
(1739001975.620) RX 11A#01400055400002D8
(1739001975.622) RX 1DB#FEE0C02A000001C3
(1739001975.623) RX 1DC#B40F8FFD0130C9CE
(1739001975.623) RX 1D4#F707000087460070
(1739001975.624) RX 1F2#10640000001E020E
(1739001975.625) RX 1C2#58
(1739001975.629) RX 1DA#C164180000010325
(1739001975.630) RX 11A#014000AA800003CE
(1739001975.632) RX 1DB#FEE0C02A000002C9
(1739001975.633) RX 1DC#B40F8FFD0520C64C
(1739001975.634) RX 1D4#F7070000C74600B7
(1739001975.634) RX 1F2#10640000001E030F
(1739001975.634) RX 284#000000000000DA60
(1739001975.635) RX 1C2#59
(1739001975.639) RX 1DA#C16418000001002F
(1739001975.640) RX 11A#014000AAC0000003
(1739001975.642) RX 1DB#FEE0C02A0000034C
(1739001975.643) RX 1DC#B40F8FFD08C0CB1B
(1739001975.644) RX 1D4#F70700000746007B
(1739001975.644) RX 1F2#10640000001E000C
(1739001975.645) RX 1C2#5A
(1739001975.649) RX 1DA#C1641800000101AA
(1739001975.650) RX 11A#0140005500000115
(1739001975.652) RX 1DB#FEE0C02A00000046
(1739001975.653) RX 1DC#B40F8FFD0CCCD8E4
(1739001975.654) RX 1D4#F7070000474600BC
(1739001975.655) RX 1F2#10640000001E010D
(1739001975.655) RX 284#000000000000DB61
(1739001975.655) RX 1C2#5B
(1739001975.656) RX 54A#100070072600002D
(1739001975.657) RX 54B#007898122C000001
(1739001975.658) RX 54C#6C66400000785B00
(1739001975.659) RX 54F#2501000007078A5A
(1739001975.659) RX 1DA#C1641800000102A0
(1739001975.660) RX 55A#003330005F365B08
(1739001975.660) RX 11A#01400055400002D8
(1739001975.662) RX 1DB#FEE0C02A000001C3
(1739001975.663) RX 1DC#B40F8FFD0130C9CE
(1739001975.665) RX 1D4#F707000087460070
(1739001975.665) RX 1F2#10640000001E020E
(1739001975.665) RX 50C#000000015D5F
(1739001975.665) RX 1C2#5C
(1739001975.669) RX 1DA#C164180000010325
(1739001975.670) RX 11A#014000AA800003CE
(1739001975.672) RX 1DB#FEE0C02A000002C9
(1739001975.673) RX 1DC#B40F8FFD0520C64C
(1739001975.675) RX 1D4#F7070000C74600B7
(1739001975.675) RX 1F2#10640000001E030F
(1739001975.675) RX 1C2#5D
(1739001975.675) RX 284#000000000000DC62
(1739001975.679) RX 1DA#C16418000001002F
(1739001975.680) RX 11A#014000AAC0000003
(1739001975.683) RX 1DB#FEE0C02A0000034C
(1739001975.683) RX 1DC#B40F8FFD08C0CB1B
(1739001975.683) RX 55B#C9805500E4001162
(1739001975.684) RX 5BC#5A032C26B3054074
(1739001975.685) RX 1D4#F70700000746007B
(1739001975.685) RX 1C2#5E
(1739001975.685) RX 1F2#10640000001E000C
(1739001975.686) RX 50A#8532A00D8020
(1739001975.689) RX 1DA#C1641800000101AA
(1739001975.690) RX 11A#0140005500000115
(1739001975.692) RX 1DB#FEE0C02A00000046
(1739001975.693) RX 1DC#B40F8FFD0CCCD8E4
(1739001975.695) RX 1C2#5F
(1739001975.695) RX 1D4#F7070000474600BC
(1739001975.696) RX 1F2#10640000001E010D
(1739001975.696) RX 284#000000000000DD63
(1739001975.698) RX 380#020410210000009E
(1739001975.698) RX 5BF#000000002800002B
(1739001975.699) RX 1DA#C1641800000102A0
(1739001975.700) RX 11A#01400055400002D8
(1739001975.703) RX 1DB#FEE0C02A000001C3
(1739001975.703) RX 1DC#B40F8FFD0130C9CE
(1739001975.705) RX 1C2#50
(1739001975.705) RX 1D4#F707000087460070
(1739001975.706) RX 1F2#10640000001E020E
(1739001975.706) RX 50B#000006C00060
(1739001975.709) RX 1DA#C164180000010325
(1739001975.710) RX 11A#014000AA800003CE
(1739001975.713) RX 1DB#FEE0C02A000002C9
(1739001975.713) RX 1DC#B40F8FFD0520C64C
(1739001975.715) RX 1C2#51
(1739001975.716) RX 1D4#F7070000C74600B7
(1739001975.716) RX 1F2#10640000001E030F
(1739001975.716) RX 284#000000000000DE64
(1739001975.719) RX 1DA#C16418000001002F
(1739001975.720) RX 11A#014000AAC0000003
(1739001975.723) RX 1DB#FEE0C02A0000034C
(1739001975.723) RX 1DC#B40F8FFD08C0CB1B
(1739001975.725) RX 1C2#52
(1739001975.726) RX 1D4#F70700000746007B
(1739001975.726) RX 1F2#10640000001E000C
(1739001975.729) RX 1DA#C1641800000101AA
(1739001975.730) RX 11A#0140005500000115
(1739001975.733) RX 1DB#FEE0C02A00000046
(1739001975.733) RX 1DC#B40F8FFD0CCCD8E4
(1739001975.735) RX 1C2#53
(1739001975.736) RX 1D4#F7070000474600BC
(1739001975.736) RX 1F2#10640000001E010D
(1739001975.737) RX 284#000000000000DF65
(1739001975.739) RX 1DA#C1641800000102A0
(1739001975.740) RX 11A#01400055400002D8
(1739001975.743) RX 1DB#FEE0C02A000001C3
(1739001975.743) RX 1DC#B40F8FFD0130C9CE
(1739001975.745) RX 1C2#54
(1739001975.746) RX 1D4#F707000087460070
(1739001975.747) RX 1F2#10640000001E020E
(1739001975.749) RX 1DA#C164180000010325
(1739001975.750) RX 11A#014000AA800003CE
(1739001975.753) RX 1DB#FEE0C02A000002C9
(1739001975.753) RX 1DC#B40F8FFD0520C64C
(1739001975.755) RX 54A#9E0070072600002D
(1739001975.755) RX 1C2#55
(1739001975.756) RX 54B#007898122C000001
(1739001975.757) RX 1D4#F7070000C74600B7
(1739001975.757) RX 1F2#10640000001E030F
(1739001975.757) RX 284#000000000000E066
(1739001975.757) RX 54C#6C66400000785B00
(1739001975.758) RX 54F#2501000007478A5A
(1739001975.759) RX 11A#014000AAC0000003
(1739001975.760) RX 1DA#C16418000001002F
(1739001975.760) RX 55A#003230005F365B08
(1739001975.763) RX 1DB#FEE0C02A0000034C
(1739001975.763) RX 1DC#B40F8FFD08C0CB1B
(1739001975.765) RX 1C2#56
(1739001975.767) RX 1D4#F70700000746007B
(1739001975.767) RX 1F2#10640000001E000C
(1739001975.767) RX 50C#00000002B20D
(1739001975.769) RX 1DA#C1641800000101AA
(1739001975.770) RX 11A#0140005500000115
(1739001975.773) RX 1DB#FEE0C02A00000046
(1739001975.773) RX 1DC#B40F8FFD0CCCD8E4
(1739001975.775) RX 1C2#57
(1739001975.777) RX 1D4#F7070000474600BC
(1739001975.777) RX 1F2#10640000001E010D
(1739001975.778) RX 284#000000000000E167
(1739001975.779) RX 1DA#C1641800000102A0
(1739001975.780) RX 11A#01400055400002D8
(1739001975.783) RX 1DB#FEE0C02A000001C3
(1739001975.783) RX 1DC#B40F8FFD0130C9CE
(1739001975.784) RX 55B#C980AA00E400122F
(1739001975.784) RX 5BC#5A032C26B3054074
(1739001975.785) RX 1C2#58
(1739001975.787) RX 1D4#F707000087460070
(1739001975.788) RX 1F2#10640000001E020E
(1739001975.788) RX 50A#8552A00D8020
(1739001975.789) RX 1DA#C164180000010325
(1739001975.790) RX 11A#014000AA800003CE
(1739001975.793) RX 1DB#FEE0C02A000002C9
(1739001975.793) RX 1DC#B40F8FFD0520C64C
(1739001975.795) RX 1C2#59
(1739001975.798) RX 1D4#F7070000C74600B7
(1739001975.798) RX 1F2#10640000001E030F
(1739001975.798) RX 284#000000000000E268
(1739001975.798) RX 380#02041021000000AF
(1739001975.799) RX 5BF#000000002800003C
(1739001975.799) RX 1DA#C16418000001002F
(1739001975.800) RX 11A#014000AAC0000003
(1739001975.803) RX 1DB#FEE0C02A0000034C
(1739001975.803) RX 1DC#B40F8FFD08C0CB1B
(1739001975.805) RX 1C2#5A
(1739001975.808) RX 1D4#F70700000746007B
(1739001975.808) RX 1F2#10640000001E000C
(1739001975.808) RX 50B#000006C00060
(1739001975.809) RX 1DA#C1641800000101AA
(1739001975.810) RX 11A#0140005500000115
(1739001975.813) RX 1DB#FEE0C02A00000046
(1739001975.813) RX 1DC#B40F8FFD0CCCD8E4
(1739001975.815) RX 1C2#5B
(1739001975.818) RX 1D4#F7070000474600BC
(1739001975.818) RX 1F2#10640000001E010D
(1739001975.819) RX 284#000000000000E369
(1739001975.819) RX 1DA#C1641800000102A0
(1739001975.820) RX 11A#01400055400002D8
(1739001975.823) RX 1DB#FEE0C02A000001C3
(1739001975.823) RX 1DC#B40F8FFD0130C9CE
(1739001975.825) RX 1C2#5C
(1739001975.828) RX 1D4#F707000087460070
(1739001975.829) RX 1F2#10640000001E020E
(1739001975.829) RX 1DA#C164180000010325
(1739001975.830) RX 11A#014000AA800003CE
(1739001975.833) RX 1DB#FEE0C02A000002C9
(1739001975.833) RX 1DC#B40F8FFD0520C64C
(1739001975.835) RX 1C2#5D
(1739001975.839) RX 1D4#F7070000C74600B7
(1739001975.839) RX 1F2#10640000001E030F
(1739001975.839) RX 284#000000000000E46A
(1739001975.839) RX 11A#014000AAC0000003
(1739001975.840) RX 1DA#C16418000001002F
(1739001975.843) RX 1DB#FEE0C02A0000034C
(1739001975.843) RX 1DC#B40F8FFD08C0CB1B
(1739001975.845) RX 1C2#5E
(1739001975.849) RX 1D4#F70700000746007B
(1739001975.849) RX 1F2#10640000001E000C
(1739001975.849) RX 1DA#C1641800000101AA
(1739001975.850) RX 11A#0140005500000115
(1739001975.853) RX 1DB#FEE0C02A00000046
(1739001975.853) RX 1DC#B40F8FFD0CCCD8E4
(1739001975.855) RX 54A#100070072600002D
(1739001975.855) RX 1C2#5F
(1739001975.856) RX 54B#007898122C000001
(1739001975.857) RX 54C#6C66400000785B00
(1739001975.858) RX 54F#2501000007878A5A
(1739001975.859) RX 1D4#F7070000474600BC
(1739001975.859) RX 1DA#C1641800000102A0
(1739001975.860) RX 1F2#10640000001E010D
(1739001975.860) RX 11A#01400055400002D8
(1739001975.860) RX 284#000000000000E56B
(1739001975.860) RX 55A#003230005F365B08
(1739001975.863) RX 1DB#FEC0C02A00000192
(1739001975.863) RX 1DC#B40F8FFD0130C9CE
(1739001975.865) RX 1C2#50
(1739001975.869) RX 1DA#C164180000010325
(1739001975.870) RX 1D4#F707000087460070
(1739001975.870) RX 1F2#10640000001E020E
(1739001975.870) RX 50C#000000035DF4
(1739001975.870) RX 11A#014000AA800003CE
(1739001975.873) RX 1DB#FEA0C02A0000026B
(1739001975.873) RX 1DC#B40F8FFD0520C64C
(1739001975.875) RX 1C2#51
(1739001975.879) RX 1DA#C16418000001002F
(1739001975.880) RX 11A#014000AAC0000003
(1739001975.880) RX 1D4#F7070000C74600B7
(1739001975.880) RX 1F2#10640000001E030F
(1739001975.880) RX 284#000000000000E66C
(1739001975.880) RX 5A9#643C501304300000
(1739001975.883) RX 1DB#FE80C02A000003BF
(1739001975.884) RX 1DC#B40F8FFD08C0CB1B
(1739001975.884) RX 55B#C9805500E40013ED
(1739001975.884) RX 5BC#5A032C26B3054074
(1739001975.886) RX 1C2#52
(1739001975.889) RX 1DA#C1641800000101AA
(1739001975.890) RX 1D4#F70700000746007B
(1739001975.890) RX 11A#0140005500000115
(1739001975.890) RX 1F2#10640000001E000C
(1739001975.891) RX 50A#8572A00D8020
(1739001975.893) RX 1DB#FE60C02A00000087
(1739001975.893) RX 1DC#B40F8FFD0CCCD8E4
(1739001975.896) RX 1C2#53
(1739001975.898) RX 380#02041021000000B0
(1739001975.899) RX 5BF#0000000028000009
(1739001975.899) RX 1DA#C1641800000102A0
(1739001975.900) RX 11A#01400055400002D8
(1739001975.900) RX 1D4#F7070000474600BC
(1739001975.900) RX 1F2#10640000001E010D
(1739001975.901) RX 284#000000000000E76D
(1739001975.903) RX 1DB#FE40C02A00000153
(1739001975.903) RX 1DC#B40F8FFD0130C9CE
(1739001975.906) RX 1C2#54
(1739001975.909) RX 1DA#C164180000010325
(1739001975.910) RX 11A#014000AA800003CE
(1739001975.910) RX 1D4#F707000087460070
(1739001975.911) RX 1F2#10640000001E020E
(1739001975.911) RX 284#000000000000E86E
(1739001975.911) RX 50B#000006C00060
(1739001975.913) RX 1DB#FE40C02A00000259
(1739001975.913) RX 1DC#B40F8FFD0520C64C
(1739001975.916) RX 1C2#55
(1739001975.919) RX 11A#014000AAC0000003
(1739001975.919) RX 1DA#C16418000001002F
(1739001975.921) RX 1D4#F7070000C74600B7
(1739001975.921) RX 1F2#10640000001E030F
(1739001975.923) RX 1DB#FE20BFEA00000350
(1739001975.924) RX 1DC#B40F8FFD08C0CB1B
(1739001975.926) RX 1C2#56
(1739001975.929) RX 1DA#C1641800000101AA
(1739001975.930) RX 11A#0140005500000115
(1739001975.931) RX 1D4#F70700000746007B
(1739001975.931) RX 1F2#10640000001E000C
(1739001975.931) RX 284#000000000000E96F
(1739001975.933) RX 1DB#FE00BFEA0000000B
(1739001975.933) RX 1DC#B40F8FFD0CCCD8E4
(1739001975.936) RX 1C2#57
(1739001975.939) RX 1DA#C1641800000102A0
(1739001975.940) RX 11A#01400055400002D8
(1739001975.941) RX 1D4#F7070000474600BC
(1739001975.941) RX 1F2#10640000001E010D
(1739001975.943) RX 1DB#FDE0BFEA000001B5
(1739001975.944) RX 1DC#B40F8FFD0130C9CE
(1739001975.946) RX 1C2#58
(1739001975.949) RX 1DA#C164180000010325
(1739001975.950) RX 11A#014000AA800003CE
(1739001975.951) RX 1D4#F707000087460070
(1739001975.952) RX 1F2#10640000001E020E
(1739001975.952) RX 284#000000000000EA70
(1739001975.952) RX 5B9#67FF67FF28
(1739001975.953) RX 1DB#FDC0BFEA000002EE
(1739001975.954) RX 1DC#B40F8FFD0520C64C
(1739001975.955) RX 54A#9E0070072600002D
(1739001975.956) RX 1C2#59
(1739001975.956) RX 54B#007898122C000001
(1739001975.957) RX 54C#6C66400000785B00
(1739001975.958) RX 54F#2501000007C78A5A
(1739001975.959) RX 1DA#C16418000001002F
(1739001975.959) RX 11A#014000AAC0000003
(1739001975.960) RX 55A#003230005F365B08
(1739001975.962) RX 1D4#F7070000C74600B7
(1739001975.962) RX 1F2#10640000001E030F
(1739001975.963) RX 1DB#FDC0BFEA0000036B
(1739001975.964) RX 1DC#B40F8FFD08C0CB1B
(1739001975.966) RX 1C2#5A
(1739001975.969) RX 1DA#C1641800000101AA
(1739001975.970) RX 11A#0140005500000115
(1739001975.972) RX 1D4#F70700000746007B
(1739001975.972) RX 1F2#10640000001E000C
(1739001975.972) RX 284#000000000000EB71
(1739001975.973) RX 50C#00000000B2A6
(1739001975.973) RX 1DB#FDC0BFEA00000061
(1739001975.974) RX 1DC#B40F8FFD0CCCD8E4
(1739001975.976) RX 1C2#5B
(1739001975.979) RX 1DA#C1641800000102A0
(1739001975.980) RX 11A#01400055400002D8
(1739001975.982) RX 1D4#F7070000474600BC
(1739001975.982) RX 1F2#10640000001E010D
(1739001975.984) RX 1DB#FDC0BFEA000001E4
(1739001975.984) RX 1DC#B40F8FFD0130C9CE
(1739001975.984) RX 55B#C980AA00E40010A0
(1739001975.984) RX 5BC#5A032C26B3054074
(1739001975.986) RX 1C2#5C
(1739001975.989) RX 1DA#C164180000010325
(1739001975.990) RX 11A#014000AA800003CE
(1739001975.992) RX 1D4#F707000087460070
(1739001975.993) RX 1F2#10640000001E020E
(1739001975.993) RX 284#000000000000EC72
(1739001975.993) RX 50A#8512A00D8020
(1739001975.994) RX 1DB#FDC0BFEA000002EE
(1739001975.994) RX 1DC#B40F8FFD0520C64C
(1739001975.995) RX 5C0#404C4C0004E41400
(1739001975.995) RX 5EB#E00FFFFFFFFFFFFF
(1739001975.996) RX 1C2#5D
(1739001975.998) RX 380#020410210000008D
(1739001975.998) RX 5BF#000000002800001A
(1739001975.999) RX 1DA#C16418000001002F
(1739001975.999) RX 11A#014000AAC0000003
(1739001976.003) RX 1D4#F7070000C74600B7
(1739001976.003) RX 1F2#10640000001E030F
(1739001976.003) RX 1DB#FDC0BFEA0000036B
(1739001976.004) RX 1DC#B40F8FFD08C0CB1B
(1739001976.006) RX 1C2#5E
(1739001976.009) RX 1DA#C1641800000101AA
(1739001976.010) RX 11A#0140005500000115
(1739001976.013) RX 1D4#F70700000746007B
(1739001976.013) RX 1F2#10640000001E000C
(1739001976.013) RX 284#000000000000ED73
(1739001976.014) RX 1DB#FDC0BFEA00000061
(1739001976.014) RX 50B#000006C00060
(1739001976.014) RX 1DC#B40F8FFD0CCCD8E4
(1739001976.016) RX 1C2#5F
(1739001976.017) RX 54A#100070062600002D
(1739001976.018) RX 54B#0078981234000000
(1739001976.019) RX 1DA#C1641800000102A0
(1739001976.019) RX 54C#6C66400000785B00
(1739001976.020) RX 11A#01400055400002D8
(1739001976.020) RX 54F#2501000007078A5A
(1739001976.023) RX 1D4#F7070000474600BC
(1739001976.023) RX 1F2#10640000001E010D
(1739001976.024) RX 1DB#FDC0BFEA000001E4
(1739001976.024) RX 1DC#B40F8FFD0130C9CE
(1739001976.026) RX 1C2#50
(1739001976.029) RX 1DA#C164180000010325
(1739001976.030) RX 11A#014000AA800003CE
(1739001976.033) RX 1D4#F707000087460070
(1739001976.033) RX 1DB#FDC0BFEA000002EE
(1739001976.034) RX 1F2#10640000001E020E
(1739001976.034) RX 1DC#B40F8FFD0520C64C
(1739001976.034) RX 284#000000000000EE74
(1739001976.036) RX 1C2#51
(1739001976.039) RX 1DA#C16418000001002F
(1739001976.039) RX 11A#014000AAC0000003
(1739001976.043) RX 1D4#F7070000C74600B7
(1739001976.044) RX 1DB#FDC0BFEA0000036B
(1739001976.044) RX 1F2#10640000001E030F
(1739001976.044) RX 1DC#B40F8FFD08C0CB1B
(1739001976.046) RX 1C2#52
(1739001976.049) RX 1DA#C1641800000101AA
(1739001976.050) RX 11A#0140005500000115
(1739001976.053) RX 1DB#FDC0BFEA00000061
(1739001976.054) RX 1D4#F70700000746007B
(1739001976.054) RX 1DC#B40F8FFD0CCCD8E4
(1739001976.054) RX 1F2#10640000001E000C
(1739001976.054) RX 284#000000000000EF75
(1739001976.056) RX 1C2#53
(1739001976.059) RX 1DA#C1641800000102A0
(1739001976.059) RX 55A#003230005F365B08
(1739001976.060) RX 11A#01400055400002D8
(1739001976.064) RX 1DB#FDC0BFEA000001E4
(1739001976.064) RX 1DC#B40F8FFD0130C9CE
(1739001976.064) RX 1D4#F7070000474600BC
(1739001976.064) RX 1F2#10640000001E010D
(1739001976.066) RX 1C2#54
(1739001976.069) RX 1DA#C164180000010325
(1739001976.070) RX 11A#014000AA800003CE
(1739001976.074) RX 1DB#FDC0BFEA000002EE
(1739001976.074) RX 1DC#B40F8FFD0520C64C
(1739001976.074) RX 1D4#F707000087460070
(1739001976.075) RX 1F2#10640000001E020E
(1739001976.075) RX 284#000000000000F076
(1739001976.075) RX 50C#000000015D5F
(1739001976.076) RX 1C2#55
(1739001976.079) RX 1DA#C16418000001002F
(1739001976.079) RX 11A#014000AAC0000003
(1739001976.084) RX 1DB#FDC0BFEA0000036B
(1739001976.084) RX 1DC#B40F8FFD08C0CB1B
(1739001976.084) RX 55B#C9805500E44011FF
(1739001976.085) RX 1D4#F7070000C74600B7
(1739001976.085) RX 1F2#10640000001E030F
(1739001976.085) RX 5BC#5A032026B20620A0
(1739001976.086) RX 1C2#56
(1739001976.089) RX 1DA#C1641800000101AA
(1739001976.090) RX 11A#0140005500000115
(1739001976.094) RX 1DB#FDC0BFEA00000061
(1739001976.094) RX 1DC#B40F8FFD0CCCD8E4
(1739001976.095) RX 1D4#F70700000746007B
(1739001976.095) RX 1F2#10640000001E000C
(1739001976.095) RX 284#000000000000F177
(1739001976.095) RX 50A#8532A00D8020
(1739001976.096) RX 1C2#57
(1739001976.098) RX 380#020410210000009E
(1739001976.099) RX 5BF#000000002800002B
(1739001976.099) RX 1DA#C1641800000102A0
(1739001976.100) RX 11A#01400055400002D8
(1739001976.104) RX 1DB#FDE0BFEA000001B5
(1739001976.104) RX 1DC#B40F8FFD0130C9CE
(1739001976.105) RX 1D4#F7070000474600BC
(1739001976.105) RX 1F2#10640000001E010D
(1739001976.106) RX 1C2#58
(1739001976.109) RX 1DA#C164180000010325
(1739001976.110) RX 11A#014000AA800003CE
(1739001976.114) RX 1DB#FE00BFEA00000284
(1739001976.114) RX 1DC#B40F8FFD0520C64C
(1739001976.115) RX 1D4#F707000087460070
(1739001976.115) RX 1F2#10640000001E020E
(1739001976.116) RX 284#000000000000F278
(1739001976.116) RX 50B#000006C00060
(1739001976.116) RX 54A#9E0070062600002D
(1739001976.116) RX 1C2#59
(1739001976.117) RX 54B#0078981234000000
(1739001976.118) RX 54C#6C66400000805B00
(1739001976.119) RX 1DA#C16418000001002F
(1739001976.119) RX 11A#014000AAC0000003
(1739001976.120) RX 54F#2501000007478A5A
(1739001976.124) RX 1DB#FE20BFEA00000350
(1739001976.124) RX 1DC#B40F8FFD08C0CB1B
(1739001976.126) RX 1D4#F7070000C74600B7
(1739001976.126) RX 1F2#10640000001E030F
(1739001976.126) RX 1C2#5A
(1739001976.129) RX 1DA#C1641800000101AA
(1739001976.130) RX 11A#0140005500000115
(1739001976.134) RX 1DB#FE40BFEA000000A9
(1739001976.134) RX 1DC#B40F8FFD0CCCD8E4
(1739001976.136) RX 1D4#F70700000746007B
(1739001976.136) RX 1F2#10640000001E000C
(1739001976.136) RX 284#000000000000F379
(1739001976.136) RX 1C2#5B
(1739001976.139) RX 1DA#C1641800000102A0
(1739001976.140) RX 11A#01400055400002D8
(1739001976.144) RX 1DB#FE60BFEA0000017D
(1739001976.144) RX 1DC#B40F8FFD0130C9CE
(1739001976.146) RX 1D4#F7070000474600BC
(1739001976.146) RX 1F2#10640000001E010D
(1739001976.146) RX 1C2#5C
(1739001976.149) RX 1DA#C164180000010325
(1739001976.150) RX 11A#014000AA800003CE
(1739001976.154) RX 1DB#FE60BFEA00000277
(1739001976.154) RX 1DC#B40F8FFD0520C64C
(1739001976.156) RX 1D4#F707000087460070
(1739001976.156) RX 1C2#5D
(1739001976.157) RX 1F2#10640000001E020E
(1739001976.157) RX 284#000000000000F47A
(1739001976.159) RX 1DA#C16418000001002F
(1739001976.159) RX 11A#014000AAC0000003
(1739001976.160) RX 55A#003230005F365B08
(1739001976.164) RX 1DB#FE80C02A000003BF
(1739001976.164) RX 1DC#B40F8FFD08C0CB1B
(1739001976.166) RX 1C2#5E
(1739001976.166) RX 1D4#F7070000C74600B7
(1739001976.167) RX 1F2#10640000001E030F
(1739001976.169) RX 1DA#C1641800000101AA
(1739001976.170) RX 11A#0140005500000115
(1739001976.174) RX 1DB#FEA0C02A000000E4
(1739001976.174) RX 1DC#B40F8FFD0CCCD8E4
(1739001976.176) RX 1C2#5F
(1739001976.177) RX 1D4#F70700000746007B
(1739001976.177) RX 1F2#10640000001E000C
(1739001976.177) RX 284#000000000000F57B
(1739001976.177) RX 50C#00000002B20D
(1739001976.179) RX 1DA#C1641800000102A0
(1739001976.180) RX 11A#01400055400002D8
(1739001976.184) RX 1DB#FEC0C02A00000192
(1739001976.184) RX 1DC#B40F8FFD0130C9CE
(1739001976.185) RX 55B#C980AA00E44012B2
(1739001976.185) RX 5BC#5A032026B20620A0
(1739001976.186) RX 1C2#50
(1739001976.187) RX 1D4#F7070000474600BC
(1739001976.187) RX 1F2#10640000001E010D
(1739001976.189) RX 1DA#C164180000010325
(1739001976.190) RX 11A#014000AA800003CE
(1739001976.194) RX 1DB#FEE0C02A000002C9
(1739001976.194) RX 1DC#B40F8FFD0520C64C
(1739001976.196) RX 1C2#51
(1739001976.197) RX 1D4#F707000087460070
(1739001976.197) RX 1F2#10640000001E020E
(1739001976.198) RX 284#000000000000F67C
(1739001976.198) RX 50A#8552A00D8020
(1739001976.198) RX 380#02041021000000AF
(1739001976.199) RX 5BF#000000002800003C
(1739001976.199) RX 1DA#C16418000001002F
(1739001976.199) RX 11A#014000AAC0000003
(1739001976.204) RX 1DB#FEE0C02A0000034C
(1739001976.204) RX 1DC#B40F8FFD08C0CB1B
(1739001976.206) RX 1C2#52
(1739001976.207) RX 1D4#F7070000C74600B7
(1739001976.208) RX 1F2#10640000001E030F
(1739001976.209) RX 1DA#C1641800000101AA
(1739001976.210) RX 11A#0140005500000115
(1739001976.214) RX 1DB#FEE0C02A00000046
(1739001976.214) RX 1DC#B40F8FFD0CCCD8E4
(1739001976.215) RX 54A#100070062600002D
(1739001976.216) RX 1C2#53
(1739001976.217) RX 54B#0078981234000000
(1739001976.217) RX 54C#6C66400000805B00
(1739001976.218) RX 1D4#F70700000746007B
(1739001976.218) RX 1F2#10640000001E000C
(1739001976.218) RX 284#000000000000F77D
(1739001976.218) RX 50B#000006C00060
(1739001976.219) RX 54F#2501000007878A5A
(1739001976.219) RX 1DA#C1641800000102A0
(1739001976.220) RX 11A#01400055400002D8
(1739001976.224) RX 1DB#FEE0C02A000001C3
(1739001976.224) RX 1DC#B40F8FFD0130C9CE
(1739001976.226) RX 1C2#54
(1739001976.228) RX 1D4#F7070000474600BC
(1739001976.228) RX 1F2#10640000001E010D
(1739001976.229) RX 1DA#C164180000010325
(1739001976.230) RX 11A#014000AA800003CE
(1739001976.234) RX 1DB#FEE0C02A000002C9
(1739001976.234) RX 1DC#B40F8FFD0520C64C
(1739001976.236) RX 1C2#55
(1739001976.238) RX 1D4#F707000087460070
(1739001976.238) RX 1F2#10640000001E020E
(1739001976.239) RX 284#000000000000F87E
(1739001976.239) RX 1DA#C16418000001002F
(1739001976.239) RX 11A#014000AAC0000003
(1739001976.244) RX 1DB#FEE0C02A0000034C
(1739001976.244) RX 1DC#B40F8FFD08C0CB1B
(1739001976.246) RX 1C2#56
(1739001976.248) RX 1D4#F7070000C74600B7
(1739001976.249) RX 1F2#10640000001E030F
(1739001976.249) RX 1DA#C1641800000101AA
(1739001976.250) RX 11A#0140005500000115
(1739001976.254) RX 1DB#FEE0C02A00000046
(1739001976.254) RX 1DC#B40F8FFD0CCCD8E4
(1739001976.256) RX 1C2#57
(1739001976.259) RX 1D4#F70700000746007B
(1739001976.259) RX 1F2#10640000001E000C
(1739001976.259) RX 284#000000000000F97F
(1739001976.259) RX 1DA#C1641800000102A0
(1739001976.260) RX 55A#003230005F365B08
(1739001976.260) RX 11A#01400055400002D8
(1739001976.264) RX 1DB#FEE0C02A000001C3
(1739001976.264) RX 1DC#B40F8FFD0130C9CE
(1739001976.266) RX 1C2#58
(1739001976.269) RX 1D4#F7070000474600BC
(1739001976.269) RX 1F2#10640000001E010D
(1739001976.269) RX 1DA#C164180000010325
(1739001976.270) RX 11A#014000AA800003CE
(1739001976.274) RX 1DB#FEE0C02A000002C9
(1739001976.274) RX 1DC#B40F8FFD0520C64C
(1739001976.276) RX 1C2#59
(1739001976.279) RX 1D4#F707000087460070
(1739001976.279) RX 11A#014000AAC0000003
(1739001976.280) RX 1DA#C16418000001002F
(1739001976.280) RX 1F2#10640000001E020E
(1739001976.280) RX 284#000000000000FA80
(1739001976.280) RX 50C#000000035DF4
(1739001976.284) RX 1DB#FEE0C02A0000034C
(1739001976.285) RX 1DC#B40F8FFD08C0CB1B
(1739001976.285) RX 55B#C9805500E4401370
(1739001976.285) RX 5BC#5A032026B20620A0
(1739001976.286) RX 1C2#5A
(1739001976.289) RX 1DA#C1641800000101AA
(1739001976.289) RX 1D4#F7070000C74600B7
(1739001976.290) RX 1F2#10640000001E030F
(1739001976.290) RX 11A#0140005500000115
(1739001976.294) RX 1DB#FEE0C02A00000046
(1739001976.294) RX 1DC#B40F8FFD0CCCD8E4
(1739001976.296) RX 1C2#5B
(1739001976.299) RX 380#02041021000000B0
(1739001976.299) RX 5BF#0000000028000009
(1739001976.299) RX 1DA#C1641800000102A0
(1739001976.300) RX 1D4#F70700000746007B
(1739001976.300) RX 11A#01400055400002D8
(1739001976.300) RX 1F2#10640000001E000C
(1739001976.300) RX 284#000000000000FB81
(1739001976.301) RX 50A#8572A00D8020
(1739001976.304) RX 1DB#FEE0C02A000001C3
(1739001976.304) RX 1DC#B40F8FFD0130C9CE
(1739001976.306) RX 1C2#5C
(1739001976.309) RX 1DA#C164180000010325
(1739001976.310) RX 1D4#F7070000474600BC
(1739001976.310) RX 11A#014000AA800003CE
(1739001976.310) RX 1F2#10640000001E010D
(1739001976.314) RX 1DB#FEE0C02A000002C9
(1739001976.314) RX 1DC#B40F8FFD0520C64C
(1739001976.316) RX 54A#9E0070062600002D
(1739001976.317) RX 54B#0078981234000000
(1739001976.317) RX 1C2#5D
(1739001976.318) RX 54C#6C66400000805B00
(1739001976.319) RX 54F#2501000007C78A5A
(1739001976.319) RX 1DA#C16418000001002F
(1739001976.319) RX 11A#014000AAC0000003
(1739001976.320) RX 1D4#F707000087460070
(1739001976.320) RX 1F2#10640000001E020E
(1739001976.321) RX 284#000000000000FC82
(1739001976.321) RX 50B#000006C00060
(1739001976.324) RX 1DB#FEE0C02A0000034C
(1739001976.325) RX 1DC#B40F8FFD08C0CB1B
(1739001976.327) RX 1C2#5E
(1739001976.329) RX 1DA#C1641800000101AA
(1739001976.330) RX 11A#0140005500000115
(1739001976.330) RX 1D4#F7070000C74600B7
(1739001976.331) RX 1F2#10640000001E030F
(1739001976.331) RX 284#000000000000FD83
(1739001976.334) RX 1DB#FEE0C02A00000046
(1739001976.335) RX 1DC#B40F8FFD0CCCD8E4
(1739001976.337) RX 1C2#5F
(1739001976.339) RX 1DA#C1641800000102A0
(1739001976.340) RX 11A#01400055400002D8
(1739001976.341) RX 1D4#F70700000746007B
(1739001976.341) RX 1F2#10640000001E000C
(1739001976.344) RX 1DB#FEE0C02A000001C3
(1739001976.345) RX 1DC#B40F8FFD0130C9CE
(1739001976.347) RX 1C2#50
(1739001976.349) RX 1DA#C164180000010325
(1739001976.350) RX 11A#014000AA800003CE
(1739001976.351) RX 1D4#F7070000474600BC
(1739001976.351) RX 1F2#10640000001E010D
(1739001976.351) RX 284#000000000000FE84
(1739001976.354) RX 1DB#FEE0C02A000002C9
(1739001976.355) RX 1DC#B40F8FFD0520C64C
(1739001976.357) RX 1C2#51
(1739001976.359) RX 1DA#C16418000001002F
(1739001976.359) RX 11A#014000AAC0000003
(1739001976.360) RX 55A#003230005F365B08
(1739001976.361) RX 1D4#F707000087460070
(1739001976.361) RX 1F2#10640000001E020E
(1739001976.364) RX 1DB#FEE0C02A0000034C
(1739001976.365) RX 1DC#B40F8FFD08C0CB1B
(1739001976.367) RX 1C2#52
(1739001976.369) RX 1DA#C1641800000101AA
(1739001976.370) RX 11A#0140005500000115
(1739001976.371) RX 1D4#F7070000C74600B7
(1739001976.372) RX 1F2#10640000001E030F
(1739001976.372) RX 284#000000000000FF85
(1739001976.374) RX 1DB#FEE0C02A00000046
(1739001976.375) RX 1DC#B40F8FFD0CCCD8E4
(1739001976.377) RX 1C2#53
(1739001976.379) RX 1DA#C1641800000102A0
(1739001976.380) RX 11A#01400055400002D8
(1739001976.382) RX 1D4#F70700000746007B
(1739001976.382) RX 1F2#10640000001E000C
(1739001976.382) RX 50C#00000000B2A6
(1739001976.385) RX 1DB#FEE0C02A000001C3
(1739001976.385) RX 1DC#B40F8FFD0130C9CE
(1739001976.385) RX 55B#C980AA00E440103D
(1739001976.385) RX 5BC#5A032026B20620A0
(1739001976.387) RX 1C2#54
(1739001976.389) RX 1DA#C164180000010325
(1739001976.390) RX 11A#014000AA800003CE
(1739001976.392) RX 1D4#F7070000474600BC
(1739001976.392) RX 1F2#10640000001E010D
(1739001976.392) RX 284#0000000000000086
(1739001976.393) RX 5A9#643C501304300000
(1739001976.394) RX 1DB#FEE0C02A000002C9
(1739001976.395) RX 1DC#B40F8FFD0520C64C
(1739001976.397) RX 1C2#55
(1739001976.399) RX 380#020410210000008D
(1739001976.399) RX 5BF#000000002800001A
(1739001976.399) RX 1DA#C16418000001002F
(1739001976.399) RX 11A#014000AAC0000003
(1739001976.402) RX 1D4#F707000087460070
(1739001976.402) RX 1F2#10640000001E020E
(1739001976.403) RX 50A#8512A00D8020
(1739001976.404) RX 1DB#FEE0C02A0000034C
(1739001976.405) RX 1DC#B40F8FFD08C0CB1B
(1739001976.407) RX 1C2#56
(1739001976.409) RX 1DA#C1641800000101AA
(1739001976.410) RX 11A#0140005500000115
(1739001976.412) RX 1D4#F7070000C74600B7
(1739001976.413) RX 1F2#10640000001E030F
(1739001976.413) RX 284#0000000000000187
(1739001976.414) RX 1DB#FEE0C02A00000046
(1739001976.415) RX 1DC#B40F8FFD0CCCD8E4
(1739001976.416) RX 54A#100070062600002D
(1739001976.417) RX 54B#0078981234000000
