(1739001776.512) RX 1DB#FFE0C02A000001C4
(1739001776.512) RX 1DC#B40F8FFD0130C9CE
(1739001776.512) RX 1D4#F70700000746007B
(1739001776.512) RX 1F2#10640000001E000C
(1739001776.513) RX 1C2#5F
(1739001776.515) RX 1DA#C16418000001002F
(1739001776.516) RX 11A#01400055400002D8
(1739001776.519) RX 1DB#FFE0C02A000002CE
(1739001776.520) RX 1DC#B40F8FFD0520C64C
(1739001776.521) RX 1D4#F7070000474600BC
(1739001776.521) RX 1F2#10640000001E010D
(1739001776.521) RX 284#000000000000F67C
(1739001776.523) RX 1C2#50
(1739001776.525) RX 1DA#C1641800000101AA
(1739001776.526) RX 11A#014000AA800003CE
(1739001776.530) RX 1DB#FFE0C02A0000034B
(1739001776.530) RX 1DC#B40F8FFD08C0CB1B
(1739001776.530) RX 55B#C980AA00E54013CC
(1739001776.531) RX 5BC#5A032026B2040080
(1739001776.531) RX 1D4#F707000087460070
(1739001776.501) RX 5BF#0000000028000009
(1739001776.503) RX 1C2#5E
(1739001776.505) RX 1DA#C164180000010325
(1739001776.506) RX 11A#0140005500000115
(1739001776.512) RX 1DB#FFE0C02A000001C4
(1739001776.512) RX 1DC#B40F8FFD0130C9CE
(1739001776.512) RX 1D4#F70700000746007B
(1739001776.512) RX 1F2#10640000001E000C
(1739001776.513) RX 1C2#5F
(1739001776.515) RX 1DA#C16418000001002F
(1739001776.516) RX 11A#01400055400002D8
(1739001776.519) RX 1DB#FFE0C02A000002CE
(1739001776.520) RX 1DC#B40F8FFD0520C64C
(1739001776.521) RX 1D4#F7070000474600BC
(1739001776.531) RX 1F2#10640000001E020E
(1739001776.531) RX 50C#000000015D5F
(1739001776.533) RX 1C2#51
(1739001776.535) RX 1DA#C1641800000102A0
(1739001776.536) RX 11A#014000AAC0000003
(1739001776.540) RX 1DB#FFE0C02A00000041
(1739001776.540) RX 1DC#B40F8FFD0CCCD8E4
(1739001776.541) RX 1D4#F7070000C74600B7
(1739001776.542) RX 1F2#10640000001E030F
(1739001776.542) RX 284#000000000000F77D
(1739001776.543) RX 1C2#52
(1739001776.545) RX 1DA#C164180000010325
(1739001776.546) RX 11A#0140005500000115
(1739001776.550) RX 1DB#FFE0C02A000001C4
(1739001776.550) RX 1DC#B40F8FFD0130C9CE
(1739001776.552) RX 1D4#F70700000746007B
(1739001776.552) RX 1F2#10640000001E000C
(1739001776.552) RX 50A#8532A00E8020
(1739001776.553) RX 1C2#53
(1739001776.555) RX 1DA#C16418000001002F
(1739001776.556) RX 11A#01400055400002D8
(1739001776.560) RX 1DB#FFE0C02A000002CE
(1739001776.560) RX 1DC#B40F8FFD0520C64C
(1739001776.562) RX 54A#9E0070030000002D
(1739001776.562) RX 1D4#F7070000474600BC
(1739001776.562) RX 1F2#10640000001E010D
(1739001776.563) RX 284#000000000000F87E
(1739001776.563) RX 54B#0108801204000001
(1739001776.563) RX 1C2#54
(1739001776.564) RX 54C#6766000000005A00
(1739001776.565) RX 54F#2301000007C08A5B
(1739001776.565) RX 1DA#C1641800000101AA
(1739001776.566) RX 11A#014000AA800003CE
(1739001776.570) RX 1DB#FFE0C02A0000034B
(1739001776.570) RX 1DC#B40F8FFD08C0CB1B
(1739001776.572) RX 1D4#F707000087460070
(1739001776.572) RX 1F2#10640000001E020E
(1739001776.573) RX 50B#000006C00060
(1739001776.573) RX 1C2#55
(1739001776.575) RX 1DA#C1641800000102A0
(1739001776.576) RX 11A#014000AAC0000003
(1739001776.580) RX 1DB#FFE0C02A00000041
(1739001776.580) RX 1DC#B40F8FFD0CCCD8E4
(1739001776.582) RX 1D4#F7070000C74600B7
(1739001776.582) RX 1F2#10640000001E030F
(1739001776.583) RX 284#000000000000F97F
(1739001776.583) RX 1C2#56
(1739001776.585) RX 1DA#C164180000010325
(1739001776.586) RX 11A#0140005500000115
(1739001776.590) RX 1DB#FFE0C02A000001C4
(1739001776.590) RX 1DC#B40F8FFD0130C9CE
(1739001776.592) RX 1D4#F70700000746007B
(1739001776.593) RX 1F2#10640000001E000C
(1739001776.593) RX 1C2#57
(1739001776.595) RX 1DA#C16418000001002F
(1739001776.595) RX 55A#003331005F365B08
(1739001776.596) RX 11A#01400055400002D8
(1739001776.600) RX 1DB#FFE0C02A000002CE
(1739001776.600) RX 1DC#B40F8FFD0520C64C
(1739001776.601) RX 380#020410210000008D
(1739001776.601) RX 5BF#000000002800001A
(1739001776.603) RX 1D4#F7070000474600BC
(1739001776.603) RX 1F2#10640000001E010D
(1739001776.603) RX 284#000000000000FA80
(1739001776.603) RX 1C2#58
(1739001776.605) RX 1DA#C1641800000101AA
(1739001776.606) RX 11A#014000AA800003CE
(1739001776.610) RX 1DB#FFE0C02A0000034B
(1739001776.610) RX 1DC#B40F8FFD08C0CB1B
(1739001776.618) RX 1D4#F707000087460070
(1739001776.618) RX 1F2#10640000001E020E
(1739001776.618) RX 1C2#59
(1739001776.618) RX 1DA#C1641800000102A0
(1739001776.619) RX 11A#014000AAC0000003
(1739001776.620) RX 1DB#FFE0C02A00000041
(1739001776.620) RX 1DC#B40F8FFD0CCCD8E4
(1739001776.623) RX 1D4#F7070000C74600B7
(1739001776.623) RX 1C2#5A
(1739001776.624) RX 1F2#10640000001E030F
(1739001776.624) RX 284#000000000000FB81
(1739001776.625) RX 1DA#C164180000010325
(1739001776.626) RX 11A#0140005500000115
(1739001776.630) RX 1DB#FFE0C02A000001C4
(1739001776.630) RX 1DC#B40F8FFD0130C9CE
(1739001776.631) RX 55B#C9805500E5401081
(1739001776.631) RX 5BC#5A032026B2040080
(1739001776.633) RX 1C2#5B
(1739001776.634) RX 1D4#F70700000746007B
(1739001776.634) RX 1F2#10640000001E000C
(1739001776.634) RX 50C#000000025D63
(1739001776.635) RX 1DA#C16418000001002F
(1739001776.636) RX 11A#01400055400002D8
(1739001776.640) RX 1DB#FFE0C02A000002CE
(1739001776.640) RX 1DC#B40F8FFD0520C64C
(1739001776.643) RX 1C2#5C
(1739001776.644) RX 1D4#F7070000474600BC
(1739001776.644) RX 1F2#10640000001E010D
(1739001776.644) RX 284#000000000000FC82
(1739001776.644) RX 5A9#9A44C01304300000
(1739001776.645) RX 1DA#C1641800000101AA
(1739001776.646) RX 11A#014000AA800003CE
(1739001776.650) RX 1DB#FFE0C02A0000034B
(1739001776.650) RX 1DC#B40F8FFD08C0CB1B
(1739001776.653) RX 1C2#5D
(1739001776.654) RX 1D4#F707000087460070
(1739001776.654) RX 1F2#10640000001E020E
(1739001776.654) RX 284#000000000000FD83
(1739001776.655) RX 50A#8552A00E8020
(1739001776.655) RX 1DA#C1641800000102A0
(1739001776.655) RX 11A#014000AAC0000003
(1739001776.660) RX 1DB#FFE0C02A00000041
(1739001776.660) RX 1DC#B40F8FFD0CCCD8E4
(1739001776.662) RX 54A#100070030000002D
(1739001776.663) RX 54B#0108801204000001
(1739001776.663) RX 1C2#5E
(1739001776.664) RX 54C#6766000000005A00
(1739001776.664) RX 1D4#F7070000C74600B7
(1739001776.664) RX 1F2#10640000001E030F
(1739001776.665) RX 54F#2301000007008A5A
(1739001776.665) RX 1DA#C164180000010325
(1739001776.666) RX 11A#0140005500000115
(1739001776.670) RX 1DB#FFE0C02A000001C4
(1739001776.670) RX 1DC#B40F8FFD0130C9CE
(1739001776.673) RX 1C2#5F
(1739001776.674) RX 1D4#F70700000746007B
(1739001776.675) RX 1F2#10640000001E000C
(1739001776.675) RX 284#000000000000FE84
(1739001776.675) RX 50B#000006C00060
(1739001776.675) RX 1DA#C16418000001002F
(1739001776.676) RX 11A#01400055400002D8
(1739001776.660) RX 1DB#FFE0C02A00000041
(1739001776.660) RX 1DC#B40F8FFD0CCCD8E4
(1739001776.662) RX 54A#100070030000002D
(1739001776.663) RX 54B#0108801204000001
(1739001776.663) RX 1C2#5E
(1739001776.664) RX 54C#6766000000005A00
(1739001776.664) RX 1D4#F7070000C74600B7
(1739001776.664) RX 1F2#10640000001E030F
(1739001776.665) RX 54F#2301000007008A5A
(1739001776.665) RX 1DA#C164180000010(1739001776.680) RX 1DB#FFE0C02A000002CE
(1739001776.680) RX 1DC#B40F8FFD0520C64C
(1739001776.683) RX 1C2#50
(1739001776.685) RX 1D4#F7070000474600BC
(1739001776.685) RX 1F2#10640000001E010D
(1739001776.685) RX 1DA#C1641800000101AA
(1739001776.687) RX 11A#014000AA800003CE
(1739001776.690) RX 1DB#FFE0C02A0000034B
(1739001776.690) RX 1DC#B40F8FFD08C0CB1B
(1739001776.693) RX 1C2#51
(1739001776.695) RX 1D4#F707000087460070
(1739001776.695) RX 1F2#10640000001E020E
(1739001776.695) RX 11A#014000AAC0000003
(1739001776.696) RX 1DA#C1641800000102A0
(1739001776.696) RX 284#000000000000FF85
(1739001776.696) RX 55A#003331005F365B08
(1739001776.700) RX 1DB#FFE0C02A00000041
(1739001776.700) RX 1DC#B40F8FFD0CCCD8E4
(1739001776.701) RX 380#020410210000009E
(1739001776.701) RX 5BF#000000002800002B
(1739001776.703) RX 1C2#52
(1739001776.705) RX 1D4#F7070000C74600B7
(1739001776.705) RX 1DA#C164180000010325
(1739001776.706) RX 1F2#10640000001E030F
(1739001776.706) RX 11A#0140005500000115
(1739001776.710) RX 1DB#FFE0C02A000001C4
(1739001776.710) RX 1DC#B40F8FFD0130C9CE
(1739001776.714) RX 1C2#53
(1739001776.715) RX 1DA#C16418000001002F
(1739001776.715) RX 1D4#F70700000746007B
(1739001776.716) RX 1F2#10640000001E000C
(1739001776.716) RX 11A#01400055400002D8
(1739001776.716) RX 284#0000000000000086
(1739001776.716) RX 5B9#67FF67FF28
(1739001776.720) RX 1DB#FFE0C02A000002CE
(1739001776.720) RX 1DC#B40F8FFD0520C64C
(1739001776.724) RX 1C2#54
(1739001776.725) RX 1DA#C1641800000101AA
(1739001776.726) RX 1D4#F7070000474600BC
(1739001776.726) RX 1F2#10640000001E010D
(1739001776.726) RX 11A#014000AA800003CE
(1739001776.730) RX 1DB#FFE0C02A0000034B
(1739001776.731) RX 1DC#B40F8FFD08C0CB1B
(1739001776.731) RX 55B#C9805500E5401104
(1739001776.731) RX 5BC#5A032026B2040080
(1739001776.734) RX 1C2#55
(1739001776.735) RX 1DA#C1641800000102A0
(1739001776.735) RX 11A#014000AAC0000003
(1739001776.736) RX 1D4#F707000087460070
(1739001776.736) RX 1F2#10640000001E020E
(1739001776.736) RX 284#0000000000000187
(1739001776.737) RX 50C#00000003B29A
(1739001776.740) RX 1DB#FFE0C02A00000041
(1739001776.740) RX 1DC#B40F8FFD0CCCD8E4
(1739001776.744) RX 1C2#56
(1739001776.745) RX 1DA#C164180000010325
(1739001776.746) RX 11A#0140005500000115
(1739001776.746) RX 1D4#F7070000C74600B7
(1739001776.747) RX 1F2#10640000001E030F
(1739001776.750) RX 1DB#FFE0C02A000001C4
(1739001776.751) RX 1DC#B40F8FFD0130C9CE
(1739001776.754) RX 1C2#57
(1739001776.755) RX 1DA#C16418000001002F
(1739001776.756) RX 11A#01400055400002D8
(1739001776.756) RX 1D4#F70700000746007B
(1739001776.757) RX 1F2#10640000001E000C
(1739001776.757) RX 284#0000000000000288
(1739001776.757) RX 50A#8572A00E8020
(1739001776.760) RX 1DB#FFE0C02A000002CE
(1739001776.760) RX 1DC#B40F8FFD0520C64C
(1739001776.762) RX 54A#9E0070030000002D
(1739001776.763) RX 54B#0108801204000001
(1739001776.764) RX 1C2#58
(1739001776.764) RX 54C#6766000000005A00
(1739001776.765) RX 54F#2301000007408A5A
(1739001776.765) RX 1DA#C1641800000101AA
(1739001776.766) RX 11A#014000AA800003CE
(1739001776.767) RX 1D4#F7070000474600BC
(1739001776.767) RX 1F2#10640000001E010D
(1739001776.770) RX 1DB#FFE0C02A0000034B
(1739001776.771) RX 1DC#B40F8FFD08C0CB1B
(1739001776.774) RX 1C2#59
(1739001776.775) RX 1DA#C1641800000102A0
(1739001776.775) RX 11A#014000AAC0000003
(1739001776.777) RX 1D4#F707000087460070
(1739001776.777) RX 1F2#10640000001E020E
(1739001776.777) RX 284#0000000000000389
(1739001776.778) RX 50B#000006C00060
(1739001776.780) RX 1DB#FFE0C02A00000041
(1739001776.781) RX 1DC#B40F8FFD0CCCD8E4
(1739001776.784) RX 1C2#5A
(1739001776.785) RX 1DA#C164180000010325
(1739001776.786) RX 11A#0140005500000115
(1739001776.787) RX 1D4#F7070000C74600B7
(1739001776.787) RX 1F2#10640000001E030F
(1739001776.790) RX 1DB#FFE0C02A000001C4
(1739001776.791) RX 1DC#B40F8FFD0130C9CE
(1739001776.794) RX 1C2#5B
(1739001776.795) RX 1DA#C16418000001002F
(1739001776.795) RX 55A#003331005F365B08
(1739001776.796) RX 11A#01400055400002D8
(1739001776.797) RX 1D4#F70700000746007B
(1739001776.798) RX 1F2#10640000001E000C
(1739001776.798) RX 284#000000000000048A
(1739001776.800) RX 1DB#FFE0C02A000002CE
(1739001776.801) RX 1DC#B40F8FFD0520C64C
(1739001776.801) RX 380#02041021000000AF
(1739001776.801) RX 5BF#000000002800003C
(1739001776.804) RX 1C2#5C
(1739001776.805) RX 1DA#C1641800000101AA
(1739001776.806) RX 11A#014000AA800003CE
(1739001776.808) RX 1D4#F7070000474600BC
(1739001776.808) RX 1F2#10640000001E010D
(1739001776.810) RX 1DB#FFE0C02A0000034B
(1739001776.811) RX 1DC#B40F8FFD08C0CB1B
(1739001776.814) RX 1C2#5D
(1739001776.815) RX 1DA#C1641800000102A0
(1739001776.815) RX 11A#014000AAC0000003
(1739001776.818) RX 1D4#F707000087460070
(1739001776.818) RX 1F2#10640000001E020E
(1739001776.818) RX 284#000000000000058B
(1739001776.820) RX 1DB#FFE0C02A00000041
(1739001776.821) RX 1DC#B40F8FFD0CCCD8E4
(1739001776.824) RX 1C2#5E
(1739001776.825) RX 1DA#C164180000010325
(1739001776.826) RX 11A#0140005500000115
(1739001776.828) RX 1D4#F7070000C74600B7
(1739001776.828) RX 1F2#10640000001E030F
(1739001776.831) RX 1DB#FFE0C02A000001C4
(1739001776.831) RX 1DC#B40F8FFD0130C9CE
(1739001776.831) RX 55B#C980AA00E5401249
(1739001776.831) RX 5BC#5A032026B2040080
(1739001776.834) RX 1C2#5F
(1739001776.835) RX 1DA#C16418000001002F
(1739001776.836) RX 11A#01400055400002D8
(1739001776.838) RX 1D4#F70700000746007B
(1739001776.839) RX 1F2#10640000001E000C
(1739001776.839) RX 284#000000000000068C
(1739001776.839) RX 50C#00000000B2A6
(1739001776.840) RX 1DB#FFE0C02A000002CE
(1739001776.841) RX 1DC#B40F8FFD0520C64C
(1739001776.844) RX 1C2#50
(1739001776.845) RX 1DA#C1641800000101AA
(1739001776.846) RX 11A#014000AA800003CE
(1739001776.849) RX 1D4#F7070000474600BC
(1739001776.849) RX 1F2#10640000001E010D
(1739001776.850) RX 1DB#FFE0C02A0000034B
(1739001776.851) RX 1DC#B40F8FFD08C0CB1B
(1739001776.854) RX 1C2#51
(1739001776.855) RX 1DA#C1641800000102A0
(1739001776.855) RX 11A#014000AAC0000003
(1739001776.859) RX 1D4#F707000087460070
(1739001776.859) RX 1F2#10640000001E020E
(1739001776.859) RX 284#000000000000078D
(1739001776.860) RX 50A#8512A00E8020
(1739001776.861) RX 1DB#FFE0C02A00000041
(1739001776.861) RX 1DC#B40F8FFD0CCCD8E4
(1739001776.862) RX 54A#100070030000002D
(1739001776.863) RX 54B#0108801204000001
(1739001776.864) RX 1C2#52
(1739001776.864) RX 54C#6766000000005A00
(1739001776.865) RX 54F#2301000007808A5A
(1739001776.865) RX 1DA#C164180000010325
(1739001776.866) RX 11A#0140005500000115
(1739001776.869) RX 1D4#F7070000C74600B7
(1739001776.869) RX 1F2#10640000001E030F
(1739001776.870) RX 1DB#FFE0C02A000001C4
(1739001776.871) RX 1DC#B40F8FFD0130C9CE
(1739001776.874) RX 1C2#53
(1739001776.875) RX 1DA#C16418000001002F
(1739001776.876) RX 11A#01400055400002D8
(1739001776.879) RX 1D4#F70700000746007B
(1739001776.880) RX 1F2#10640000001E000C
(1739001776.880) RX 284#000000000000088E
(1739001776.880) RX 50B#000006C00060
(1739001776.881) RX 1DB#FFE0C02A000002CE
(1739001776.881) RX 1DC#B40F8FFD0520C64C
(1739001776.884) RX 1C2#54
(1739001776.885) RX 1DA#C1641800000101AA
(1739001776.886) RX 11A#014000AA800003CE
(1739001776.890) RX 1D4#F7070000474600BC
(1739001776.890) RX 1F2#10640000001E010D
(1739001776.891) RX 1DB#FFE0C02A0000034B
(1739001776.891) RX 1DC#B40F8FFD08C0CB1B
(1739001776.894) RX 1C2#55
(1739001776.895) RX 1DA#C1641800000102A0
(1739001776.895) RX 11A#014000AAC0000003
(1739001776.896) RX 55A#003331005F365B08
(1739001776.900) RX 1D4#F707000087460070
(1739001776.900) RX 1F2#10640000001E020E
(1739001776.900) RX 284#000000000000098F
(1739001776.901) RX 1DB#FFE0C02A00000041
(1739001776.901) RX 1DC#B40F8FFD0CCCD8E4
(1739001776.901) RX 380#02041021000000B0
(1739001776.902) RX 5BF#0000000028000009
(1739001776.904) RX 1C2#56
(1739001776.905) RX 1DA#C164180000010325
(1739001776.906) RX 11A#0140005500000115
(1739001776.910) RX 1D4#F7070000C74600B7
(1739001776.910) RX 1F2#10640000001E030F
(1739001776.911) RX 1DB#FFE0C02A000001C4
(1739001776.911) RX 1DC#B40F8FFD0130C9CE
(1739001776.914) RX 1C2#57
(1739001776.915) RX 1DA#C16418000001002F
(1739001776.916) RX 11A#01400055400002D8
(1739001776.920) RX 1D4#F70700000746007B
(1739001776.921) RX 1F2#10640000001E000C
(1739001776.921) RX 1DB#FFE0C02A000002CE
(1739001776.921) RX 284#0000000000000A90
(1739001776.921) RX 1DC#B40F8FFD0520C64C
(1739001776.924) RX 1C2#58
(1739001776.925) RX 1DA#C1641800000101AA
(1739001776.926) RX 11A#014000AA800003CE
(1739001776.931) RX 1D4#F7070000474600BC
(1739001776.931) RX 1F2#10640000001E010D
(1739001776.931) RX 1DB#FFE0C02A0000034B
(1739001776.931) RX 1DC#B40F8FFD08C0CB1B
(1739001776.932) RX 55B#C980AA00E54013CC
(1739001776.932) RX 5BC#5A032026B2040080
(1739001776.934) RX 1C2#59
(1739001776.935) RX 1DA#C1641800000102A0
(1739001776.935) RX 11A#014000AAC0000003
(1739001776.941) RX 1DB#FFE0C02A00000041
(1739001776.941) RX 1D4#F707000087460070
(1739001776.941) RX 1DC#B40F8FFD0CCCD8E4
(1739001776.941) RX 1F2#10640000001E020E
(1739001776.942) RX 284#0000000000000B91
(1739001776.942) RX 50C#000000015D5F
(1739001776.942) RX 5C0#804C4C0004A01200
(1739001776.943) RX 5EB#E00FFFFFFFFFFFFF
(1739001776.944) RX 1C2#5A
(1739001776.945) RX 1DA#C164180000010325
(1739001776.946) RX 11A#0140005500000115
(1739001776.951) RX 1DB#FFE0C02A000001C4
(1739001776.951) RX 1DC#B40F8FFD0130C9CE
(1739001776.951) RX 1D4#F7070000C74600B7
(1739001776.951) RX 1F2#10640000001E030F
(1739001776.954) RX 1C2#5B
(1739001776.955) RX 1DA#C16418000001002F
(1739001776.956) RX 11A#01400055400002D8
(1739001776.961) RX 1DB#FFE0C02A000002CE
(1739001776.961) RX 1DC#B40F8FFD0520C64C
(1739001776.961) RX 1D4#F70700000746007B
(1739001776.962) RX 1F2#10640000001E000C
(1739001776.962) RX 284#0000000000000C92
(1739001776.962) RX 50A#8532A00E8020
(1739001776.962) RX 54A#9E0070030000002D
(1739001776.963) RX 54B#0108801204000001
(1739001776.964) RX 54C#6766000000005A00
(1739001776.964) RX 1C2#5C
(1739001776.965) RX 54F#2301000007C08A5A
(1739001776.965) RX 1DA#C1641800000101AA
(1739001776.966) RX 11A#014000AA800003CE
(1739001776.971) RX 1DB#FFE0C02A0000034B
(1739001776.971) RX 1DC#B40F8FFD08C0CB1B
(1739001776.972) RX 1D4#F7070000474600BC
(1739001776.972) RX 1F2#10640000001E010D
(1739001776.974) RX 1C2#5D
(1739001776.975) RX 1DA#C1641800000102A0
(1739001776.975) RX 11A#014000AAC0000003
(1739001776.981) RX 1DB#FFE0C02A00000041
(1739001776.981) RX 1DC#B40F8FFD0CCCD8E4
(1739001776.982) RX 1D4#F707000087460070
(1739001776.982) RX 1F2#10640000001E020E
(1739001776.982) RX 284#0000000000000D93
(1739001776.982) RX 50B#000006C00060
(1739001776.984) RX 1C2#5E
(1739001776.985) RX 1DA#C164180000010325
(1739001776.986) RX 11A#0140005500000115
(1739001776.991) RX 1DB#FFE0C02A000001C4
(1739001776.991) RX 1DC#B40F8FFD0130C9CE
(1739001776.992) RX 1D4#F7070000C74600B7
(1739001776.992) RX 1F2#10640000001E030F
(1739001776.994) RX 1C2#5F
(1739001776.995) RX 1DA#C16418000001002F
(1739001776.995) RX 55A#003331005F365B08
(1739001776.996) RX 11A#01400055400002D8
(1739001777.001) RX 1DB#FFE0C02A000002CE
(1739001777.001) RX 1DC#B40F8FFD0520C64C
(1739001777.001) RX 380#020410210000008D
(1739001777.002) RX 5BF#000000002800001A
(1739001777.002) RX 1D4#F70700000746007B
(1739001777.002) RX 1F2#10640000001E000C
(1739001777.003) RX 284#0000000000000E94
(1739001777.004) RX 1C2#50
(1739001777.005) RX 1DA#C1641800000101AA
(1739001777.006) RX 11A#014000AA800003CE
(1739001777.011) RX 1DB#FFE0C02A0000034B
(1739001777.011) RX 1DC#B40F8FFD08C0CB1B
(1739001777.012) RX 1D4#F7070000474600BC
(1739001777.013) RX 1F2#10640000001E010D
(1739001777.014) RX 1C2#51
(1739001777.015) RX 1DA#C1641800000102A0
(1739001777.015) RX 11A#014000AAC0000003
(1739001777.021) RX 1DB#FFE0C02A00000041
(1739001777.021) RX 1DC#B40F8FFD0CCCD8E4
(1739001777.023) RX 1D4#F707000087460070
(1739001777.023) RX 1F2#10640000001E020E
(1739001777.023) RX 284#0000000000000F95
(1739001777.024) RX 1C2#52
(1739001777.025) RX 1DA#C164180000010325
(1739001777.026) RX 11A#0140005500000115
(1739001777.031) RX 1DB#FFE0C02A000001C4
(1739001777.031) RX 1DC#B40F8FFD0130C9CE
(1739001777.032) RX 55B#C9805500E5401081
(1739001777.032) RX 5BC#5A032C26B3052092
(1739001777.033) RX 1D4#F7070000C74600B7
(1739001777.033) RX 1F2#10640000001E030F
(1739001777.034) RX 1C2#53
(1739001777.035) RX 1DA#C16418000001002F
(1739001777.036) RX 11A#01400055400002D8
(1739001777.041) RX 1DB#FFE0C02A000002CE
(1739001777.041) RX 1DC#B40F8FFD0520C64C
(1739001777.043) RX 1D4#F70700000746007B
(1739001777.044) RX 1F2#10640000001E000C
(1739001777.044) RX 284#0000000000001096
(1739001777.044) RX 50C#000000025D63
(1739001777.044) RX 1C2#54
(1739001777.045) RX 1DA#C1641800000101AA
(1739001777.046) RX 11A#014000AA800003CE
(1739001777.051) RX 1DB#FFE0C02A0000034B
(1739001777.051) RX 1DC#B40F8FFD08C0CB1B
(1739001777.053) RX 1D4#F7070000474600BC
(1739001777.054) RX 1F2#10640000001E010D
(1739001777.054) RX 1C2#55
(1739001777.055) RX 1DA#C1641800000102A0
(1739001777.055) RX 11A#014000AAC0000003
(1739001777.061) RX 1DB#FFE0C02A00000041
(1739001777.061) RX 1DC#B40F8FFD0CCCD8E4
(1739001777.062) RX 54A#100070030000002D
(1739001777.063) RX 54B#0108801204000001
(1739001777.064) RX 1D4#F707000087460070
(1739001777.064) RX 1F2#10640000001E020E
(1739001777.064) RX 284#0000000000001197
(1739001777.064) RX 50A#8552A00E8020
(1739001777.065) RX 1C2#56
(1739001777.065) RX 54C#6766000000005A00
(1739001777.065) RX 1DA#C164180000010325
(1739001777.066) RX 11A#0140005500000115
(1739001777.066) RX 54F#2301000007008A5A
(1739001777.071) RX 1DB#FFE0C02A000001C4
(1739001777.071) RX 1DC#B40F8FFD0130C9CE
(1739001777.074) RX 1D4#F7070000C74600B7
(1739001777.074) RX 1F2#10640000001E030F
(1739001777.074) RX 1C2#57
(1739001777.075) RX 284#0000000000001298
(1739001777.075) RX 1DA#C16418000001002F
(1739001777.076) RX 11A#01400055400002D8
(1739001777.081) RX 1DB#FFE0C02A000002CE
(1739001777.081) RX 1DC#B40F8FFD0520C64C
(1739001777.084) RX 1D4#F70700000746007B
(1739001777.084) RX 1F2#10640000001E000C
(1739001777.085) RX 1C2#58
(1739001777.085) RX 50B#000006C00060
(1739001777.085) RX 1DA#C1641800000101AA
(1739001777.086) RX 11A#014000AA800003CE
(1739001777.091) RX 1DB#FFE0C02A0000034B
(1739001777.091) RX 1DC#B40F8FFD08C0CB1B
(1739001777.094) RX 1D4#F7070000474600BC
(1739001777.095) RX 1C2#59
(1739001777.095) RX 1F2#10640000001E010D
(1739001777.095) RX 284#0000000000001399
(1739001777.095) RX 1DA#C1641800000102A0
(1739001777.096) RX 11A#014000AAC0000003
(1739001777.096) RX 55A#003331005F365B08
(1739001777.101) RX 1DB#FFE0C02A00000041
(1739001777.101) RX 1DC#B40F8FFD0CCCD8E4
(1739001777.102) RX 380#020410210000009E
(1739001777.102) RX 5BF#000000002800002B
(1739001777.104) RX 1C2#5A
(1739001777.105) RX 1D4#F707000087460070
(1739001777.105) RX 1F2#10640000001E020E
(1739001777.105) RX 1DA#C164180000010325
(1739001777.106) RX 11A#0140005500000115
(1739001777.111) RX 1DB#FFE0C02A000001C4
(1739001777.112) RX 1DC#B40F8FFD0130C9CE
(1739001777.114) RX 1C2#5B
(1739001777.115) RX 1D4#F7070000C74600B7
(1739001777.115) RX 1F2#10640000001E030F
(1739001777.115) RX 1DA#C16418000001002F
(1739001777.116) RX 284#000000000000149A
(1739001777.116) RX 11A#01400055400002D8
(1739001777.121) RX 1DB#FFE0C02A000002CE
(1739001777.121) RX 1DC#B40F8FFD0520C64C
(1739001777.124) RX 1C2#5C
(1739001777.125) RX 1D4#F70700000746007B
(1739001777.125) RX 1DA#C1641800000101AA
(1739001777.126) RX 1F2#10640000001E000C
(1739001777.126) RX 11A#014000AA800003CE
(1739001777.131) RX 1DB#FFE0C02A0000034B
(1739001777.132) RX 1DC#B40F8FFD08C0CB1B
(1739001777.132) RX 55B#C9805500E5401104
(1739001777.132) RX 5BC#5A032C26B3052092
(1739001777.134) RX 1C2#5D
(1739001777.135) RX 1DA#C1641800000102A0
(1739001777.135) RX 11A#014000AAC0000003
(1739001777.136) RX 1D4#F7070000474600BC
(1739001777.136) RX 1F2#10640000001E010D
(1739001777.136) RX 284#000000000000159B
(1739001777.141) RX 1DB#FFE0C02A00000041
(1739001777.142) RX 1DC#B40F8FFD0CCCD8E4
(1739001777.145) RX 1C2#5E
(1739001777.145) RX 1DA#C164180000010325
(1739001777.146) RX 1D4#F707000087460070
(1739001777.146) RX 1F2#10640000001E020E
(1739001777.146) RX 11A#0140005500000115
(1739001777.146) RX 50C#00000003B29A
(1739001777.151) RX 1DB#FFE0C02A000001C4
(1739001777.152) RX 1DC#B40F8FFD0130C9CE
(1739001777.155) RX 1C2#5F
(1739001777.155) RX 1DA#C16418000001002F
(1739001777.156) RX 11A#01400055400002D8
(1739001777.156) RX 1D4#F7070000C74600B7
(1739001777.156) RX 1F2#10640000001E030F
(1739001777.156) RX 284#000000000000169C
(1739001777.157) RX 5A9#9A44C01304300000
(1739001777.161) RX 1DB#FFE0C02A000002CE
(1739001777.162) RX 1DC#B40F8FFD0520C64C
(1739001777.162) RX 54A#9E0070030000002D
(1739001777.163) RX 54B#0108801204000001
(1739001777.164) RX 54C#6766000000005A00
(1739001777.165) RX 1C2#50
(1739001777.165) RX 1DA#C1641800000101AA
(1739001777.165) RX 54F#2301000007408A5A
(1739001777.166) RX 11A#014000AA800003CE
(1739001777.166) RX 1D4#F70700000746007B
(1739001777.167) RX 1F2#10640000001E000C
(1739001777.167) RX 50A#8572A00E8020
(1739001777.171) RX 1DB#FFE0C02A0000034B
(1739001777.172) RX 1DC#B40F8FFD08C0CB1B
(1739001777.175) RX 1C2#51
(1739001777.175) RX 1DA#C1641800000102A0
(1739001777.175) RX 11A#014000AAC0000003
(1739001777.176) RX 1D4#F7070000474600BC
(1739001777.177) RX 1F2#10640000001E010D
(1739001777.177) RX 284#000000000000179D
(1739001777.181) RX 1DB#FFE0C02A00000041
(1739001777.182) RX 1DC#B40F8FFD0CCCD8E4
(1739001777.185) RX 1C2#52
(1739001777.185) RX 1DA#C164180000010325
(1739001777.186) RX 11A#0140005500000115
(1739001777.187) RX 1D4#F707000087460070
(1739001777.187) RX 1F2#10640000001E020E
(1739001777.187) RX 50B#000006C00060
(1739001777.191) RX 1DB#FFE0C02A000001C4
(1739001777.192) RX 1DC#B40F8FFD0130C9CE
(1739001777.195) RX 1C2#53
(1739001777.195) RX 1DA#C16418000001002F
(1739001777.195) RX 55A#003331005F365B08
(1739001777.196) RX 11A#01400055400002D8
(1739001777.197) RX 1D4#F7070000C74600B7
(1739001777.197) RX 1F2#10640000001E030F
(1739001777.197) RX 284#000000000000189E
(1739001777.201) RX 1DB#FFE0C02A000002CE
(1739001777.202) RX 380#02041021000000AF
(1739001777.202) RX 1DC#B40F8FFD0520C64C
(1739001777.202) RX 5BF#000000002800003C
(1739001777.205) RX 1C2#54
(1739001777.205) RX 1DA#C1641800000101AA
(1739001777.206) RX 11A#014000AA800003CE
(1739001777.207) RX 1D4#F70700000746007B
(1739001777.207) RX 1F2#10640000001E000C
(1739001777.211) RX 1DB#FFE0C02A0000034B
(1739001777.212) RX 1DC#B40F8FFD08C0CB1B
(1739001777.215) RX 1C2#55
(1739001777.215) RX 1DA#C1641800000102A0
(1739001777.215) RX 11A#014000AAC0000003
(1739001777.217) RX 1D4#F7070000474600BC
(1739001777.218) RX 1F2#10640000001E010D
(1739001777.218) RX 284#000000000000199F
(1739001777.221) RX 1DB#FFE0C02A00000041
(1739001777.222) RX 1DC#B40F8FFD0CCCD8E4
(1739001777.225) RX 1C2#56
(1739001777.225) RX 1DA#C164180000010325
(1739001777.226) RX 11A#0140005500000115
(1739001777.228) RX 1D4#F707000087460070
(1739001777.228) RX 1F2#10640000001E020E
(1739001777.228) RX 5B9#67FF67FF28
(1739001777.232) RX 1DB#FFE0C02A000001C4
(1739001777.232) RX 1DC#B40F8FFD0130C9CE
(1739001777.232) RX 55B#C980AA00E5401249
(1739001777.232) RX 5BC#5A032C26B3052092
(1739001777.235) RX 1C2#57
(1739001777.235) RX 1DA#C16418000001002F
(1739001777.236) RX 11A#01400055400002D8
(1739001777.238) RX 1D4#F7070000C74600B7
(1739001777.238) RX 1F2#10640000001E030F
(1739001777.238) RX 284#0000000000001AA0
(1739001777.241) RX 1DB#FFE0C02A000002CE
(1739001777.242) RX 1DC#B40F8FFD0520C64C
(1739001777.245) RX 1C2#58
(1739001777.245) RX 1DA#C1641800000101AA
(1739001777.246) RX 11A#014000AA800003CE
(1739001777.248) RX 1D4#F70700000746007B
(1739001777.248) RX 1F2#10640000001E000C
(1739001777.249) RX 50C#000000005DC8
(1739001777.252) RX 1DB#FFE0C02A0000034B
(1739001777.252) RX 1DC#B40F8FFD08C0CB1B
(1739001777.255) RX 1C2#59
(1739001777.255) RX 1DA#C1641800000102A0
(1739001777.255) RX 11A#014000AAC0000003
(1739001777.258) RX 1D4#F7070000474600BC
(1739001777.259) RX 1F2#10640000001E010D
(1739001777.259) RX 284#0000000000001BA1
(1739001777.262) RX 1DB#FFE0C02A00000041
(1739001777.262) RX 1DC#B40F8FFD0CCCD8E4
(1739001777.262) RX 54A#100070030000002D
(1739001777.263) RX 54B#0108801204000001
(1739001777.264) RX 54C#6766000000005A00
(1739001777.265) RX 1C2#5A
(1739001777.265) RX 1DA#C164180000010325
(1739001777.265) RX 54F#2301000007808A5A
(1739001777.266) RX 11A#0140005500000115
(1739001777.269) RX 1D4#F707000087460070
(1739001777.269) RX 1F2#10640000001E020E
(1739001777.269) RX 50A#8512A00E8020
(1739001777.272) RX 1DB#FFE0C02A000001C4
(1739001777.272) RX 1DC#B40F8FFD0130C9CE
(1739001777.275) RX 1C2#5B
(1739001777.275) RX 1DA#C16418000001002F
(1739001777.276) RX 11A#01400055400002D8
(1739001777.279) RX 1D4#F7070000C74600B7
(1739001777.279) RX 1F2#10640000001E030F
(1739001777.279) RX 284#0000000000001CA2
(1739001777.282) RX 1DB#FFE0C02A000002CE
(1739001777.282) RX 1DC#B40F8FFD0520C64C
(1739001777.285) RX 1C2#5C
(1739001777.285) RX 1DA#C1641800000101AA
(1739001777.286) RX 11A#014000AA800003CE
(1739001777.289) RX 1D4#F70700000746007B
(1739001777.289) RX 1F2#10640000001E000C
(1739001777.289) RX 50B#000006C00060
(1739001777.292) RX 1DB#FFE0C02A0000034B
(1739001777.292) RX 1DC#B40F8FFD08C0CB1B
(1739001777.295) RX 1C2#5D
(1739001777.295) RX 1DA#C1641800000102A0
(1739001777.295) RX 11A#014000AAC0000003
(1739001777.296) RX 55A#003331005F365B08
(1739001777.299) RX 1D4#F7070000474600BC
(1739001777.300) RX 1F2#10640000001E010D
(1739001777.300) RX 284#0000000000001DA3
(1739001777.302) RX 1DB#FFE0C02A00000041
(1739001777.302) RX 380#02041021000000B0
(1739001777.302) RX 1DC#B40F8FFD0CCCD8E4
(1739001777.302) RX 5BF#0000000028000009
(1739001777.305) RX 1C2#5E
(1739001777.305) RX 1DA#C164180000010325
(1739001777.306) RX 11A#0140005500000115
(1739001777.310) RX 1D4#F707000087460070
(1739001777.310) RX 1F2#10640000001E020E
(1739001777.312) RX 1DB#FFE0C02A000001C4
(1739001777.312) RX 1DC#B40F8FFD0130C9CE
(1739001777.315) RX 1C2#5F
(1739001777.315) RX 1DA#C16418000001002F
(1739001777.316) RX 11A#01400055400002D8
(1739001777.320) RX 1D4#F7070000C74600B7
(1739001777.320) RX 1F2#10640000001E030F
(1739001777.320) RX 284#0000000000001EA4
(1739001777.322) RX 1DB#FFE0C02A000002CE
(1739001777.322) RX 1DC#B40F8FFD0520C64C
(1739001777.325) RX 1C2#50
(1739001777.325) RX 1DA#C1641800000101AA
(1739001777.326) RX 11A#014000AA800003CE
(1739001777.330) RX 1D4#F70700000746007B
(1739001777.330) RX 1F2#10640000001E000C
(1739001777.332) RX 1DB#FFE0C02A0000034B
(1739001777.332) RX 1DC#B40F8FFD08C0CB1B
(1739001777.333) RX 55B#C9805500E540138B
(1739001777.333) RX 5BC#5A032C26B3052092
(1739001777.335) RX 1C2#51
(1739001777.335) RX 1DA#C1641800000102A0
(1739001777.335) RX 11A#014000AAC0000003
(1739001777.340) RX 1D4#F7070000474600BC
(1739001777.341) RX 1F2#10640000001E010D
(1739001777.341) RX 284#0000000000001FA5
(1739001777.342) RX 1DB#FFE0C02A00000041
(1739001777.342) RX 1DC#B40F8FFD0CCCD8E4
(1739001777.345) RX 1C2#52
(1739001777.345) RX 1DA#C164180000010325
(1739001777.346) RX 11A#0140005500000115
(1739001777.351) RX 1D4#F707000087460070
(1739001777.351) RX 1F2#10640000001E020E
(1739001777.351) RX 50C#00000001B231
(1739001777.352) RX 1DB#FFE0C02A000001C4
(1739001777.352) RX 1DC#B40F8FFD0130C9CE
(1739001777.355) RX 1DA#C16418000001002F
(1739001777.355) RX 1C2#53
(1739001777.356) RX 11A#01400055400002D8
(1739001777.361) RX 1D4#F7070000C74600B7
(1739001777.361) RX 1F2#10640000001E030F
(1739001777.361) RX 284#00000000000020A6
(1739001777.362) RX 1DB#FFE0C02A000002CE
(1739001777.362) RX 1DC#B40F8FFD0520C64C
(1739001777.362) RX 54A#9E0070030000002D
(1739001777.363) RX 54B#0108801204000001
(1739001777.364) RX 54C#6766000000005A00
(1739001777.365) RX 1DA#C1641800000101AA
(1739001777.365) RX 1C2#54
(1739001777.365) RX 54F#2301000007C08A5A
(1739001777.366) RX 11A#014000AA800003CE
(1739001777.371) RX 1D4#F70700000746007B
(1739001777.371) RX 1F2#10640000001E000C
(1739001777.371) RX 50A#8532A00E8020
(1739001777.372) RX 1DB#FFE0C02A0000034B
(1739001777.372) RX 1DC#B40F8FFD08C0CB1B
(1739001777.375) RX 1DA#C1641800000102A0
(1739001777.375) RX 11A#014000AAC0000003
(1739001777.376) RX 1C2#55
(1739001777.381) RX 1D4#F7070000474600BC
(1739001777.381) RX 1F2#10640000001E010D
(1739001777.382) RX 284#00000000000021A7
(1739001777.382) RX 1DB#FFE0C02A00000041
(1739001777.382) RX 1DC#B40F8FFD0CCCD8E4
(1739001777.385) RX 1DA#C164180000010325
(1739001777.385) RX 1C2#56
(1739001777.386) RX 11A#0140005500000115
(1739001777.391) RX 1D4#F707000087460070
(1739001777.392) RX 1F2#10640000001E020E
(1739001777.392) RX 50B#000006C00060
(1739001777.392) RX 1DB#FFE0C02A000001C4
(1739001777.392) RX 1DC#B40F8FFD0130C9CE
(1739001777.395) RX 1DA#C16418000001002F
(1739001777.395) RX 1C2#57
(1739001777.395) RX 55A#003331005F365B08
(1739001777.396) RX 11A#01400055400002D8
(1739001777.402) RX 1D4#F7070000C74600B7
(1739001777.402) RX 1DB#FFE0C02A000002CE
(1739001777.402) RX 1F2#10640000001E030F
(1739001777.402) RX 1DC#B40F8FFD0520C64C
(1739001777.403) RX 284#00000000000022A8
(1739001777.403) RX 380#020410210000008D
(1739001777.403) RX 5BF#000000002800001A
(1739001777.405) RX 1DA#C1641800000101AA
(1739001777.405) RX 1C2#58
(1739001777.406) RX 11A#014000AA800003CE
(1739001777.412) RX 1D4#F70700000746007B
(1739001777.412) RX 1DB#FFE0C02A0000034B
(1739001777.412) RX 1F2#10640000001E000C
(1739001777.413) RX 1DC#B40F8FFD08C0CB1B
(1739001777.415) RX 1DA#C1641800000102A0
(1739001777.415) RX 11A#014000AAC0000003
(1739001777.416) RX 1C2#59
(1739001777.422) RX 1DB#FFE0C02A00000041
(1739001777.422) RX 1D4#F7070000474600BC
(1739001777.422) RX 1DC#B40F8FFD0CCCD8E4
(1739001777.423) RX 1F2#10640000001E010D
(1739001777.423) RX 284#00000000000023A9
(1739001777.425) RX 1DA#C164180000010325
(1739001777.425) RX 1C2#5A
(1739001777.426) RX 11A#0140005500000115
(1739001777.432) RX 1DB#FFE0C02A000001C4
(1739001777.432) RX 1D4#F707000087460070
(1739001777.433) RX 1DC#B40F8FFD0130C9CE
(1739001777.433) RX 1F2#10640000001E020E
(1739001777.433) RX 55B#C980AA00E54010C6
(1739001777.433) RX 5BC#5A032C26B3052092
(1739001777.435) RX 1DA#C16418000001002F
(1739001777.435) RX 1C2#5B
(1739001777.436) RX 11A#01400055400002D8
(1739001777.442) RX 1DB#FFE0C02A000002CE
(1739001777.442) RX 1DC#B40F8FFD0520C64C
(1739001777.443) RX 1D4#F7070000C74600B7
(1739001777.443) RX 1F2#10640000001E030F
(1739001777.443) RX 284#00000000000024AA
(1739001777.443) RX 5C0#404C4C0004E41200
(1739001777.444) RX 5EB#E00FFFFFFFFFFFFF
(1739001777.445) RX 1DA#C1641800000101AA
(1739001777.445) RX 1C2#5C
(1739001777.446) RX 11A#014000AA800003CE
(1739001777.452) RX 1DB#FFE0C02A0000034B
(1739001777.452) RX 1DC#B40F8FFD08C0CB1B
(1739001777.453) RX 1D4#F70700000746007B
(1739001777.453) RX 1F2#10640000001E000C
(1739001777.453) RX 50C#000000025D63
(1739001777.455) RX 1DA#C1641800000102A0
(1739001777.455) RX 11A#014000AAC0000003
(1739001777.456) RX 1C2#5D
(1739001777.462) RX 1DB#FFE0C02A00000041
(1739001777.462) RX 1DC#B40F8FFD0CCCD8E4
(1739001777.463) RX 54A#100070030000002D
(1739001777.463) RX 1D4#F7070000474600BC
(1739001777.463) RX 1F2#10640000001E010D
(1739001777.464) RX 284#00000000000025AB
(1739001777.464) RX 54B#0108801204000001
(1739001777.464) RX 54C#6766000000005A00
(1739001777.465) RX 1DA#C164180000010325
(1739001777.465) RX 1C2#5E
(1739001777.465) RX 54F#2301000007008A5A
(1739001777.466) RX 11A#0140005500000115
(1739001777.472) RX 1DB#FFE0C02A000001C4
(1739001777.472) RX 1DC#B40F8FFD0130C9CE
(1739001777.473) RX 1D4#F707000087460070
(1739001777.474) RX 1F2#10640000001E020E
(1739001777.474) RX 50A#8552A00E8020
(1739001777.475) RX 1DA#C16418000001002F
(1739001777.475) RX 1C2#5F
(1739001777.476) RX 11A#01400055400002D8
(1739001777.482) RX 1DB#FFE0C02A000002CE
(1739001777.482) RX 1DC#B40F8FFD0520C64C
(1739001777.484) RX 1D4#F7070000C74600B7
(1739001777.484) RX 1F2#10640000001E030F
(1739001777.484) RX 284#00000000000026AC
(1739001777.485) RX 1DA#C1641800000101AA
(1739001777.485) RX 1C2#50
(1739001777.486) RX 11A#014000AA800003CE
(1739001777.492) RX 1DB#FFE0C02A0000034B
(1739001777.493) RX 1DC#B40F8FFD08C0CB1B
(1739001777.494) RX 1D4#F70700000746007B
(1739001777.494) RX 1F2#10640000001E000C
(1739001777.494) RX 284#00000000000027AD
(1739001777.495) RX 50B#000006C00060
(1739001777.495) RX 1DA#C1641800000102A0
(1739001777.495) RX 11A#014000AAC0000003
(1739001777.496) RX 55A#003331005F365B08
(1739001777.496) RX 1C2#51
(1739001777.502) RX 380#020410210000009E
(1739001777.502) RX 5BF#000000002800002B
(1739001777.502) RX 1DB#FFE0C02A00000041
(1739001777.503) RX 1DC#B40F8FFD0CCCD8E4
(1739001777.504) RX 1D4#F7070000474600BC
(1739001777.504) RX 1F2#10640000001E010D
(1739001777.505) RX 1DA#C164180000010325
(1739001777.505) RX 1C2#52
(1739001777.506) RX 11A#0140005500000115
(1739001777.512) RX 1DB#FFE0C02A000001C4
(1739001777.513) RX 1DC#B40F8FFD0130C9CE
(1739001777.514) RX 1D4#F707000087460070
(1739001777.515) RX 1F2#10640000001E020E
(1739001777.515) RX 284#00000000000028AE
(1739001777.515) RX 1DA#C16418000001002F
(1739001777.516) RX 11A#01400055400002D8
(1739001777.516) RX 1C2#53
(1739001777.522) RX 1DB#FFE0C02A000002CE
(1739001777.523) RX 1DC#B40F8FFD0520C64C
(1739001777.525) RX 1D4#F7070000C74600B7
(1739001777.525) RX 1F2#10640000001E030F
(1739001777.525) RX 1DA#C1641800000101AA
(1739001777.525) RX 1C2#54
(1739001777.526) RX 11A#014000AA800003CE
(1739001777.532) RX 1DB#FFE0C02A0000034B
(1739001777.533) RX 1DC#B40F8FFD08C0CB1B
(1739001777.533) RX 55B#C9805500E5401104
(1739001777.533) RX 5BC#5A032026B2054074
(1739001777.535) RX 1D4#F70700000746007B
(1739001777.535) RX 1DA#C1641800000102A0
(1739001777.535) RX 11A#014000AAC0000003
(1739001777.536) RX 1C2#55
(1739001777.536) RX 1F2#10640000001E000C
(1739001777.536) RX 284#00000000000029AF
(1739001777.542) RX 1DB#FFE0C02A00000041
(1739001777.543) RX 1DC#B40F8FFD0CCCD8E4
(1739001777.545) RX 1DA#C164180000010325
(1739001777.545) RX 1D4#F7070000474600BC
(1739001777.546) RX 1F2#10640000001E010D
(1739001777.546) RX 1C2#56
(1739001777.546) RX 11A#0140005500000115
(1739001777.552) RX 1DB#FFE0C02A000001C4
(1739001777.553) RX 1DC#B40F8FFD0130C9CE
(1739001777.555) RX 1DA#C16418000001002F
(1739001777.555) RX 1D4#F707000087460070
(1739001777.556) RX 1F2#10640000001E020E
(1739001777.556) RX 1C2#57
(1739001777.556) RX 11A#01400055400002D8
(1739001777.556) RX 284#0000000000002AB0
(1739001777.556) RX 50C#00000003B29A
(1739001777.562) RX 1DB#FFE0C02A000002CE
(1739001777.563) RX 54A#9E0070030000002D
(1739001777.563) RX 1DC#B40F8FFD0520C64C
(1739001777.564) RX 54B#0108801204000001
(1739001777.565) RX 54C#6766000000005A00
(1739001777.565) RX 1DA#C1641800000101AA
(1739001777.566) RX 54F#2301000007408A59
(1739001777.566) RX 1D4#F7070000C74600B7
(1739001777.566) RX 11A#014000AA800003CE
(1739001777.566) RX 1C2#58
(1739001777.566) RX 1F2#10640000001E030F
(1739001777.572) RX 1DB#FFE0C02A0000034B
(1739001777.573) RX 1DC#B40F8FFD08C0CB1B
(1739001777.575) RX 1DA#C1641800000102A0
(1739001777.575) RX 11A#014000AAC0000003
(1739001777.576) RX 1C2#59
(1739001777.576) RX 1D4#F70700000746007B
(1739001777.576) RX 1F2#10640000001E000C
(1739001777.576) RX 284#0000000000002BB1
(1739001777.577) RX 50A#8572A00E8020
(1739001777.582) RX 1DB#FFE0C02A00000041
(1739001777.583) RX 1DC#B40F8FFD0CCCD8E4
(1739001777.585) RX 1DA#C164180000010325
(1739001777.586) RX 1C2#5A
(1739001777.586) RX 11A#0140005500000115
(1739001777.586) RX 1D4#F7070000474600BC
(1739001777.586) RX 1F2#10640000001E010D
(1739001777.593) RX 1DB#FFE0C02A000001C4
(1739001777.593) RX 1DC#B40F8FFD0130C9CE
(1739001777.595) RX 1DA#C16418000001002F
(1739001777.595) RX 55A#003331005F365B08
(1739001777.596) RX 11A#01400055400002D8
(1739001777.596) RX 1C2#5B
(1739001777.596) RX 1D4#F707000087460070
(1739001777.597) RX 1F2#10640000001E020E
(1739001777.597) RX 284#0000000000002CB2
(1739001777.597) RX 50B#000006C00060
(1739001777.602) RX 380#02041021000000AF
(1739001777.602) RX 5BF#000000002800003C
(1739001777.603) RX 1DB#FFE0C02A000002CE
(1739001777.603) RX 1DC#B40F8FFD0520C64C
(1739001777.605) RX 1DA#C1641800000101AA
(1739001777.606) RX 1C2#5C
(1739001777.606) RX 11A#014000AA800003CE
(1739001777.607) RX 1D4#F7070000C74600B7
(1739001777.607) RX 1F2#10640000001E030F
(1739001777.613) RX 1DB#FFE0C02A0000034B
(1739001777.613) RX 1DC#B40F8FFD08C0CB1B
(1739001777.615) RX 1DA#C1641800000102A0
(1739001777.615) RX 11A#014000AAC0000003
(1739001777.616) RX 1C2#5D
(1739001777.617) RX 1D4#F70700000746007B
(1739001777.617) RX 1F2#10640000001E000C
(1739001777.617) RX 284#0000000000002DB3
(1739001777.623) RX 1DB#FFE0C02A00000041
(1739001777.623) RX 1DC#B40F8FFD0CCCD8E4
(1739001777.625) RX 1DA#C164180000010325
(1739001777.626) RX 1C2#5E
(1739001777.626) RX 11A#0140005500000115
(1739001777.627) RX 1D4#F7070000474600BC
(1739001777.627) RX 1F2#10640000001E010D
(1739001777.633) RX 1DB#FFE0C02A000001C4
(1739001777.633) RX 1DC#B40F8FFD0130C9CE
(1739001777.633) RX 55B#C980AA00E5401249
(1739001777.634) RX 5BC#5A032026B2054074
(1739001777.635) RX 1DA#C16418000001002F
(1739001777.636) RX 11A#01400055400002D8
(1739001777.636) RX 1C2#5F
(1739001777.637) RX 1D4#F707000087460070
(1739001777.638) RX 1F2#10640000001E020E
(1739001777.638) RX 284#0000000000002EB4
(1739001777.643) RX 1DB#FFE0C02A000002CE
(1739001777.643) RX 1DC#B40F8FFD0520C64C
(1739001777.645) RX 1DA#C1641800000101AA
(1739001777.646) RX 1C2#50
(1739001777.646) RX 11A#014000AA800003CE
(1739001777.648) RX 1D4#F7070000C74600B7
(1739001777.648) RX 1F2#10640000001E030F
(1739001777.653) RX 1DB#FFE0C02A0000034B
(1739001777.653) RX 1DC#B40F8FFD08C0CB1B
(1739001777.655) RX 1DA#C1641800000102A0
(1739001777.655) RX 11A#014000AAC0000003
(1739001777.656) RX 1C2#51
(1739001777.658) RX 1D4#F70700000746007B
(1739001777.658) RX 1F2#10640000001E000C
(1739001777.658) RX 284#0000000000002FB5
(1739001777.659) RX 50C#000000005DC8
(1739001777.663) RX 54A#100070030000002D
(1739001777.663) RX 1DB#FFE0C02A00000041
(1739001777.663) RX 1DC#B40F8FFD0CCCD8E4
(1739001777.664) RX 54B#0108801204000001
(1739001777.665) RX 54C#6766000000005A00
(1739001777.665) RX 1DA#C164180000010325
(1739001777.666) RX 54F#2301000007808A59
(1739001777.666) RX 1C2#52
(1739001777.666) RX 11A#0140005500000115
(1739001777.668) RX 1D4#F7070000474600BC
(1739001777.668) RX 1F2#10640000001E010D
(1739001777.669) RX 5A9#9A44C01304300000
(1739001777.673) RX 1DB#FFE0C02A000001C4
(1739001777.673) RX 1DC#B40F8FFD0130C9CE
(1739001777.675) RX 1DA#C16418000001002F
(1739001777.676) RX 11A#01400055400002D8
(1739001777.676) RX 1C2#53
(1739001777.678) RX 1D4#F707000087460070
(1739001777.679) RX 1F2#10640000001E020E
(1739001777.679) RX 284#00000000000030B6
(1739001777.679) RX 50A#8512A00E8020
(1739001777.683) RX 1DB#FFE0C02A000002CE
(1739001777.683) RX 1DC#B40F8FFD0520C64C
(1739001777.685) RX 1DA#C1641800000101AA
(1739001777.686) RX 1C2#54
(1739001777.686) RX 11A#014000AA800003CE
(1739001777.689) RX 1D4#F7070000C74600B7
(1739001777.689) RX 1F2#10640000001E030F
(1739001777.693) RX 1DB#FFE0C02A0000034B
(1739001777.693) RX 1DC#B40F8FFD08C0CB1B
(1739001777.695) RX 1DA#C1641800000102A0
(1739001777.695) RX 11A#014000AAC0000003
(1739001777.696) RX 55A#003331005F365B08
(1739001777.696) RX 1C2#55
(1739001777.699) RX 1D4#F70700000746007B
(1739001777.699) RX 1F2#10640000001E000C
(1739001777.699) RX 284#00000000000031B7
(1739001777.700) RX 50B#000006C00060
(1739001777.702) RX 380#02041021000000B0
(1739001777.702) RX 5BF#0000000028000009
(1739001777.703) RX 1DB#FFE0C02A00000041
(1739001777.703) RX 1DC#B40F8FFD0CCCD8E4
(1739001777.705) RX 1DA#C164180000010325
(1739001777.706) RX 1C2#56
(1739001777.706) RX 11A#0140005500000115
(1739001777.709) RX 1D4#F7070000474600BC
(1739001777.709) RX 1F2#10640000001E010D
(1739001777.713) RX 1DB#FFE0C02A000001C4
(1739001777.713) RX 1DC#B40F8FFD0130C9CE
(1739001777.715) RX 1DA#C16418000001002F
(1739001777.716) RX 11A#01400055400002D8
(1739001777.716) RX 1C2#57
(1739001777.719) RX 1D4#F707000087460070
(1739001777.720) RX 1F2#10640000001E020E
(1739001777.720) RX 284#00000000000032B8
(1739001777.723) RX 1DB#FFE0C02A000002CE
(1739001777.723) RX 1DC#B40F8FFD0520C64C
(1739001777.725) RX 1DA#C1641800000101AA
(1739001777.726) RX 1C2#58
(1739001777.726) RX 11A#014000AA800003CE
(1739001777.729) RX 1D4#F7070000C74600B7
(1739001777.730) RX 1F2#10640000001E030F
(1739001777.733) RX 1DB#FFE0C02A0000034B
(1739001777.733) RX 1DC#B40F8FFD08C0CB1B
(1739001777.734) RX 55B#C9805500E540138B
(1739001777.734) RX 5BC#5A032026B2054074
(1739001777.735) RX 1DA#C1641800000102A0
(1739001777.735) RX 11A#014000AAC0000003
(1739001777.736) RX 1C2#59
(1739001777.740) RX 1D4#F70700000746007B
(1739001777.740) RX 1F2#10640000001E000C
(1739001777.740) RX 284#00000000000033B9
(1739001777.740) RX 5B9#67FF67FF28
(1739001777.743) RX 1DB#FFE0C02A00000041
(1739001777.743) RX 1DC#B40F8FFD0CCCD8E4
(1739001777.745) RX 1DA#C164180000010325
(1739001777.746) RX 11A#0140005500000115
(1739001777.746) RX 1C2#5A
(1739001777.750) RX 1D4#F7070000474600BC
(1739001777.750) RX 1F2#10640000001E010D
(1739001777.753) RX 1DB#FFE0C02A000001C4
(1739001777.753) RX 1DC#B40F8FFD0130C9CE
(1739001777.755) RX 1DA#C16418000001002F
(1739001777.756) RX 11A#01400055400002D8
(1739001777.756) RX 1C2#5B
(1739001777.760) RX 1D4#F707000087460070
(1739001777.761) RX 1F2#10640000001E020E
(1739001777.761) RX 284#00000000000034BA
(1739001777.761) RX 50C#00000001B231
(1739001777.763) RX 54A#9E0070030000002D
(1739001777.763) RX 1DB#FFE0C02A000002CE
(1739001777.763) RX 1DC#B40F8FFD0520C64C
(1739001777.764) RX 54B#0108801204000001
(1739001777.765) RX 54C#6766000000005A00
(1739001777.765) RX 1DA#C1641800000101AA
(1739001777.766) RX 54F#2301000007C08A59
(1739001777.766) RX 11A#014000AA800003CE
(1739001777.766) RX 1C2#5C
(1739001777.771) RX 1D4#F7070000C74600B7
(1739001777.771) RX 1F2#10640000001E030F
(1739001777.773) RX 1DB#FFE0C02A0000034B
(1739001777.773) RX 1DC#B40F8FFD08C0CB1B
(1739001777.775) RX 1DA#C1641800000102A0
(1739001777.775) RX 11A#014000AAC0000003
(1739001777.776) RX 1C2#5D
(1739001777.781) RX 1D4#F70700000746007B
(1739001777.781) RX 1F2#10640000001E000C
(1739001777.781) RX 284#00000000000035BB
(1739001777.781) RX 50A#8532A00E8020
(1739001777.783) RX 1DB#FFE0C02A00000041
(1739001777.783) RX 1DC#B40F8FFD0CCCD8E4
(1739001777.785) RX 1DA#C164180000010325
(1739001777.786) RX 11A#0140005500000115
(1739001777.786) RX 1C2#5E
(1739001777.791) RX 1D4#F7070000474600BC
(1739001777.791) RX 1F2#10640000001E010D
(1739001777.793) RX 1DB#FFE0C02A000001C4
(1739001777.793) RX 1DC#B40F8FFD0130C9CE
(1739001777.795) RX 1DA#C16418000001002F
(1739001777.795) RX 55A#003331005F365B08
(1739001777.796) RX 11A#01400055400002D8
(1739001777.796) RX 1C2#5F
(1739001777.801) RX 1D4#F707000087460070
(1739001777.801) RX 1F2#10640000001E020E
(1739001777.802) RX 284#00000000000036BC
(1739001777.802) RX 50B#000006C00060
(1739001777.802) RX 380#020410210000008D
(1739001777.802) RX 5BF#000000002800001A
(1739001777.803) RX 1DB#FFE0C02A000002CE
(1739001777.803) RX 1DC#B40F8FFD0520C64C
(1739001777.805) RX 1DA#C1641800000101AA
(1739001777.806) RX 11A#014000AA800003CE
(1739001777.806) RX 1C2#50
(1739001777.811) RX 1D4#F7070000C74600B7
(1739001777.812) RX 1F2#10640000001E030F
(1739001777.813) RX 1DB#FFE0C02A0000034B
(1739001777.813) RX 1DC#B40F8FFD08C0CB1B
(1739001777.815) RX 1DA#C1641800000102A0
(1739001777.815) RX 11A#014000AAC0000003
(1739001777.816) RX 1C2#51
(1739001777.822) RX 1D4#F70700000746007B
(1739001777.822) RX 1F2#10640000001E000C
(1739001777.822) RX 284#00000000000037BD
(1739001777.823) RX 1DB#FFE0C02A00000041
(1739001777.824) RX 1DC#B40F8FFD0CCCD8E4
(1739001777.825) RX 1DA#C164180000010325
(1739001777.826) RX 11A#0140005500000115
(1739001777.826) RX 1C2#52
(1739001777.832) RX 1D4#F7070000474600BC
(1739001777.832) RX 1F2#10640000001E010D
(1739001777.833) RX 1DB#FFE0C02A000001C4
(1739001777.834) RX 1DC#B40F8FFD0130C9CE
(1739001777.834) RX 55B#C980AA00E54010C6
(1739001777.834) RX 5BC#5A032026B2054074
(1739001777.835) RX 1DA#C16418000001002F
(1739001777.836) RX 11A#01400055400002D8
(1739001777.836) RX 1C2#53
(1739001777.842) RX 1D4#F707000087460070
(1739001777.842) RX 1F2#10640000001E020E
(1739001777.843) RX 284#00000000000038BE
(1739001777.843) RX 1DB#FFE0C02A000002CE
(1739001777.844) RX 1DC#B40F8FFD0520C64C
(1739001777.845) RX 1DA#C1641800000101AA
(1739001777.846) RX 11A#014000AA800003CE
(1739001777.846) RX 1C2#54
(1739001777.852) RX 1D4#F7070000C74600B7
(1739001777.853) RX 1F2#10640000001E030F
(1739001777.853) RX 1DB#FFE0C02A0000034B
(1739001777.854) RX 1DC#B40F8FFD08C0CB1B
(1739001777.855) RX 1DA#C1641800000102A0
(1739001777.855) RX 11A#014000AAC0000003
(1739001777.856) RX 1C2#55
(1739001777.863) RX 1D4#F70700000746007B
(1739001777.863) RX 1F2#10640000001E000C
(1739001777.863) RX 284#00000000000039BF
(1739001777.863) RX 1DB#FFE0C02A00000041
(1739001777.864) RX 50C#000000025D63
(1739001777.864) RX 1DC#B40F8FFD0CCCD8E4
(1739001777.864) RX 54A#100070030000002D
(1739001777.865) RX 54B#0108801204000001
(1739001777.865) RX 1DA#C164180000010325
(1739001777.866) RX 54C#6766000000005A00
(1739001777.866) RX 11A#0140005500000115
(1739001777.866) RX 1C2#56
(1739001777.867) RX 54F#2301000007008A59
(1739001777.873) RX 1D4#F7070000474600BC
(1739001777.873) RX 1F2#10640000001E010D
(1739001777.873) RX 1DB#FFE0C02A000001C4
(1739001777.874) RX 1DC#B40F8FFD0130C9CE
(1739001777.875) RX 1DA#C16418000001002F
(1739001777.876) RX 11A#01400055400002D8
(1739001777.876) RX 1C2#57
(1739001777.883) RX 1D4#F707000087460070
(1739001777.883) RX 1DB#FFE0C02A000002CE
(1739001777.884) RX 1F2#10640000001E020E
(1739001777.884) RX 1DC#B40F8FFD0520C64C
(1739001777.884) RX 284#0000000000003AC0
(1739001777.884) RX 50A#8552A00E8020
(1739001777.885) RX 1DA#C1641800000101AA
(1739001777.886) RX 11A#014000AA800003CE
(1739001777.886) RX 1C2#58
(1739001777.893) RX 1DB#FFE0C02A0000034B
(1739001777.894) RX 1D4#F7070000C74600B7
(1739001777.894) RX 1DC#B40F8FFD08C0CB1B
(1739001777.894) RX 1F2#10640000001E030F
(1739001777.895) RX 1DA#C1641800000102A0
(1739001777.895) RX 11A#014000AAC0000003
(1739001777.896) RX 55A#003331005F365B08
(1739001777.896) RX 1C2#59
(1739001777.902) RX 380#020410210000009E
(1739001777.903) RX 5BF#000000002800002B
(1739001777.904) RX 1DB#FFE0C02A00000041
(1739001777.904) RX 1D4#F70700000746007B
(1739001777.904) RX 1DC#B40F8FFD0CCCD8E4
(1739001777.904) RX 1F2#10640000001E000C
(1739001777.904) RX 284#0000000000003BC1
(1739001777.905) RX 50B#000006C00060
(1739001777.905) RX 1DA#C164180000010325
(1739001777.906) RX 11A#0140005500000115
(1739001777.906) RX 1C2#5A
(1739001777.913) RX 1DB#FFE0C02A000001C4
(1739001777.914) RX 1DC#B40F8FFD0130C9CE
(1739001777.914) RX 1D4#F7070000474600BC
(1739001777.914) RX 1F2#10640000001E010D
(1739001777.914) RX 284#0000000000003CC2
(1739001777.915) RX 1DA#C16418000001002F
(1739001777.916) RX 11A#01400055400002D8
(1739001777.916) RX 1C2#5B
(1739001777.923) RX 1DB#FFE0C02A000002CE
(1739001777.924) RX 1DC#B40F8FFD0520C64C
(1739001777.924) RX 1D4#F707000087460070
(1739001777.924) RX 1F2#10640000001E020E
(1739001777.925) RX 1DA#C1641800000101AA
(1739001777.926) RX 11A#014000AA800003CE
(1739001777.927) RX 1C2#5C
(1739001777.934) RX 1DB#FFE0C02A0000034B
(1739001777.934) RX 1DC#B40F8FFD08C0CB1B
(1739001777.934) RX 55B#C9805500E5401104
(1739001777.934) RX 1D4#F7070000C74600B7
(1739001777.935) RX 1F2#10640000001E030F
(1739001777.935) RX 284#0000000000003DC3
(1739001777.935) RX 1DA#C1641800000102A0
(1739001777.935) RX 11A#014000AAC0000003
(1739001777.936) RX 5BC#5A032026B2054074
(1739001777.937) RX 1C2#5D
(1739001777.944) RX 1DB#FFE0C02A00000041
(1739001777.944) RX 1DC#B40F8FFD0CCCD8E4
(1739001777.944) RX 5C0#C04C4C0004541200
(1739001777.945) RX 5EB#E00FFFFFFFFFFFFF
(1739001777.945) RX 1D4#F70700000746007B
(1739001777.945) RX 1DA#C164180000010325
(1739001777.945) RX 1F2#10640000001E000C
(1739001777.946) RX 11A#0140005500000115
(1739001777.947) RX 1C2#5E
(1739001777.954) RX 1DB#FFE0C02A000001C4
(1739001777.954) RX 1DC#B40F8FFD0130C9CE
(1739001777.955) RX 1D4#F7070000474600BC
(1739001777.955) RX 1DA#C16418000001002F
(1739001777.955) RX 1F2#10640000001E010D
(1739001777.956) RX 284#0000000000003EC4
(1739001777.956) RX 11A#01400055400002D8
(1739001777.956) RX 1C2#5F
(1739001777.963) RX 54A#9E0070030000002D
(1739001777.963) RX 1DB#FFE0C02A000002CE
(1739001777.964) RX 1DC#B40F8FFD0520C64C
(1739001777.964) RX 54B#0108801204000001
(1739001777.965) RX 54C#6766000000005A00
(1739001777.965) RX 1DA#C1641800000101AA
(1739001777.965) RX 1D4#F707000087460070
(1739001777.966) RX 1F2#10640000001E020E
(1739001777.966) RX 50C#00000003B29A
(1739001777.966) RX 11A#014000AA800003CE
(1739001777.966) RX 54F#2301000007408A59
(1739001777.967) RX 1C2#50
(1739001777.974) RX 1DB#FFE0C02A0000034B
(1739001777.974) RX 1DC#B40F8FFD08C0CB1B
(1739001777.975) RX 1DA#C1641800000102A0
(1739001777.975) RX 11A#014000AAC0000003
(1739001777.975) RX 1D4#F7070000C74600B7
(1739001777.976) RX 1F2#10640000001E030F
(1739001777.976) RX 284#0000000000003FC5
(1739001777.977) RX 1C2#51
(1739001777.984) RX 1DB#FFE0C02A00000041
(1739001777.984) RX 1DC#B40F8FFD0CCCD8E4
(1739001777.985) RX 1DA#C164180000010325
(1739001777.986) RX 1D4#F70700000746007B
(1739001777.986) RX 1F2#10640000001E000C
(1739001777.986) RX 11A#0140005500000115
(1739001777.986) RX 50A#8572A00E8020
(1739001777.987) RX 1C2#52
(1739001777.994) RX 1DB#FFE0C02A000001C4
(1739001777.994) RX 1DC#B40F8FFD0130C9CE
(1739001777.995) RX 1DA#C16418000001002F
(1739001777.995) RX 55A#003331005F365B08
(1739001777.996) RX 11A#01400055400002D8
(1739001777.996) RX 1D4#F7070000474600BC
(1739001777.996) RX 1F2#10640000001E010D
(1739001777.996) RX 284#00000000000040C6
(1739001777.997) RX 1C2#53
(1739001778.002) RX 380#02041021000000AF
(1739001778.003) RX 5BF#000000002800003C
(1739001778.004) RX 1DB#FFE0C02A000002CE
(1739001778.004) RX 1DC#B40F8FFD0520C64C
(1739001778.005) RX 1DA#C1641800000101AA
(1739001778.006) RX 11A#014000AA800003CE
(1739001778.006) RX 1D4#F707000087460070
(1739001778.006) RX 1F2#10640000001E020E
(1739001778.007) RX 1C2#54
(1739001778.007) RX 50B#000006C00060
(1739001778.014) RX 1DB#FFE0C02A0000034B
(1739001778.014) RX 1DC#B40F8FFD08C0CB1B
(1739001778.015) RX 1DA#C1641800000102A0
(1739001778.015) RX 11A#014000AAC0000003
(1739001778.016) RX 1D4#F7070000C74600B7
(1739001778.017) RX 1F2#10640000001E030F
(1739001778.017) RX 1C2#55
(1739001778.017) RX 284#00000000000041C7
(1739001778.024) RX 1DB#FFE0C02A00000041
(1739001778.024) RX 1DC#B40F8FFD0CCCD8E4
(1739001778.025) RX 1DA#C164180000010325
(1739001778.026) RX 11A#0140005500000115
(1739001778.027) RX 1D4#F70700000746007B
(1739001778.027) RX 1C2#56
(1739001778.027) RX 1F2#10640000001E000C
(1739001778.034) RX 1DB#FFE0C02A000001C4
(1739001778.034) RX 1DC#B40F8FFD0130C9CE
(1739001778.034) RX 55B#C980AA00E5401249
(1739001778.035) RX 5BC#5A032C26B30620A0
(1739001778.035) RX 1DA#C16418000001002F
(1739001778.036) RX 11A#01400055400002D8
(1739001778.037) RX 1C2#57
(1739001778.037) RX 1D4#F7070000474600BC
(1739001778.037) RX 1F2#10640000001E010D
(1739001778.037) RX 284#00000000000042C8
(1739001778.044) RX 1DB#FFE0C02A000002CE
(1739001778.044) RX 1DC#B40F8FFD0520C64C
(1739001778.045) RX 1DA#C1641800000101AA
(1739001778.046) RX 11A#014000AA800003CE
(1739001778.047) RX 1C2#58
(1739001778.047) RX 1D4#F707000087460070
(1739001778.047) RX 1F2#10640000001E020E
(1739001778.054) RX 1DB#FFE0C02A0000034B
(1739001778.054) RX 1DC#B40F8FFD08C0CB1B
(1739001778.055) RX 1DA#C1641800000102A0
(1739001778.055) RX 11A#014000AAC0000003
(1739001778.057) RX 1C2#59
(1739001778.057) RX 1D4#F7070000C74600B7
(1739001778.058) RX 1F2#10640000001E030F
(1739001778.058) RX 284#00000000000043C9
(1739001778.063) RX 54A#100070030000002D
(1739001778.064) RX 1DB#FFE0C02A00000041
(1739001778.064) RX 54B#0108801204000001
(1739001778.064) RX 1DC#B40F8FFD0CCCD8E4
(1739001778.065) RX 54C#6766000000005A00
(1739001778.065) RX 1DA#C164180000010325
(1739001778.066) RX 54F#2301000007808A59
(1739001778.066) RX 11A#0140005500000115
(1739001778.067) RX 1C2#5A
(1739001778.068) RX 1D4#F70700000746007B
(1739001778.068) RX 1F2#10640000001E000C
(1739001778.068) RX 50C#000000005DC8
(1739001778.074) RX 1DB#FFE0C02A000001C4
(1739001778.074) RX 1DC#B40F8FFD0130C9CE
(1739001778.075) RX 1DA#C16418000001002F
(1739001778.076) RX 11A#01400055400002D8
(1739001778.077) RX 1C2#5B
(1739001778.078) RX 1D4#F7070000474600BC
(1739001778.078) RX 1F2#10640000001E010D
(1739001778.078) RX 284#00000000000044CA
(1739001778.084) RX 1DB#FFE0C02A000002CE
(1739001778.084) RX 1DC#B40F8FFD0520C64C
(1739001778.085) RX 1DA#C1641800000101AA
(1739001778.086) RX 11A#014000AA800003CE
(1739001778.087) RX 1C2#5C
(1739001778.088) RX 1D4#F707000087460070
(1739001778.088) RX 1F2#10640000001E020E
(1739001778.088) RX 50A#8512A00E8020
(1739001778.094) RX 1DB#FFE0C02A0000034B
(1739001778.094) RX 1DC#B40F8FFD08C0CB1B
(1739001778.095) RX 1DA#C1641800000102A0
(1739001778.095) RX 11A#014000AAC0000003
(1739001778.095) RX 55A#003331005F365B08
(1739001778.097) RX 1C2#5D
(1739001778.098) RX 1D4#F7070000C74600B7
(1739001778.099) RX 1F2#10640000001E030F
(1739001778.099) RX 284#00000000000045CB
(1739001778.103) RX 380#02041021000000B0
(1739001778.103) RX 5BF#0000000028000009
(1739001778.104) RX 1DB#FFE0C02A00000041
(1739001778.104) RX 1DC#B40F8FFD0CCCD8E4
(1739001778.105) RX 1DA#C164180000010325
(1739001778.106) RX 11A#0140005500000115
(1739001778.107) RX 1C2#5E
(1739001778.109) RX 1D4#F70700000746007B
(1739001778.109) RX 1F2#10640000001E000C
(1739001778.109) RX 50B#000006C00060
(1739001778.114) RX 1DB#FFE0C02A000001C4
(1739001778.114) RX 1DC#B40F8FFD0130C9CE
(1739001778.115) RX 1DA#C16418000001002F
(1739001778.116) RX 11A#01400055400002D8
(1739001778.117) RX 1C2#5F
(1739001778.119) RX 1D4#F7070000474600BC
(1739001778.119) RX 1F2#10640000001E010D
(1739001778.119) RX 284#00000000000046CC
(1739001778.124) RX 1DB#FFE0C02A000002CE
(1739001778.124) RX 1DC#B40F8FFD0520C64C
(1739001778.125) RX 1DA#C1641800000101AA
(1739001778.126) RX 11A#014000AA800003CE
(1739001778.127) RX 1C2#50
(1739001778.129) RX 1D4#F707000087460070
(1739001778.129) RX 1F2#10640000001E020E
(1739001778.134) RX 1DB#FFE0C02A0000034B
(1739001778.134) RX 1DC#B40F8FFD08C0CB1B
(1739001778.135) RX 55B#C9805500E540138B
(1739001778.135) RX 1DA#C1641800000102A0
(1739001778.135) RX 5BC#5A032C26B30620A0
(1739001778.135) RX 11A#014000AAC0000003
(1739001778.137) RX 1C2#51
(1739001778.139) RX 1D4#F7070000C74600B7
(1739001778.140) RX 1F2#10640000001E030F
(1739001778.140) RX 284#00000000000047CD
(1739001778.144) RX 1DB#FFE0C02A00000041
(1739001778.144) RX 1DC#B40F8FFD0CCCD8E4
(1739001778.145) RX 1DA#C164180000010325
(1739001778.146) RX 11A#0140005500000115
(1739001778.147) RX 1C2#52
(1739001778.149) RX 1D4#F70700000746007B
(1739001778.150) RX 1F2#10640000001E000C
(1739001778.154) RX 1DB#FFE0C02A000001C4
(1739001778.154) RX 1DC#B40F8FFD0130C9CE
(1739001778.155) RX 1DA#C16418000001002F
(1739001778.156) RX 11A#01400055400002D8
(1739001778.157) RX 1C2#53
(1739001778.160) RX 1D4#F7070000474600BC
(1739001778.160) RX 1F2#10640000001E010D
(1739001778.160) RX 284#00000000000048CE
(1739001778.163) RX 54A#9E0070030000002D
(1739001778.164) RX 54B#0108801204000001
(1739001778.164) RX 1DB#FFE0C02A000002CE
(1739001778.165) RX 1DC#B40F8FFD0520C64C
(1739001778.165) RX 1DA#C1641800000101AA
(1739001778.165) RX 54C#6766000000005A00
(1739001778.166) RX 11A#014000AA800003CE
(1739001778.166) RX 54F#2301000007C08A59
(1739001778.167) RX 1C2#54
(1739001778.170) RX 1D4#F707000087460070
(1739001778.170) RX 1F2#10640000001E020E
(1739001778.171) RX 50C#00000001B231
(1739001778.174) RX 1DB#FFE0C02A0000034B
(1739001778.174) RX 1DC#B40F8FFD08C0CB1B
(1739001778.175) RX 1DA#C1641800000102A0
(1739001778.175) RX 11A#014000AAC0000003
(1739001778.177) RX 1C2#55
(1739001778.180) RX 1D4#F7070000C74600B7
(1739001778.180) RX 1F2#10640000001E030F
(1739001778.181) RX 284#00000000000049CF
(1739001778.181) RX 5A9#9A44C01304300000
(1739001778.184) RX 1DB#FFE0C02A00000041
(1739001778.184) RX 1DC#B40F8FFD0CCCD8E4
(1739001778.185) RX 1DA#C164180000010325
(1739001778.186) RX 11A#0140005500000115
(1739001778.187) RX 1C2#56
(1739001778.190) RX 1D4#F70700000746007B
(1739001778.191) RX 1F2#10640000001E000C
(1739001778.191) RX 50A#8532A00E8020
(1739001778.194) RX 1DB#FFE0C02A000001C4
(1739001778.194) RX 1DC#B40F8FFD0130C9CE
(1739001778.195) RX 1DA#C16418000001002F
(1739001778.195) RX 55A#003331005F365B08
(1739001778.196) RX 11A#01400055400002D8
(1739001778.197) RX 1C2#57
(1739001778.201) RX 1D4#F7070000474600BC
(1739001778.201) RX 1F2#10640000001E010D
(1739001778.201) RX 284#0000000000004AD0
(1739001778.203) RX 380#020410210000008D
(1739001778.203) RX 5BF#000000002800001A
(1739001778.204) RX 1DB#FFE0C02A000002CE
(1739001778.204) RX 1DC#B40F8FFD0520C64C
(1739001778.205) RX 1DA#C1641800000101AA
(1739001778.206) RX 11A#014000AA800003CE
(1739001778.207) RX 1C2#58
(1739001778.211) RX 1D4#F707000087460070
(1739001778.211) RX 1F2#10640000001E020E
(1739001778.211) RX 50B#000006C00060
(1739001778.214) RX 1DB#FFE0C02A0000034B
(1739001778.215) RX 1DC#B40F8FFD08C0CB1B
(1739001778.215) RX 1DA#C1641800000102A0
(1739001778.215) RX 11A#014000AAC0000003
(1739001778.217) RX 1C2#59
(1739001778.221) RX 1D4#F7070000C74600B7
(1739001778.221) RX 1F2#10640000001E030F
(1739001778.222) RX 284#0000000000004BD1
(1739001778.224) RX 1DB#FFE0C02A00000041
(1739001778.225) RX 1DC#B40F8FFD0CCCD8E4
(1739001778.225) RX 1DA#C164180000010325
(1739001778.226) RX 11A#0140005500000115
(1739001778.227) RX 1C2#5A
(1739001778.231) RX 1D4#F70700000746007B
(1739001778.232) RX 1F2#10640000001E000C
(1739001778.234) RX 1DB#FFE0C02A000001C4
(1739001778.235) RX 1DC#B40F8FFD0130C9CE
(1739001778.235) RX 1DA#C16418000001002F
(1739001778.235) RX 55B#C980AA00E54010C6
(1739001778.236) RX 5BC#5A032C26B30620A0
(1739001778.236) RX 11A#01400055400002D8
(1739001778.237) RX 1C2#5B
(1739001778.242) RX 1D4#F7070000474600BC
(1739001778.242) RX 1F2#10640000001E010D
(1739001778.242) RX 284#0000000000004CD2
(1739001778.244) RX 1DB#FFE0C02A000002CE
(1739001778.245) RX 1DC#B40F8FFD0520C64C
(1739001778.245) RX 1DA#C1641800000101AA
(1739001778.246) RX 11A#014000AA800003CE
(1739001778.247) RX 1C2#5C
(1739001778.252) RX 1D4#F707000087460070
(1739001778.252) RX 1F2#10640000001E020E
(1739001778.252) RX 5B9#67FF67FF28
(1739001778.254) RX 1DB#FFE0C02A0000034B
(1739001778.255) RX 1DC#B40F8FFD08C0CB1B
(1739001778.255) RX 1DA#C1641800000102A0
(1739001778.255) RX 11A#014000AAC0000003
(1739001778.257) RX 1C2#5D
(1739001778.262) RX 1D4#F7070000C74600B7
(1739001778.262) RX 1F2#10640000001E030F
(1739001778.263) RX 284#0000000000004DD3
(1739001778.263) RX 54A#100070030000002D
(1739001778.264) RX 54B#0108801204000001
(1739001778.264) RX 1DB#FFE0C02A00000041
(1739001778.265) RX 1DC#B40F8FFD0CCCD8E4
(1739001778.265) RX 1DA#C164180000010325
(1739001778.265) RX 54C#6766000000005A00
(1739001778.266) RX 11A#0140005500000115
(1739001778.266) RX 54F#2301000007008A59
(1739001778.267) RX 1C2#5E
(1739001778.273) RX 1D4#F70700000746007B
(1739001778.273) RX 1F2#10640000001E000C
(1739001778.273) RX 50C#000000025D63
(1739001778.274) RX 1DB#FFE0C02A000001C4
(1739001778.275) RX 1DC#B40F8FFD0130C9CE
(1739001778.275) RX 1DA#C16418000001002F
(1739001778.276) RX 11A#01400055400002D8
(1739001778.277) RX 1C2#5F
(1739001778.283) RX 1D4#F7070000474600BC
(1739001778.283) RX 1F2#10640000001E010D
(1739001778.283) RX 284#0000000000004ED4
(1739001778.284) RX 1DB#FFE0C02A000002CE
(1739001778.285) RX 1DC#B40F8FFD0520C64C
(1739001778.285) RX 1DA#C1641800000101AA
(1739001778.286) RX 11A#014000AA800003CE
(1739001778.287) RX 1C2#50
(1739001778.293) RX 1D4#F707000087460070
(1739001778.293) RX 1F2#10640000001E020E
(1739001778.293) RX 50A#8552A00E8020
(1739001778.294) RX 1DB#FFE0C02A0000034B
(1739001778.295) RX 1DC#B40F8FFD08C0CB1B
(1739001778.295) RX 1DA#C1641800000102A0
(1739001778.295) RX 11A#014000AAC0000003
(1739001778.296) RX 55A#003331005F365B08
(1739001778.297) RX 1C2#51
(1739001778.303) RX 380#020410210000009E
(1739001778.303) RX 5BF#000000002800002B
(1739001778.303) RX 1D4#F7070000C74600B7
(1739001778.303) RX 1F2#10640000001E030F
(1739001778.304) RX 284#0000000000004FD5
(1739001778.304) RX 1DB#FFE0C02A00000041
(1739001778.305) RX 1DC#B40F8FFD0CCCD8E4
(1739001778.305) RX 1DA#C164180000010325
(1739001778.306) RX 11A#0140005500000115
(1739001778.307) RX 1C2#52
(1739001778.313) RX 1D4#F70700000746007B
(1739001778.314) RX 1F2#10640000001E000C
(1739001778.314) RX 50B#000006C00060
(1739001778.315) RX 1DB#FFE0C02A000001C4
(1739001778.315) RX 1DC#B40F8FFD0130C9CE
(1739001778.315) RX 1DA#C16418000001002F
(1739001778.316) RX 11A#01400055400002D8
(1739001778.317) RX 1C2#53
(1739001778.324) RX 1D4#F7070000474600BC
(1739001778.324) RX 1F2#10640000001E010D
(1739001778.324) RX 284#00000000000050D6
(1739001778.325) RX 1DB#FFE0C02A000002CE
(1739001778.325) RX 1DC#B40F8FFD0520C64C
(1739001778.325) RX 1DA#C1641800000101AA
(1739001778.326) RX 11A#014000AA800003CE
(1739001778.327) RX 1C2#54
(1739001778.334) RX 1D4#F707000087460070
(1739001778.334) RX 1F2#10640000001E020E
(1739001778.334) RX 284#00000000000051D7
(1739001778.335) RX 1DB#FFE0C02A0000034B
(1739001778.335) RX 1DA#C1641800000102A0
(1739001778.335) RX 11A#014000AAC0000003
(1739001778.336) RX 1DC#B40F8FFD08C0CB1B
(1739001778.336) RX 55B#C9805500E5401104
(1739001778.336) RX 5BC#5A032C26B30620A0
(1739001778.337) RX 1C2#55
(1739001778.344) RX 1D4#F7070000C74600B7
(1739001778.344) RX 1F2#10640000001E030F
(1739001778.345) RX 1DB#FFE0C02A00000041
(1739001778.345) RX 1DC#B40F8FFD0CCCD8E4
(1739001778.345) RX 1DA#C164180000010325
(1739001778.346) RX 11A#0140005500000115
(1739001778.347) RX 1C2#56
(1739001778.354) RX 1D4#F70700000746007B
(1739001778.355) RX 1DB#FFE0C02A000001C4
(1739001778.355) RX 1F2#10640000001E000C
(1739001778.355) RX 1DA#C16418000001002F
(1739001778.355) RX 1DC#B40F8FFD0130C9CE
(1739001778.356) RX 284#00000000000052D8
(1739001778.356) RX 11A#01400055400002D8
(1739001778.357) RX 1C2#57
(1739001778.363) RX 54A#9E0070030000002D
(1739001778.364) RX 54B#0108801204000001
(1739001778.365) RX 1DB#FFE0C02A000002CE
(1739001778.365) RX 1D4#F7070000474600BC
(1739001778.365) RX 1DA#C1641800000101AA
(1739001778.365) RX 1DC#B40F8FFD0520C64C
(1739001778.366) RX 1F2#10640000001E010D
(1739001778.366) RX 54C#6766000000005A00
(1739001778.366) RX 11A#014000AA800003CE
(1739001778.367) RX 54F#2301000007408A59
(1739001778.367) RX 1C2#58
(1739001778.375) RX 1DB#FFE0C02A0000034B
(1739001778.375) RX 1DC#B40F8FFD08C0CB1B
(1739001778.375) RX 1D4#F707000087460070
(1739001778.375) RX 11A#014000AAC0000003
(1739001778.376) RX 1DA#C1641800000102A0
(1739001778.376) RX 1F2#10640000001E020E
(1739001778.376) RX 284#00000000000053D9
(1739001778.376) RX 50C#00000003B29A
(1739001778.377) RX 1C2#59
(1739001778.385) RX 1DB#FFE0C02A00000041
(1739001778.385) RX 1DC#B40F8FFD0CCCD8E4
(1739001778.385) RX 1D4#F7070000C74600B7
(1739001778.385) RX 1DA#C164180000010325
(1739001778.386) RX 1F2#10640000001E030F
(1739001778.386) RX 11A#0140005500000115
(1739001778.387) RX 1C2#5A
(1739001778.395) RX 1DB#FFE0C02A000001C4
(1739001778.395) RX 1DA#C16418000001002F
(1739001778.395) RX 1DC#B40F8FFD0130C9CE
(1739001778.395) RX 1D4#F70700000746007B
(1739001778.396) RX 11A#01400055400002D8
(1739001778.396) RX 1F2#10640000001E000C
(1739001778.396) RX 284#00000000000054DA
(1739001778.396) RX 50A#8572A00E8020
(1739001778.397) RX 55A#003331005F365B08
(1739001778.398) RX 1C2#5B
(1739001778.403) RX 380#02041021000000AF
(1739001778.403) RX 5BF#000000002800003C
(1739001778.405) RX 1DB#FFE0C02A000002CE
(1739001778.405) RX 1DA#C1641800000101AA
(1739001778.405) RX 1DC#B40F8FFD0520C64C
(1739001778.406) RX 1D4#F7070000474600BC
(1739001778.406) RX 1F2#10640000001E010D
(1739001778.406) RX 11A#014000AA800003CE
(1739001778.407) RX 1C2#5C
(1739001778.415) RX 1DB#FFE0C02A0000034B
(1739001778.415) RX 1DA#C1641800000102A0
(1739001778.415) RX 11A#014000AAC0000003
(1739001778.416) RX 1DC#B40F8FFD08C0CB1B
(1739001778.416) RX 1D4#F707000087460070
(1739001778.416) RX 1F2#10640000001E020E
(1739001778.416) RX 284#00000000000055DB
(1739001778.417) RX 50B#000006C00060
(1739001778.418) RX 1C2#5D
(1739001778.425) RX 1DB#FFE0C02A00000041
(1739001778.425) RX 1DA#C164180000010325
(1739001778.425) RX 1DC#B40F8FFD0CCCD8E4
(1739001778.426) RX 11A#0140005500000115
(1739001778.426) RX 1D4#F7070000C74600B7
(1739001778.426) RX 1F2#10640000001E030F
(1739001778.427) RX 1C2#5E
(1739001778.435) RX 1DA#C16418000001002F
(1739001778.435) RX 1DB#FFE0C02A000001C4
(1739001778.435) RX 1DC#B40F8FFD0130C9CE
(1739001778.436) RX 11A#01400055400002D8
(1739001778.436) RX 55B#C980AA00E5401249
(1739001778.436) RX 5BC#5A032C26B30620A0
(1739001778.436) RX 1D4#F70700000746007B
(1739001778.437) RX 1F2#10640000001E000C
(1739001778.437) RX 284#00000000000056DC
(1739001778.438) RX 1C2#5F
(1739001778.445) RX 1DA#C1641800000101AA
(1739001778.445) RX 1DB#FFE0C02A000002CE
(1739001778.445) RX 1DC#B40F8FFD0520C64C
(1739001778.446) RX 5C0#804C4C0004A01200
(1739001778.446) RX 11A#014000AA800003CE
(1739001778.446) RX 5EB#E00FFFFFFFFFFFFF
(1739001778.447) RX 1D4#F7070000474600BC
(1739001778.447) RX 1F2#10640000001E010D
(1739001778.448) RX 1C2#50
(1739001778.455) RX 1DA#C1641800000102A0
(1739001778.455) RX 1DB#FFE0C02A0000034B
(1739001778.455) RX 11A#014000AAC0000003
(1739001778.456) RX 1DC#B40F8FFD08C0CB1B
(1739001778.457) RX 1D4#F707000087460070
(1739001778.457) RX 1F2#10640000001E020E
(1739001778.457) RX 284#00000000000057DD
(1739001778.458) RX 1C2#51
(1739001778.463) RX 54A#100070030000002D
(1739001778.464) RX 54B#0108801204000001
(1739001778.465) RX 1DB#FFE0C02A00000041
(1739001778.465) RX 1DA#C164180000010325
(1739001778.465) RX 1DC#B40F8FFD0CCCD8E4
(1739001778.466) RX 54C#6766000000005A00
(1739001778.466) RX 11A#0140005500000115
(1739001778.466) RX 54F#2301000007808A59
(1739001778.467) RX 1D4#F7070000C74600B7
(1739001778.467) RX 1F2#10640000001E030F
(1739001778.468) RX 1C2#52
(1739001778.475) RX 1DA#C16418000001002F
(1739001778.475) RX 1DB#FFE0C02A000001C4
(1739001778.475) RX 1DC#B40F8FFD0130C9CE
(1739001778.476) RX 11A#01400055400002D8
(1739001778.477) RX 1D4#F70700000746007B
(1739001778.478) RX 1F2#10640000001E000C
(1739001778.478) RX 1C2#53
(1739001778.478) RX 284#00000000000058DE
(1739001778.478) RX 50C#000000005DC8
(1739001778.485) RX 1DA#C1641800000101AA
(1739001778.485) RX 1DB#FFE0C02A000002CE
(1739001778.485) RX 1DC#B40F8FFD0520C64C
(1739001778.486) RX 11A#014000AA800003CE
(1739001778.488) RX 1D4#F7070000474600BC
(1739001778.488) RX 1C2#54
(1739001778.488) RX 1F2#10640000001E010D
(1739001778.495) RX 1DA#C1641800000102A0
(1739001778.495) RX 11A#014000AAC0000003
(1739001778.495) RX 1DB#FFE0C02A0000034B
(1739001778.496) RX 55A#003331005F365B08
(1739001778.496) RX 1DC#B40F8FFD08C0CB1B
(1739001778.498) RX 1C2#55
(1739001778.498) RX 1D4#F707000087460070
(1739001778.498) RX 1F2#10640000001E020E
(1739001778.498) RX 284#00000000000059DF
(1739001778.499) RX 50A#8512A00E8020
(1739001778.503) RX 380#02041021000000B0
(1739001778.503) RX 5BF#0000000028000009
(1739001778.505) RX 1DA#C164180000010325
(1739001778.505) RX 1DB#FFE0C02A00000041
(1739001778.505) RX 1DC#B40F8FFD0CCCD8E4
(1739001778.506) RX 11A#0140005500000115
(1739001778.508) RX 1C2#56
(1739001778.508) RX 1D4#F7070000C74600B7
(1739001778.508) RX 1F2#10640000001E030F
(1739001778.515) RX 1DA#C16418000001002F
(1739001778.515) RX 1DB#FFE0C02A000001C4
(1739001778.515) RX 1DC#B40F8FFD0130C9CE
(1739001778.516) RX 11A#01400055400002D8
(1739001778.518) RX 1C2#57
(1739001778.518) RX 1D4#F70700000746007B
(1739001778.519) RX 1F2#10640000001E000C
(1739001778.519) RX 284#0000000000005AE0
(1739001778.519) RX 50B#000006C00060
(1739001778.525) RX 1DA#C1641800000101AA
(1739001778.525) RX 1DB#FFE0C02A000002CE
(1739001778.525) RX 1DC#B40F8FFD0520C64C
(1739001778.526) RX 11A#014000AA800003CE
(1739001778.528) RX 1C2#58
(1739001778.528) RX 1D4#F7070000474600BC
(1739001778.529) RX 1F2#10640000001E010D
(1739001778.535) RX 1DA#C1641800000102A0
(1739001778.535) RX 11A#014000AAC0000003
(1739001778.535) RX 1DB#FFE0C02A0000034B
(1739001778.536) RX 1DC#B40F8FFD08C0CB1B
(1739001778.536) RX 55B#C9805500E540138B
(1739001778.536) RX 5BC#5A032026B2064080
(1739001778.538) RX 1C2#59
(1739001778.539) RX 1D4#F707000087460070
(1739001778.539) RX 1F2#10640000001E020E
(1739001778.539) RX 284#0000000000005BE1
(1739001778.545) RX 1DA#C164180000010325
(1739001778.545) RX 1DB#FFE0C02A00000041
(1739001778.545) RX 1DC#B40F8FFD0CCCD8E4
(1739001778.546) RX 11A#0140005500000115
(1739001778.548) RX 1C2#5A
(1739001778.549) RX 1D4#F7070000C74600B7
(1739001778.549) RX 1F2#10640000001E030F
(1739001778.555) RX 1DA#C16418000001002F
(1739001778.555) RX 1DB#FFE0C02A000001C4
(1739001778.555) RX 1DC#B40F8FFD0130C9CE
(1739001778.556) RX 11A#01400055400002D8
(1739001778.558) RX 1C2#5B
(1739001778.559) RX 1D4#F70700000746007B
(1739001778.559) RX 1F2#10640000001E000C
(1739001778.560) RX 284#0000000000005CE2
(1739001778.563) RX 54A#9E0070030000002D
(1739001778.564) RX 54B#0108801204000001
(1739001778.565) RX 1DA#C1641800000101AA
(1739001778.565) RX 1DB#FFE0C02A000002CE
(1739001778.565) RX 54C#6766000000005A00
(1739001778.566) RX 1DC#B40F8FFD0520C64C
(1739001778.566) RX 11A#014000AA800003CE
(1739001778.566) RX 54F#2301000007C08A59
(1739001778.568) RX 1C2#5C
(1739001778.570) RX 1D4#F7070000474600BC
(1739001778.570) RX 1F2#10640000001E010D
(1739001778.575) RX 1DA#C1641800000102A0
(1739001778.575) RX 11A#014000AAC0000003
(1739001778.575) RX 1DB#FFE0C02A0000034B
(1739001778.576) RX 1DC#B40F8FFD08C0CB1B
(1739001778.578) RX 1C2#5D
(1739001778.580) RX 1D4#F707000087460070
(1739001778.580) RX 1F2#10640000001E020E
(1739001778.580) RX 284#0000000000005DE3
(1739001778.580) RX 50C#00000001B231
(1739001778.585) RX 1DA#C164180000010325
(1739001778.585) RX 1DB#FFE0C02A00000041
(1739001778.585) RX 1DC#B40F8FFD0CCCD8E4
(1739001778.586) RX 11A#0140005500000115
(1739001778.588) RX 1C2#5E
(1739001778.590) RX 1D4#F7070000C74600B7
(1739001778.590) RX 1F2#10640000001E030F
(1739001778.595) RX 1DA#C16418000001002F
(1739001778.595) RX 55A#003331005F365B08
(1739001778.595) RX 1DB#FFE0C02A000001C4
(1739001778.596) RX 11A#01400055400002D8
(1739001778.596) RX 1DC#B40F8FFD0130C9CE
(1739001778.598) RX 1C2#5F
(1739001778.600) RX 1D4#F70700000746007B
(1739001778.600) RX 1F2#10640000001E000C
(1739001778.601) RX 284#0000000000005EE4
(1739001778.601) RX 50A#8532A00E8020
(1739001778.603) RX 380#020410210000008D
(1739001778.603) RX 5BF#000000002800001A
(1739001778.605) RX 1DA#C1641800000101AA
(1739001778.605) RX 1DB#FFE0C02A000002CE
(1739001778.606) RX 1DC#B40F8FFD0520C64C
(1739001778.606) RX 11A#014000AA800003CE
(1739001778.608) RX 1C2#50
(1739001778.610) RX 1D4#F7070000474600BC
(1739001778.611) RX 1F2#10640000001E010D
(1739001778.615) RX 1DA#C1641800000102A0
(1739001778.615) RX 11A#014000AAC0000003
(1739001778.615) RX 1DB#FFE0C02A0000034B
(1739001778.616) RX 1DC#B40F8FFD08C0CB1B
(1739001778.618) RX 1C2#51
(1739001778.621) RX 1D4#F707000087460070
(1739001778.621) RX 1F2#10640000001E020E
(1739001778.621) RX 284#0000000000005FE5
(1739001778.621) RX 50B#000006C00060
(1739001778.625) RX 1DA#C164180000010325
(1739001778.625) RX 1DB#FFE0C02A00000041
(1739001778.626) RX 1DC#B40F8FFD0CCCD8E4
(1739001778.626) RX 11A#0140005500000115
 1739001778.606) RX 1DC#B40F8FFD0520C64C
(1739001778.606) RX 11A#014000AA800003CE
(1739001778.608) RX 1C2#50
(1739001778.610) RX 1D4#F7070000474600BC
(1739001778.611) RX 1F2#10640000001E010D
(1739001778.615) RX 1DA#C1641800000102A0
(1739001778.615) RX 11A#014000AAC0000003
(1739001778.615) RX 1DB#FFE0C02A0000034B
(1739001778.616) RX 1DC#B40F8FFD08C0CB1B
(1739001778.636) RX 55B#C980AA00E54010C6
(1739001778.637) RX 5BC#5A032026B2064080
(1739001778.638) RX 1C2#53
(1739001778.641) RX 1D4#F70700000746007B
(1739001778.641) RX 1F2#10640000001E000C
(1739001778.642) RX 284#00000000000060E6
(1739001778.645) RX 1DA#C1641800000101AA
(1739001778.645) RX 1DB#FFE0C02A000002CE
(1739001778.646) RX 1DC#B40F8FFD0520C64C
(1739001778.646) RX 11A#014000AA800003CE
(1739001778.648) RX 1C2#54
(1739001778.651) RX 1D4#F7070000474600BC
(1739001778.652) RX 1F2#10640000001E010D
(1739001778.655) RX 1DA#C1641800000102A0
(1739001778.655) RX 11A#014000AAC0000003
(1739001778.655) RX 1DB#FFE0C02A0000034B
(1739001778.656) RX 1DC#B40F8FFD08C0CB1B
(1739001778.658) RX 1C2#55
(1739001778.662) RX 1D4#F707000087460070
(1739001778.662) RX 1F2#10640000001E020E
(1739001778.662) RX 284#00000000000061E7
(1739001778.665) RX 1DA#C164180000010325
(1739001778.665) RX 1DB#FFE0C02A00000041
(1739001778.666) RX 1DC#B40F8FFD0CCCD8E4
(1739001778.666) RX 11A#0140005500000115
(1739001778.666) RX 54A#100070020000002D
(1739001778.667) RX 54B#0108A81204000000
(1739001778.668) RX 1C2#56
(1739001778.668) RX 54C#6766400000885A00
(1739001778.669) RX 54F#2301000007008A59
(1739001778.672) RX 1D4#F7070000C74600B7
(1739001778.672) RX 1F2#10640000001E030F
(1739001778.675) RX 1DA#C16418000001002F
(1739001778.676) RX 1DB#FFE0C02A000001C4
(1739001778.676) RX 11A#01400055400002D8
(1739001778.676) RX 1DC#B40F8FFD0130C9CE
(1739001778.678) RX 1C2#57
(1739001778.682) RX 1D4#F70700000746007B
(1739001778.682) RX 1F2#10640000001E000C
(1739001778.683) RX 284#00000000000062E8
(1739001778.683) RX 50C#000000025D63
(1739001778.685) RX 1DA#C1641800000101AA
(1739001778.685) RX 1DB#FFE0C02A000002CE
(1739001778.686) RX 11A#014000AA800003CE
(1739001778.686) RX 1DC#B40F8FFD0520C64C
(1739001778.688) RX 1C2#58
(1739001778.692) RX 1D4#F7070000474600BC
(1739001778.693) RX 1F2#10640000001E010D
(1739001778.693) RX 5A9#9A44C01304300000
(1739001778.695) RX 1DA#C1641800000102A0
(1739001778.695) RX 55A#003331005F365B08
(1739001778.695) RX 11A#014000AAC0000003
(1739001778.696) RX 1DB#FFE0C02A0000034B
(1739001778.678) RX 1C2#57
(1739001778.682) RX 1D4#F70700000746007B
(1739001778.682) RX 1F2#10640000001E000C
(1739001778.683) RX 284#00000000000062E8
(1739001778.683) RX 50C#000000025D63
(1739001778.685) RX 1DA#C1641800000101AA
(1739001778.685) RX 1DB#FFE0C02A000002CE
(1739001778.686) RX 11A#014000AA800003CE
(1739001778.686) RX 1DC#B40F8FFD0520C64C
(1739001778.688) RX 1C2#58
(1739001778.692) RX 1D4#F7070000474600BC
(1739001778.693) RX 1F2#10640000001E010D
(1739001778.693) RX 5A9#9A44C01304300000
(1739001778.695) RX 1DA#C1641800000102A0
(1739001778.695) RX 55A#003331005F365B08
(1739001778.695) RX 11A#014000AAC0000003
(1739001778.696) RX 1DB#FFE0C02A0000034B
(1739001778.716) RX 1DC#B40F8FFD0130C9CE
(1739001778.718) RX 1C2#5B
(1739001778.723) RX 1D4#F70700000746007B
(1739001778.723) RX 1F2#10640000001E000C
(1739001778.724) RX 284#00000000000064EA
(1739001778.724) RX 50B#000006C00060
(1739001778.725) RX 1DA#C1641800000101AA
(1739001778.726) RX 1DB#FFE0C02A000002CE
(1739001778.726) RX 11A#014000AA800003CE
(1739001778.726) RX 1DC#B40F8FFD0520C64C
(1739001778.728) RX 1C2#5C
(1739001778.733) RX 1D4#F7070000474600BC
(1739001778.734) RX 1F2#10640000001E010D
(1739001778.735) RX 1DA#C1641800000102A0
(1739001778.735) RX 11A#014000AAC0000003
(1739001778.736) RX 1DB#FFE0C02A0000034B
 1739001778.695) RX 11A#014000AAC0000003
(1739001778.696) RX 1DB#FFE0C02A0000034B
(1739001778.716) RX 1DC#B40F8FFD0130C9CE
(1739001778.718) RX 1C2#5B
(1739001778.723) RX 1D4#F70700000746007B
(1739001778.723) RX 1F2#10640000001E000C
(1739001778.724) RX 284#00000000000064EA
(1739001778.724) RX 50B#000006C00060
(1739001778.725) RX 1DA#C1641800000101AA
(173(1739001778.736) RX 1DC#B40F8FFD08C0CB1B
(1739001778.737) RX 55B#C9805500E5401104
(1739001778.737) RX 5BC#5A032026B2064080
(1739001778.738) RX 1C2#5D
(1739001778.744) RX 1D4#F707000087460070
(1739001778.744) RX 1F2#10640000001E020E
(1739001778.744) RX 284#00000000000065EB
(1739001778.745) RX 1DA#C164180000010325
(1739001778.746) RX 1DB#FFE0C02A00000041
(1739001778.746) RX 11A#0140005500000115
(1739001778.746) RX 1DC#B40F8FFD0CCCD8E4
(1739001778.748) RX 1C2#5E
(1739001778.754) RX 1D4#F7070000C74600B7
(1739001778.754) RX 1F2#10640000001E030F
(1739001778.754) RX 284#00000000000066EC
(1739001778.755) RX 1DA#C16418000001002F
(1739001778.756) RX 1DB#FFE0C02A000001C4
(1739001778.756) RX 11A#01400055400002D8
(1739001778.716) RX 1DC#B40F8FFD0130C9CE
(1739001778.718) RX 1C2#5B
(1739001778.723) RX 1D4#F70700000746007B
(1739001778.723) RX 1F2#10640000001E000C
(1739001778.724) RX 284#00000000000064EA
(1739001778.724) RX 50B#000006C00060
(1739001778.725) RX 1DA#C1641800000101AA
(173(1739001778.736) RX 1DC#B40F8FFD08C0CB1B
(1739001778.756) RX 1DC#B40F8FFD0130C9CE
(1739001778.758) RX 1C2#5F
(1739001778.763) RX 54A#9E0070062000002D
(1739001778.764) RX 1D4#F70700000746007B
(1739001778.764) RX 1F2#10640000001E000C
(1739001778.765) RX 54B#0078A89234000000
(1739001778.765) RX 5B9#67FF67FF28
(1739001778.765) RX 1DA#C1641800000101AA
(1739001778.765) RX 54C#6766400000885A00
(1739001778.766) RX 1DB#FFE0C02A000002CE
(1739001778.766) RX 11A#014000AA800003CE
(1739001778.766) RX 1DC#B40F8FFD0520C64C
(1739001778.767) RX 54F#2301000007408A58
(1739001778.768) RX 1C2#50
(1739001778.774) RX 1D4#F7070000474600BC
(1739001778.775) RX 1F2#10640000001E010D
(1739001778.775) RX 1DA#C1641800000102A0
(1739001778.775) RX 11A#014000AAC0000003
(1739001778.775) RX 284#00000000000067ED
(1739001778.776) RX 1DB#FFE0C02A0000034B
(1739001778.776) RX 1DC#B40F8FFD08C0CB1B
(1739001778.778) RX 1C2#51
(1739001778.785) RX 1D4#F707000087460070
(1739001778.785) RX 1F2#10640000001E020E
(1739001778.785) RX 1DA#C164180000010325
(1739001778.785) RX 50C#00000003B29A
(1739001778.786) RX 1DB#FFC0C02A00000010
(1739001778.786) RX 11A#0140005500000115
(1739001778.786) RX 1DC#B40F8FFD0CCCD8E4
(1739001778.788) RX 1C2#52
(1739001778.795) RX 1DA#C16418000001002F
(1739001778.795) RX 1D4#F7070000C74600B7
(1739001778.795) RX 1F2#10640000001E030F
(1739001778.796) RX 284#00000000000068EE
(1739001778.796) RX 55A#003331005F365B08
(1739001778.796) RX 11A#01400055400002D8
(1739001778.796) RX 1DB#FFC0C02A00000195
(1739001778.797) RX 1DC#B40F8FFD0130C9CE
(1739001778.798) RX 1C2#53
(1739001778.803) RX 380#02041021000000AF
(1739001778.803) RX 5BF#000000002800003C
(1739001778.805) RX 1DA#C1641800000101AA
(1739001778.805) RX 1D4#F70700000746007B
(1739001778.805) RX 1F2#10640000001E000C
(1739001778.806) RX 50A#8572A00E8020
(1739001778.806) RX 11A#014000AA800003CE
(1739001778.806) RX 1DB#FFC0C02A0000029F
(1739001778.807) RX 1DC#B40F8FFD0520C64C
(1739001778.808) RX 1C2#54
(1739001778.815) RX 1DA#C1641800000102A0
(1739001778.815) RX 11A#014000AAC0000003
(1739001778.815) RX 1D4#F7070000474600BC
(1739001778.816) RX 1F2#10640000001E010D
(1739001778.816) RX 284#00000000000069EF
(1739001778.816) RX 1DB#FFC0C02A0000031A
(1739001778.817) RX 1DC#B40F8FFD08C0CB1B
(1739001778.818) RX 1C2#55
(1739001778.825) RX 1DA#C164180000010325
(1739001778.826) RX 1D4#F707000087460070
(1739001778.826) RX 1F2#10640000001E020E
(1739001778.826) RX 11A#0140005500000115
(1739001778.826) RX 1DB#FFC0C02A00000010
(1739001778.826) RX 50B#000006C00060
(1739001778.827) RX 1DC#B40F8FFD0CCCD8E4
(1739001778.828) RX 1C2#56
(1739001778.835) RX 1DA#C16418000001002F
(1739001778.836) RX 11A#01400055400002D8
(1739001778.836) RX 1D4#F7070000C74600B7
(1739001778.836) RX 1DB#FFC0C02A00000195
(1739001778.836) RX 1F2#10640000001E030F
(1739001778.837) RX 1DC#B40F8FFD0130C9CE
(1739001778.837) RX 284#0000000000006AF0
(1739001778.837) RX 55B#C980AA00E5401249
 1739001778.796) RX 1DB#FFC0C02A00000195
(1739001778.797) RX 1DC#B40F8FFD0130C9CE
(1739001778.818) RX 1C2#55
(1739001778.825) RX 1DA#C164180000010325
(1739001778.826) RX 1D4#F707000087460070
(1739001778.826) RX 1F2#10640000001E020E
(1739001778.826) RX 11A#0140005500000115
(1739001778.826) RX 1DB#FFC0C02A00000010
(1739001778.826) RX 50B#000006C00060
(1739001778.827) RX 1DC#B40F8FFD0CCCD8E4
(1739001778.848) RX 1C2#58
(1739001778.855) RX 1DA#C1641800000102A0
(1739001778.855) RX 11A#014000AAC0000003
(1739001778.856) RX 1DB#FFC0C02A0000031A
(1739001778.856) RX 1D4#F7070000474600BC
(1739001778.857) RX 1DC#B40F8FFD08C0CB1B
(1739001778.857) RX 1F2#10640000001E010D
(1739001778.857) RX 284#0000000000006BF1
 1739001778.837) RX 55B#C980AA00E5401249
(1739001778.818) RX 1C2#55
(1739001778.825) RX 1DA#C164180000010325
(1739001778.826) RX 1D4#F707000087460070
(1739001778.826) RX 1F2#10640000001E020E
(1739001778.826) RX 11A#0140005500000115
(1739001778.826) RX 1DB#FFC0C02A00000010
(1739001778.826) RX 50B#000006C00060
(1739001778.827) RX 1DC#B40F8FFD0CCCD8E4
(1739001778.867) RX 54F#2301000007808A58
(1739001778.868) RX 1C2#5A
(1739001778.875) RX 1DA#C16418000001002F
(1739001778.876) RX 11A#01400055400002D8
(1739001778.876) RX 1DB#FFC0C02A00000195
(1739001778.876) RX 1DC#B40F8FFD0130C9CE
(1739001778.877) RX 1D4#F7070000C74600B7
(1739001778.877) RX 1F2#10640000001E030F
(1739001778.877) RX 284#0000000000006CF2
(1739001778.879) RX 1C2#5B
(1739001778.885) RX 1DA#C1641800000101AA
(1739001778.886) RX 11A#014000AA800003CE
(1739001778.886) RX 1DB#FFE0C02A000002CE
(1739001778.886) RX 1DC#B40F8FFD0520C64C
(1739001778.887) RX 1D4#F70700000746007B
(1739001778.887) RX 1F2#10640000001E000C
(1739001778.887) RX 50C#000000005DC8
(1739001778.889) RX 1C2#5C
(1739001778.895) RX 1DA#C1641800000102A0
(1739001778.895) RX 55A#003331005F365B08
(1739001778.895) RX 11A#014000AAC0000003
(1739001778.896) RX 1DB#FFE0C02A0000034B
(1739001778.897) RX 1DC#B40F8FFD08C0CB1B
(1739001778.897) RX 1D4#F7070000474600BC
(1739001778.898) RX 1F2#10640000001E010D
(1739001778.898) RX 284#0000000000006DF3
(1739001778.899) RX 1C2#5D
(1739001778.903) RX 380#02041021000000B0
(1739001778.904) RX 5BF#0000000028000009
(1739001778.905) RX 1DA#C164180000010325
(1739001778.906) RX 11A#0140005500000115
(1739001778.906) RX 1DB#FFE0C02A00000041
(1739001778.906) RX 1DC#B40F8FFD0CCCD8E4
(1739001778.908) RX 1D4#F707000087460070
(1739001778.908) RX 1F2#10640000001E020E
(1739001778.908) RX 50A#8512A00E8020
(1739001778.909) RX 1C2#5E
(1739001778.915) RX 1DA#C16418000001002F
(1739001778.916) RX 11A#01400055400002D8
(1739001778.916) RX 1DB#FFE0C02A000001C4
(1739001778.917) RX 1DC#B40F8FFD0130C9CE
(1739001778.918) RX 1D4#F7070000C74600B7
(1739001778.918) RX 1F2#10640000001E030F
(1739001778.918) RX 284#0000000000006EF4
(1739001778.919) RX 1C2#5F
(1739001778.925) RX 1DA#C1641800000101AA
(1739001778.926) RX 11A#014000AA800003CE
(1739001778.926) RX 1DB#FFE0C02A000002CE
(1739001778.926) RX 1DC#B40F8FFD0520C64C
(1739001778.928) RX 1D4#F70700000746007B
(1739001778.928) RX 1F2#10640000001E000C
(1739001778.928) RX 50B#000006C00060
(1739001778.929) RX 1C2#50
(1739001778.935) RX 1DA#C1641800000102A0
(1739001778.935) RX 11A#014000AAC0000003
(1739001778.936) RX 1DB#FFE0C02A0000034B
(1739001778.937) RX 1DC#B40F8FFD08C0CB1B
(1739001778.937) RX 55B#C9805500E540138B
(1739001778.937) RX 5BC#5A032026B2064080
(1739001778.938) RX 1D4#F7070000474600BC
(1739001778.938) RX 1F2#10640000001E010D
(1739001778.939) RX 284#0000000000006FF5
(1739001778.939) RX 1C2#51
(1739001778.945) RX 1DA#C164180000010325
(1739001778.946) RX 11A#0140005500000115
(1739001778.946) RX 1DB#FFE0C02A00000041
(1739001778.947) RX 1DC#B40F8FFD0CCCD8E4
(1739001778.947) RX 5C0#404C4C0004E41200
(1739001778.948) RX 5EB#E00FFFFFFFFFFFFF
(1739001778.949) RX 1D4#F707000087460070
(1739001778.949) RX 1F2#10640000001E020E
(1739001778.949) RX 1C2#52
(1739001778.955) RX 1DA#C16418000001002F
(1739001778.956) RX 11A#01400055400002D8
(1739001778.956) RX 1DB#FFE0C02A000001C4
(1739001778.957) RX 1DC#B40F8FFD0130C9CE
(1739001778.959) RX 1D4#F7070000C74600B7
(1739001778.959) RX 1C2#53
(1739001778.959) RX 1F2#10640000001E030F
(1739001778.959) RX 284#00000000000070F6
(1739001778.964) RX 54A#9E0070062000002D
(1739001778.965) RX 54B#0078A89234000000
(1739001778.965) RX 1DA#C1641800000101AA
(1739001778.966) RX 54C#6866400000885A00
(1739001778.966) RX 11A#014000AA800003CE
(1739001778.966) RX 1DB#FFE0C02A000002CE
(1739001778.967) RX 54F#2301000007C08A58
(1739001778.967) RX 1DC#B40F8FFD0520C64C
(1739001778.969) RX 1C2#54
(1739001778.969) RX 1D4#F70700000746007B
(1739001778.969) RX 1F2#10640000001E000C
(1739001778.975) RX 1DA#C1641800000102A0
(1739001778.975) RX 11A#014000AAC0000003
(1739001778.976) RX 1DB#FFE0C02A0000034B
(1739001778.977) RX 1DC#B40F8FFD08C0CB1B
(1739001778.979) RX 1C2#55
(1739001778.979) RX 1D4#F7070000474600BC
(1739001778.979) RX 1F2#10640000001E010D
(1739001778.980) RX 284#00000000000071F7
(1739001778.985) RX 1DA#C164180000010325
(1739001778.986) RX 11A#0140005500000115
(1739001778.986) RX 1DB#FFE0C02A00000041
(1739001778.987) RX 1DC#B40F8FFD0CCCD8E4
(1739001778.989) RX 1C2#56
(1739001778.989) RX 1D4#F707000087460070
(1739001778.990) RX 1F2#10640000001E020E
(1739001778.990) RX 50C#00000001B231
(1739001778.995) RX 1DA#C16418000001002F
(1739001778.995) RX 55A#003331005F365B08
(1739001778.996) RX 11A#01400055400002D8
(1739001778.996) RX 1DB#FFE0C02A000001C4
(1739001778.997) RX 1DC#B40F8FFD0130C9CE
(1739001778.999) RX 1C2#57
(1739001779.000) RX 1D4#F7070000C74600B7
(1739001779.000) RX 1F2#10640000001E030F
(1739001779.000) RX 284#00000000000072F8
(1739001779.003) RX 380#020410210000008D
(1739001779.004) RX 5BF#000000002800001A
(1739001779.005) RX 1DA#C1641800000101AA
(1739001779.006) RX 11A#014000AA800003CE
(1739001779.006) RX 1DB#FFE0C02A000002CE
(1739001779.007) RX 1DC#B40F8FFD0520C64C
(1739001779.009) RX 1C2#58
(1739001779.010) RX 1D4#F70700000746007B
(1739001779.010) RX 1F2#10640000001E000C
(1739001779.010) RX 50A#8532A00E8020
(1739001779.015) RX 1DA#C1641800000102A0
(1739001779.015) RX 11A#014000AAC0000003
(1739001779.016) RX 1DB#FFE0C02A0000034B
(1739001779.017) RX 1DC#B40F8FFD08C0CB1B
(1739001779.019) RX 1C2#59
(1739001779.020) RX 1D4#F7070000474600BC
(1739001779.020) RX 1F2#10640000001E010D
(1739001779.021) RX 284#00000000000073F9
(1739001779.025) RX 1DA#C164180000010325
(1739001779.026) RX 11A#0140005500000115
(1739001779.026) RX 1DB#FFE0C02A00000041
(1739001779.027) RX 1DC#B40F8FFD0CCCD8E4
(1739001779.029) RX 1C2#5A
(1739001779.030) RX 1D4#F707000087460070
(1739001779.031) RX 1F2#10640000001E020E
(1739001779.031) RX 50B#000006C00060
(1739001779.035) RX 1DA#C16418000001002F
(1739001779.036) RX 11A#01400055400002D8
(1739001779.037) RX 1DB#FFE0C02A000001C4
(1739001779.037) RX 1DC#B40F8FFD0130C9CE
(1739001779.037) RX 55B#C980AA00E54010C6
(1739001779.038) RX 5BC#5A032C26B3040080
(1739001779.039) RX 1C2#5B
(1739001779.041) RX 1D4#F7070000C74600B7
(1739001779.041) RX 1F2#10640000001E030F
(1739001779.041) RX 284#00000000000074FA
(1739001779.045) RX 1DA#C1641800000101AA
(1739001779.046) RX 11A#014000AA800003CE
(1739001779.046) RX 1DB#FFE0C02A000002CE
(1739001779.047) RX 1DC#B40F8FFD0520C64C
(1739001779.049) RX 1C2#5C
(1739001779.051) RX 1D4#F70700000746007B
(1739001779.051) RX 1F2#10640000001E000C
(1739001779.055) RX 1DA#C1641800000102A0
(1739001779.055) RX 11A#014000AAC0000003
(1739001779.057) RX 1DB#FFE0C02A0000034B
(1739001779.057) RX 1DC#B40F8FFD08C0CB1B
(1739001779.059) RX 1C2#5D
(1739001779.061) RX 1D4#F7070000474600BC
(1739001779.061) RX 1F2#10640000001E010D
(1739001779.062) RX 284#00000000000075FB
(1739001779.064) RX 54A#100070062000002D
(1739001779.065) RX 54B#0078A89234000000
(1739001779.065) RX 1DA#C164180000010325
(1739001779.066) RX 54C#6866400000885A00
(1739001779.066) RX 11A#0140005500000115
(1739001779.067) RX 1DB#FFE0C02A00000041
(1739001779.067) RX 54F#2301000007008A58
(1739001779.067) RX 1DC#B40F8FFD0CCCD8E4
(1739001779.069) RX 1C2#5E
(1739001779.071) RX 1D4#F707000087460070
(1739001779.072) RX 1F2#10640000001E020E
(1739001779.075) RX 1DA#C16418000001002F
(1739001779.076) RX 11A#01400055400002D8
(1739001779.077) RX 1DB#FFE0C02A000001C4
(1739001779.077) RX 1DC#B40F8FFD0130C9CE
(1739001779.079) RX 1C2#5F
(1739001779.082) RX 1D4#F7070000C74600B7
(1739001779.082) RX 1F2#10640000001E030F
(1739001779.082) RX 284#00000000000076FC
(1739001779.085) RX 1DA#C1641800000101AA
(1739001779.086) RX 11A#014000AA800003CE
(1739001779.087) RX 1DB#FFE0C02A000002CE
(1739001779.087) RX 1DC#B40F8FFD0520C64C
(1739001779.089) RX 1C2#50
(1739001779.092) RX 1D4#F70700000746007B
(1739001779.092) RX 1F2#10640000001E000C
(1739001779.092) RX 50C#000000025D63
(1739001779.095) RX 1DA#C1641800000102A0
(1739001779.095) RX 55A#003331005F365B08
(1739001779.095) RX 11A#014000AAC0000003
(1739001779.097) RX 1DB#FFE0C02A0000034B
(1739001779.097) RX 1DC#B40F8FFD08C0CB1B
(1739001779.099) RX 1C2#51
(1739001779.102) RX 1D4#F7070000474600BC
(1739001779.102) RX 1F2#10640000001E010D
(1739001779.103) RX 284#00000000000077FD
(1739001779.104) RX 380#020410210000009E
(1739001779.104) RX 5BF#000000002800002B
(1739001779.105) RX 1DA#C164180000010325
(1739001779.106) RX 11A#0140005500000115
(1739001779.107) RX 1DB#FFE0C02A00000041
(1739001779.107) RX 1DC#B40F8FFD0CCCD8E4
(1739001779.109) RX 1C2#52
 000007008A58
(1739001779.067) RX 1DC#B40F8FFD0CCCD8E4
(1739001779.089) RX 1C2#50
(1739001779.092) RX 1D4#F70700000746007B
(1739001779.092) RX 1F2#10640000001E000C
(1739001779.092) RX 50C#000000025D63
(1739001779.095) RX 1DA#C1641800000102A0
(1739001779.095) RX 55A#003331005F365B08
(1739001779.095) RX 11A#014000AAC0000003
(1739001779.097) RX 1DB#FFE0C02A0000034B
(1739001779.097) RX 1DC#B40F8FFD08C0CB1B
(1739001779.119) RX 1C2#53
(1739001779.123) RX 1D4#F7070000C74600B7
(1739001779.123) RX 1F2#10640000001E030F
(1739001779.123) RX 284#00000000000078FE
(1739001779.125) RX 1DA#C1641800000101AA
(1739001779.126) RX 11A#014000AA800003CE
(1739001779.127) RX 1DB#FFE0C02A000002CE
(1739001779.127) RX 1DC#B40F8FFD0520C64C
(1739001779.129) RX 1C2#54
(1739001779.133) RX 1D4#F70700000746007B
(1739001779.133) RX 1F2#10640000001E000C
(1739001779.133) RX 50B#000006C00060
(1739001779.135) RX 1DA#C1641800000102A0
(1739001779.135) RX 11A#014000AAC0000003
(1739001779.137) RX 1DB#FFE0C02A0000034B
(1739001779.137) RX 1DC#B40F8FFD08C0CB1B
(1739001779.137) RX 55B#C9805500E5401104
(1739001779.138) RX 5BC#5A032C26B3040080
(1739001779.139) RX 1C2#55
(1739001779.143) RX 1D4#F7070000474600BC
(1739001779.143) RX 1F2#10640000001E010D
(1739001779.144) RX 284#00000000000079FF
(1739001779.145) RX 1DA#C164180000010325
(1739001779.146) RX 11A#0140005500000115
(1739001779.147) RX 1DB#FFE0C02A00000041
(1739001779.147) RX 1DC#B40F8FFD0CCCD8E4
(1739001779.149) RX 1C2#56
(1739001779.153) RX 1D4#F707000087460070
(1739001779.154) RX 1F2#10640000001E020E
(1739001779.155) RX 1DA#C16418000001002F
(1739001779.156) RX 11A#01400055400002D8
(1739001779.157) RX 1DB#FFE0C02A000001C4
(1739001779.157) RX 1DC#B40F8FFD0130C9CE
(1739001779.159) RX 1C2#57
(1739001779.164) RX 1D4#F7070000C74600B7
(1739001779.164) RX 1F2#10640000001E030F
(1739001779.164) RX 284#0000000000007A00
(1739001779.164) RX 54A#9E0070062000002D
(1739001779.165) RX 54B#0078A89234000000
(1739001779.165) RX 1DA#C1641800000101AA
(1739001779.166) RX 54C#6866400000885A00
(1739001779.166) RX 11A#014000AA800003CE
(1739001779.167) RX 54F#2301000007408A58
(1739001779.167) RX 1DB#FFC0C02A0000029F
(1739001779.167) RX 1DC#B40F8FFD0520C64C
(1739001779.169) RX 1C2#58
(1739001779.174) RX 1D4#F70700000746007B
(1739001779.174) RX 1F2#10640000001E000C
(1739001779.174) RX 284#0000000000007B01
(1739001779.175) RX 1DA#C1641800000102A0
(1739001779.175) RX 11A#014000AAC0000003
(1739001779.177) RX 1DB#FFC0C02A0000031A
(1739001779.177) RX 1DC#B40F8FFD08C0CB1B
(1739001779.179) RX 1C2#59
(1739001779.184) RX 1D4#F7070000474600BC
(1739001779.184) RX 1F2#10640000001E010D
(1739001779.185) RX 1DA#C164180000010325
(1739001779.186) RX 11A#0140005500000115
(1739001779.187) RX 1DB#FFC0C02A00000010
(1739001779.187) RX 1DC#B40F8FFD0CCCD8E4
(1739001779.189) RX 1C2#5A
(1739001779.194) RX 1D4#F707000087460070
(1739001779.195) RX 1F2#10640000001E020E
(1739001779.195) RX 1DA#C16418000001002F
(1739001779.195) RX 284#0000000000007C02
(1739001779.195) RX 50C#00000003B29A
(1739001779.196) RX 55A#003331005F365B08
(1739001779.196) RX 11A#01400055400002D8
(1739001779.197) RX 1DB#FFC0C02A00000195
(1739001779.197) RX 1DC#B40F8FFD0130C9CE
(1739001779.199) RX 1C2#5B
(1739001779.204) RX 380#02041021000000AF
(1739001779.204) RX 5BF#000000002800003C
(1739001779.205) RX 1D4#F7070000C74600B7
(1739001779.205) RX 1DA#C1641800000101AA
(1739001779.205) RX 1F2#10640000001E030F
(1739001779.205) RX 5A9#643C501304300000
(1739001779.206) RX 11A#014000AA800003CE
(1739001779.207) RX 1DB#FFC0C02A0000029F
(1739001779.207) RX 1DC#B40F8FFD0520C64C
(1739001779.209) RX 1C2#5C
(1739001779.215) RX 1DA#C1641800000102A0
(1739001779.215) RX 1D4#F70700000746007B
(1739001779.215) RX 11A#014000AAC0000003
(1739001779.216) RX 1F2#10640000001E000C
(1739001779.216) RX 284#0000000000007D03
(1739001779.216) RX 50A#8572A00E8020
(1739001779.217) RX 1DB#FFC0C02A0000031A
(1739001779.217) RX 1DC#B40F8FFD08C0CB1B
(1739001779.219) RX 1C2#5D
(1739001779.225) RX 1DA#C164180000010325
(1739001779.225) RX 1D4#F7070000474600BC
(1739001779.225) RX 1F2#10640000001E010D
(1739001779.226) RX 11A#0140005500000115
(1739001779.227) RX 1DB#FFA0C02A000000E3
(1739001779.227) RX 1DC#B40F8FFD0CCCD8E4
(1739001779.229) RX 1C2#5E
(1739001779.235) RX 1DA#C16418000001002F
(1739001779.235) RX 1D4#F707000087460070
(1739001779.236) RX 1F2#10640000001E020E
(1739001779.236) RX 11A#01400055400002D8
(1739001779.236) RX 284#0000000000007E04
(1739001779.236) RX 50B#000006C00060
(1739001779.237) RX 1DB#FFA0C02A00000166
(1739001779.238) RX 1DC#B40F8FFD0130C9CE
(1739001779.238) RX 55B#C980AA00E4C0120D
(1739001779.238) RX 5BC#5A032C26B3040080
(1739001779.239) RX 1C2#5F
(1739001779.245) RX 1DA#C1641800000101AA
(1739001779.246) RX 1D4#F7070000C74600B7
(1739001779.246) RX 1F2#10640000001E030F
(1739001779.246) RX 11A#014000AA800003CE
(1739001779.247) RX 1DB#FFA0C02A0000026C
(1739001779.247) RX 1DC#B40F8FFD0520C64C
(1739001779.249) RX 1C2#50
(1739001779.255) RX 1DA#C1641800000102A0
(1739001779.255) RX 11A#014000AAC0000003
(1739001779.256) RX 1D4#F70700000746007B
(1739001779.256) RX 1F2#10640000001E000C
(1739001779.256) RX 284#0000000000007F05
(1739001779.257) RX 1DB#FFA0C02A000003E9
(1739001779.258) RX 1DC#B40F8FFD08C0CB1B
(1739001779.259) RX 1C2#51
(1739001779.264) RX 54A#100070062000002D
(1739001779.265) RX 1DA#C164180000010325
(1739001779.265) RX 54B#0078A89234000000
(1739001779.266) RX 54C#6866400000885A00
(1739001779.266) RX 11A#0140005500000115
(1739001779.266) RX 1D4#F7070000474600BC
(1739001779.267) RX 1F2#10640000001E010D
(1739001779.267) RX 54F#2301000007808A58
(1739001779.267) RX 1DB#FFA0C02A000000E3
(1739001779.268) RX 1DC#B40F8FFD0CCCD8E4
(1739001779.269) RX 1C2#52
(1739001779.275) RX 1DA#C16418000001002F
(1739001779.276) RX 11A#01400055400002D8
(1739001779.276) RX 1D4#F707000087460070
(1739001779.277) RX 1F2#10640000001E020E
(1739001779.277) RX 284#0000000000008006
(1739001779.277) RX 5B9#67FF67FF28
(1739001779.277) RX 1DB#FFA0C02A00000166
(1739001779.278) RX 1DC#B40F8FFD0130C9CE
(1739001779.279) RX 1C2#53
(1739001779.285) RX 1DA#C1641800000101AA
(1739001779.286) RX 11A#014000AA800003CE
(1739001779.287) RX 1D4#F7070000C74600B7
(1739001779.287) RX 1F2#10640000001E030F
(1739001779.287) RX 1DB#FFA0C02A0000026C
(1739001779.288) RX 1DC#B40F8FFD0520C64C
(1739001779.289) RX 1C2#54
(1739001779.295) RX 1DA#C1641800000102A0
(1739001779.295) RX 55A#003331005F365B08
(1739001779.295) RX 11A#014000AAC0000003
(1739001779.297) RX 1D4#F70700000746007B
(1739001779.297) RX 1F2#10640000001E000C
(1739001779.297) RX 1DB#FFA0C02A000003E9
(1739001779.298) RX 284#0000000000008107
(1739001779.298) RX 1DC#B40F8FFD08C0CB1B
(1739001779.298) RX 50C#000000005DC8
(1739001779.300) RX 1C2#55
(1739001779.304) RX 380#02041021000000B0
(1739001779.304) RX 5BF#0000000028000009
(1739001779.305) RX 1DA#C164180000010325
(1739001779.306) RX 11A#0140005500000115
(1739001779.307) RX 1D4#F7070000474600BC
(1739001779.307) RX 1DB#FFA0C02A000000E3
(1739001779.308) RX 1F2#10640000001E010D
(1739001779.308) RX 1DC#B40F8FFD0CCCD8E4
(1739001779.310) RX 1C2#56
(1739001779.315) RX 1DA#C16418000001002F
(1739001779.316) RX 11A#01400055400002D8
(1739001779.317) RX 1D4#F707000087460070
(1739001779.318) RX 1DB#FFA0C02A00000166
(1739001779.318) RX 1F2#10640000001E020E
(1739001779.318) RX 1DC#B40F8FFD0130C9CE
(1739001779.318) RX 284#0000000000008208
(1739001779.318) RX 50A#8512A00E8020
(1739001779.320) RX 1C2#57
(1739001779.325) RX 1DA#C1641800000101AA
(1739001779.326) RX 11A#014000AA800003CE
(1739001779.327) RX 1DB#FFA0C02A0000026C
(1739001779.327) RX 1D4#F7070000C74600B7
(1739001779.328) RX 1DC#B40F8FFD0520C64C
(1739001779.328) RX 1F2#10640000001E030F
(1739001779.330) RX 1C2#58
(1739001779.335) RX 1DA#C1641800000102A0
(1739001779.335) RX 11A#014000AAC0000003
(1739001779.337) RX 1DB#FFA0C02A000003E9
(1739001779.338) RX 1DC#B40F8FFD08C0CB1B
(1739001779.338) RX 1D4#F70700000746007B
(1739001779.338) RX 1F2#10640000001E000C
(1739001779.339) RX 284#0000000000008309
(1739001779.339) RX 50B#000006C00060
(1739001779.339) RX 55B#C9805500E4C013CF
(1739001779.339) RX 5BC#5A032C26B3040080
(1739001779.340) RX 1C2#59
(1739001779.345) RX 1DA#C164180000010325
(1739001779.346) RX 11A#0140005500000115
(1739001779.347) RX 1DB#FFA0C02A000000E3
(1739001779.348) RX 1DC#B40F8FFD0CCCD8E4
(1739001779.348) RX 1D4#F7070000474600BC
(1739001779.348) RX 1F2#10640000001E010D
(1739001779.350) RX 1C2#5A
(1739001779.355) RX 1DA#C16418000001002F
(1739001779.356) RX 11A#01400055400002D8
(1739001779.357) RX 1DB#FFA0C02A00000166
(1739001779.358) RX 1DC#B40F8FFD0130C9CE
(1739001779.358) RX 1D4#F707000087460070
(1739001779.358) RX 1F2#10640000001E020E
(1739001779.359) RX 284#000000000000840A
(1739001779.360) RX 1C2#5B
(1739001779.364) RX 54A#9E0070062000002D
(1739001779.365) RX 1DA#C1641800000101AA
(1739001779.365) RX 54B#0078A89234000000
(1739001779.366) RX 11A#014000AA800003CE
(1739001779.366) RX 54C#6866C00000885A00
(1739001779.367) RX 54F#2301000007C08A58
(1739001779.367) RX 1DB#FFA0C02A0000026C
(1739001779.368) RX 1DC#B40F8FFD0520C64C
(1739001779.369) RX 1D4#F7070000C74600B7
(1739001779.369) RX 1F2#10640000001E030F
(1739001779.370) RX 1C2#5C
(1739001779.375) RX 1DA#C1641800000102A0
(1739001779.375) RX 11A#014000AAC0000003
(1739001779.377) RX 1DB#FFA0C02A000003E9
(1739001779.378) RX 1DC#B40F8FFD08C0CB1B
