(1739001816.160) RX 1DB#FFE0C06A000003D5
(1739001816.160) RX 1DC#B40F8FFD08C0CB1B
(1739001816.167) RX 11A#014000AA800003CE
(1739001816.168) RX 1D4#F7070000C74600B7
(1739001816.168) RX 1F2#10640000001E030F
(1739001816.168) RX 284#000000000000B43A
(1739001816.168) RX 1C2#53
(1739001816.168) RX 1DA#C1641800000102A0
(1739001816.149) RX 1DB#FFE0C06A00000250
(1739001816.150) RX 1DC#B40F8FFD0520C64C
(1739001816.153) RX 11A#01400055400002D8
(1739001816.153) RX 1D4#F707000087460070
(1739001816.153) RX 1F2#10640000001E020E
(1739001816.154) RX 5B9#67FF67FF28
(1739001816.155) RX 1C2#52
(1739001816.158) RX 1DA#C1641800000101AA
(1739001816.180) RX 1DB#FFE0C06A0000015A
(1739001816.180) RX 1DC#B40F8FFD0130C9CE
(1739001816.183) RX 11A#0140005500000115
(1739001816.184) RX 1D4#F7070000474600BC
(1739001816.184) RX 1F2#10640000001E010D
(1739001816.185) RX 1C2#55
(1739001816.188) RX 1DA#C16418000001002F
(1739001816.188) RX 55A#003331005F365B08
(1739001816.190) RX 1DB#FFE0C06A00000250
(1739001816.190) RX 1DC#B40F8FFD0520C64C
(1739001816.192) RX 54A#9E0070030000002D
(1739001816.193) RX 11A#01400055400002D8
(1739001816.193) RX 54B#0108801204000001
(1739001816.194) RX 1D4#F707000087460070
(1739001816.194) RX 1F2#10640000001E020E
(1739001816.194) RX 284#000000000000B63C
(1739001816.195) RX 50A#8512A00E8020
(1739001816.195) RX 54C#6866000000005B00
(1739001816.195) RX 1C2#56
(1739001816.195) RX 54F#2301000007C08A55
(1739001816.198) RX 1DA#C1641800000101AA
(1739001816.200) RX 1DB#FFE0C06A000003D5
(1739001816.200) RX 1DC#B40F8FFD08C0CB1B
(1739001816.203) RX 11A#014000AA800003CE
(1739001816.204) RX 1D4#F7070000C74600B7
(1739001816.204) RX 1F2#10640000001E030F
(1739001816.205) RX 1C2#57
(1739001816.208) RX 1DA#C1641800000102A0
(1739001816.210) RX 1DB#FFE0C06A000000DF
(1739001816.210) RX 1DC#B40F8FFD0CCCD8E4
(1739001816.212) RX 11A#014000AAC0000003
(1739001816.214) RX 1D4#F70700000746007B
(1739001816.215) RX 1F2#10640000001E000C
(1739001816.215) RX 284#000000000000B73D
(1739001816.215) RX 50B#000006C00060
(1739001816.215) RX 1C2#58
(1739001816.218) RX 1DA#C164180000010325
(1739001816.220) RX 1DB#FFE0C06A0000015A
(1739001816.220) RX 1DC#B40F8FFD0130C9CE
(1739001816.223) RX 11A#0140005500000115
(1739001816.225) RX 1D4#F7070000474600BC
(1739001816.225) RX 1F2#10640000001E010D
(1739001816.225) RX 1C2#59
(1739001816.228) RX 1DA#C16418000001002F
(1739001816.230) RX 1DB#FFE0C06A00000250
(1739001816.230) RX 1DC#B40F8FFD0520C64C
(1739001816.233) RX 11A#01400055400002D8
(1739001816.235) RX 1D4#F707000087460070
(1739001816.235) RX 1F2#10640000001E020E
(1739001816.235) RX 284#000000000000B83E
(1739001816.235) RX 1C2#5A
(1739001816.238) RX 1DA#C1641800000101AA
(1739001816.240) RX 1DB#FFE0C06A000003D5
(1739001816.240) RX 380#020410210000008D
(1739001816.240) RX 1DC#B40F8FFD08C0CB1B
(1739001816.241) RX 5BF#000000002800001A
(1739001816.241) RX 55B#C9805500E540138B
(1739001816.241) RX 5BC#5A032C26B3064080
(1739001816.243) RX 11A#014000AA800003CE
(1739001816.245) RX 1D4#F7070000C74600B7
(1739001816.245) RX 1C2#5B
(1739001816.245) RX 1F2#10640000001E030F
(1739001816.248) RX 1DA#C1641800000102A0
(1739001816.250) RX 1DB#FFE0C06A000000DF
(1739001816.250) RX 1DC#B40F8FFD0CCCD8E4
(1739001816.252) RX 11A#014000AAC0000003
(1739001816.255) RX 1D4#F70700000746007B
(1739001816.255) RX 1C2#5C
(1739001816.256) RX 1F2#10640000001E000C
(1739001816.256) RX 284#000000000000B93F
(1739001816.258) RX 1DA#C164180000010325
(1739001816.260) RX 1DB#FFE0C06A0000015A
(1739001816.260) RX 1DC#B40F8FFD0130C9CE
(1739001816.263) RX 11A#0140005500000115
(1739001816.266) RX 1D4#F7070000474600BC
(1739001816.266) RX 1F2#10640000001E010D
(1739001816.266) RX 1C2#5D
(1739001816.274) RX 1DA#C16418000001002F
(1739001816.274) RX 1DB#FFE0C06A00000250
(1739001816.274) RX 1DC#B40F8FFD0520C64C
(1739001816.274) RX 11A#01400055400002D8
(1739001816.275) RX 1C2#5E
(1739001816.276) RX 1D4#F707000087460070
(1739001816.276) RX 1F2#10640000001E020E
(1739001816.276) RX 284#000000000000BA40
(1739001816.276) RX 50C#00000001B231
(1739001816.278) RX 1DA#C1641800000101AA
(1739001816.280) RX 1DB#FFE0C06A000003D5
(1739001816.280) RX 1DC#B40F8FFD08C0CB1B
(1739001816.283) RX 11A#014000AA800003CE
(1739001816.285) RX 1C2#5F
(1739001816.286) RX 1D4#F7070000C74600B7
(1739001816.286) RX 1F2#10640000001E030F
(1739001816.288) RX 1DA#C1641800000102A0
(1739001816.288) RX 55A#003330005F365B08
(1739001816.290) RX 1DB#FFE0C06A000000DF
(1739001816.290) RX 1DC#B40F8FFD0CCCD8E4
(1739001816.292) RX 11A#014000AAC0000003
(1739001816.292) RX 54A#100070030000002D
(1739001816.293) RX 54B#0108801204000001
(1739001816.294) RX 54C#6866000000005B00
(1739001816.295) RX 54F#2301000007008A55
(1739001816.296) RX 1C2#50
(1739001816.296) RX 1D4#F70700000746007B
(1739001816.297) RX 1F2#10640000001E000C
(1739001816.297) RX 284#000000000000BB41
(1739001816.297) RX 50A#8532A00E8020
(1739001816.298) RX 1DA#C164180000010325
(1739001816.300) RX 1DB#FFE0C06A0000015A
(1739001816.300) RX 1DC#B40F8FFD0130C9CE
(1739001816.303) RX 11A#0140005500000115
(1739001816.305) RX 1C2#51
(1739001816.306) RX 1D4#F7070000474600BC
(1739001816.307) RX 1F2#10640000001E010D
(1739001816.308) RX 1DA#C16418000001002F
(1739001816.310) RX 1DB#FFE0C06A00000250
(1739001816.310) RX 1DC#B40F8FFD0520C64C
(1739001816.313) RX 11A#01400055400002D8
(1739001816.316) RX 1C2#52
(1739001816.317) RX 1D4#F707000087460070
(1739001816.317) RX 1F2#10640000001E020E
(1739001816.317) RX 284#000000000000BC42
(1739001816.317) RX 50B#000006C00060
(1739001816.318) RX 1DA#C1641800000101AA
(1739001816.320) RX 1DB#FFE0C06A000003D5
(1739001816.320) RX 1DC#B40F8FFD08C0CB1B
(1739001816.323) RX 11A#014000AA800003CE
(1739001816.325) RX 1C2#53
(1739001816.327) RX 1D4#F7070000C74600B7
(1739001816.327) RX 1F2#10640000001E030F
(1739001816.328) RX 1DA#C1641800000102A0
(1739001816.330) RX 1DB#FFE0C06A000000DF
(1739001816.330) RX 1DC#B40F8FFD0CCCD8E4
(1739001816.332) RX 11A#014000AAC0000003
(1739001816.335) RX 1C2#54
(1739001816.337) RX 1D4#F70700000746007B
(1739001816.337) RX 1F2#10640000001E000C
(1739001816.338) RX 284#000000000000BD43
(1739001816.338) RX 1DA#C164180000010325
(1739001816.340) RX 1DB#FFE0C06A0000015A
(1739001816.340) RX 380#020410210000009E
(1739001816.341) RX 1DC#B40F8FFD0130C9CE
(1739001816.341) RX 5BF#000000002800002B
(1739001816.341) RX 55B#C980AA00E54010C6
(1739001816.341) RX 5BC#5A032C26B3064080
(1739001816.343) RX 11A#0140005500000115
(1739001816.345) RX 1C2#55
(1739001816.348) RX 1D4#F7070000474600BC
(1739001816.348) RX 1F2#10640000001E010D
(1739001816.348) RX 1DA#C16418000001002F
(1739001816.350) RX 1DB#FFE0C06A00000250
(1739001816.350) RX 1DC#B40F8FFD0520C64C
(1739001816.353) RX 11A#01400055400002D8
(1739001816.355) RX 1C2#56
(1739001816.358) RX 1D4#F707000087460070
(1739001816.358) RX 1F2#10640000001E020E
(1739001816.358) RX 1DA#C1641800000101AA
(1739001816.358) RX 284#000000000000BE44
(1739001816.360) RX 1DB#FFE0C06A000003D5
(1739001816.360) RX 1DC#B40F8FFD08C0CB1B
(1739001816.363) RX 11A#014000AA800003CE
(1739001816.365) RX 1C2#57
(1739001816.368) RX 1D4#F7070000C74600B7
(1739001816.368) RX 1DA#C1641800000102A0
(1739001816.368) RX 1F2#10640000001E030F
(1739001816.370) RX 1DB#FFE0C06A000000DF
(1739001816.370) RX 1DC#B40F8FFD0CCCD8E4
(1739001816.372) RX 11A#014000AAC0000003
(1739001816.376) RX 1C2#58
(1739001816.378) RX 1DA#C164180000010325
(1739001816.378) RX 1D4#F70700000746007B
(1739001816.379) RX 1F2#10640000001E000C
(1739001816.379) RX 284#000000000000BF45
(1739001816.379) RX 50C#000000025D63
(1739001816.380) RX 1DB#FFE0C06A0000015A
(1739001816.381) RX 1DC#B40F8FFD0130C9CE
(1739001816.383) RX 11A#0140005500000115
(1739001816.386) RX 1C2#59
(1739001816.388) RX 1DA#C16418000001002F
(1739001816.388) RX 55A#003330005F365B08
(1739001816.389) RX 1D4#F7070000474600BC
(1739001816.389) RX 1F2#10640000001E010D
(1739001816.390) RX 1DB#FFE0C06A00000250
(1739001816.390) RX 1DC#B40F8FFD0520C64C
(1739001816.392) RX 54A#9E0070030000002D
(1739001816.393) RX 11A#01400055400002D8
(1739001816.393) RX 54B#0108801204000001
(1739001816.394) RX 54C#6866000000005B00
(1739001816.395) RX 54F#2301000007408A55
(1739001816.396) RX 1C2#5A
(1739001816.398) RX 1DA#C1641800000101AA
(1739001816.399) RX 1D4#F707000087460070
(1739001816.399) RX 1F2#10640000001E020E
(1739001816.399) RX 284#000000000000C046
(1739001816.399) RX 50A#8552A00E8020
(1739001816.400) RX 1DB#FFE0C06A000003D5
(1739001816.401) RX 1DC#B40F8FFD08C0CB1B
(1739001816.403) RX 11A#014000AA800003CE
(1739001816.406) RX 1C2#5B
(1739001816.408) RX 1DA#C1641800000102A0
(1739001816.409) RX 1D4#F7070000C74600B7
(1739001816.409) RX 1F2#10640000001E030F
(1739001816.410) RX 1DB#FFE0C06A000000DF
(1739001816.411) RX 1DC#B40F8FFD0CCCD8E4
(1739001816.412) RX 11A#014000AAC0000003
(1739001816.416) RX 1C2#5C
(1739001816.418) RX 1DA#C164180000010325
(1739001816.419) RX 1D4#F70700000746007B
(1739001816.419) RX 1F2#10640000001E000C
(1739001816.420) RX 284#000000000000C147
(1739001816.420) RX 50B#000006C00060
(1739001816.420) RX 1DB#FFE0C06A0000015A
(1739001816.421) RX 1DC#B40F8FFD0130C9CE
(1739001816.423) RX 11A#0140005500000115
(1739001816.426) RX 1C2#5D
(1739001816.428) RX 1DA#C16418000001002F
(1739001816.429) RX 1D4#F7070000474600BC
(1739001816.430) RX 1F2#10640000001E010D
(1739001816.430) RX 1DB#FFE0C06A00000250
(1739001816.431) RX 1DC#B40F8FFD0520C64C
(1739001816.433) RX 11A#01400055400002D8
(1739001816.436) RX 1C2#5E
(1739001816.438) RX 1DA#C1641800000101AA
(1739001816.440) RX 1D4#F707000087460070
(1739001816.440) RX 1F2#10640000001E020E
(1739001816.440) RX 284#000000000000C248
(1739001816.440) RX 380#02041021000000AF
(1739001816.441) RX 1DB#FFE0C06A000003D5
(1739001816.441) RX 5BF#000000002800003C
(1739001816.441) RX 1DC#B40F8FFD08C0CB1B
(1739001816.441) RX 55B#C9805500E5401104
(1739001816.442) RX 5BC#5A032C26B3064080
(1739001816.443) RX 11A#014000AA800003CE
(1739001816.446) RX 1C2#5F
(1739001816.448) RX 1DA#C1641800000102A0
(1739001816.450) RX 1D4#F7070000C74600B7
(1739001816.450) RX 1F2#10640000001E030F
(1739001816.450) RX 1DB#FFE0C06A000000DF
(1739001816.451) RX 1DC#B40F8FFD0CCCD8E4
(1739001816.452) RX 11A#014000AAC0000003
(1739001816.456) RX 1C2#50
(1739001816.458) RX 1DA#C164180000010325
(1739001816.460) RX 1D4#F70700000746007B
(1739001816.460) RX 1DB#FFE0C06A0000015A
(1739001816.461) RX 1F2#10640000001E000C
(1739001816.461) RX 1DC#B40F8FFD0130C9CE
(1739001816.461) RX 284#000000000000C349
(1739001816.463) RX 11A#0140005500000115
(1739001816.466) RX 1C2#51
(1739001816.468) RX 1DA#C16418000001002F
(1739001816.470) RX 1DB#FFE0C06A00000250
(1739001816.471) RX 1D4#F7070000474600BC
(1739001816.471) RX 1DC#B40F8FFD0520C64C
(1739001816.471) RX 1F2#10640000001E010D
(1739001816.473) RX 11A#01400055400002D8
(1739001816.476) RX 1C2#52
(1739001816.478) RX 1DA#C1641800000101AA
(1739001816.480) RX 1DB#FFE0C06A000003D5
(1739001816.481) RX 1D4#F707000087460070
(1739001816.481) RX 1DC#B40F8FFD08C0CB1B
(1739001816.481) RX 1F2#10640000001E020E
(1739001816.481) RX 284#000000000000C44A
(1739001816.482) RX 50C#00000003B29A
(1739001816.483) RX 11A#014000AA800003CE
(1739001816.486) RX 1C2#53
(1739001816.488) RX 1DA#C1641800000102A0
(1739001816.488) RX 55A#003331005F365B08
(1739001816.490) RX 1DB#FFE0C06A000000DF
(1739001816.491) RX 1DC#B40F8FFD0CCCD8E4
(1739001816.491) RX 1D4#F7070000C74600B7
(1739001816.491) RX 1F2#10640000001E030F
(1739001816.492) RX 11A#014000AAC0000003
(1739001816.493) RX 54A#100070030000002D
(1739001816.493) RX 54B#0108801204000001
(1739001816.495) RX 54C#6866000000005B00
(1739001816.495) RX 54F#2301000007808A55
(1739001816.496) RX 1C2#54
(1739001816.498) RX 1DA#C164180000010325
(1739001816.501) RX 1DB#FFE0C06A0000015A
(1739001816.501) RX 1DC#B40F8FFD0130C9CE
(1739001816.501) RX 1D4#F70700000746007B
(1739001816.501) RX 1F2#10640000001E000C
(1739001816.502) RX 284#000000000000C54B
(1739001816.502) RX 50A#8572A00E8020
(1739001816.503) RX 11A#0140005500000115
(1739001816.506) RX 1C2#55
(1739001816.508) RX 1DA#C16418000001002F
(1739001816.510) RX 1DB#FFE0C06A00000250
(1739001816.511) RX 1DC#B40F8FFD0520C64C
(1739001816.511) RX 1D4#F7070000474600BC
(1739001816.512) RX 1F2#10640000001E010D
(1739001816.513) RX 11A#01400055400002D8
(1739001816.516) RX 1C2#56
(1739001816.518) RX 1DA#C1641800000101AA
(1739001816.521) RX 1DB#FFE0C06A000003D5
(1739001816.521) RX 1DC#B40F8FFD08C0CB1B
(1739001816.522) RX 1D4#F707000087460070
(1739001816.522) RX 1F2#10640000001E020E
(1739001816.522) RX 284#000000000000C64C
(1739001816.522) RX 50B#000006C00060
(1739001816.523) RX 11A#014000AA800003CE
(1739001816.526) RX 1C2#57
(1739001816.528) RX 1DA#C1641800000102A0
(1739001816.531) RX 1DB#FFE0C06A000000DF
(1739001816.531) RX 1DC#B40F8FFD0CCCD8E4
(1739001816.532) RX 1D4#F7070000C74600B7
(1739001816.532) RX 1F2#10640000001E030F
(1739001816.532) RX 11A#014000AAC0000003
(1739001816.536) RX 1C2#58
(1739001816.538) RX 1DA#C164180000010325
(1739001816.541) RX 380#02041021000000B0
(1739001816.541) RX 1DB#FFE0C06A0000015A
(1739001816.541) RX 5BF#0000000028000009
(1739001816.541) RX 1DC#B40F8FFD0130C9CE
(1739001816.542) RX 55B#C980AA00E5401249
(1739001816.542) RX 5BC#5A032C26B3064080
(1739001816.542) RX 1D4#F70700000746007B
(1739001816.542) RX 1F2#10640000001E000C
(1739001816.543) RX 284#000000000000C74D
(1739001816.543) RX 11A#0140005500000115
(1739001816.546) RX 1C2#59
(1739001816.548) RX 1DA#C16418000001002F
(1739001816.551) RX 1DB#FFE0C06A00000250
(1739001816.551) RX 1DC#B40F8FFD0520C64C
(1739001816.551) RX 5C0#404C4C0004E41400
(1739001816.552) RX 5EB#E00FFFFFFFFFFFFF
(1739001816.552) RX 1D4#F7070000474600BC
(1739001816.553) RX 11A#01400055400002D8
(1739001816.553) RX 1F2#10640000001E010D
(1739001816.556) RX 1C2#5A
(1739001816.558) RX 1DA#C1641800000101AA
(1739001816.561) RX 1DB#FFE0C06A000003D5
(1739001816.561) RX 1DC#B40F8FFD08C0CB1B
(1739001816.563) RX 1D4#F707000087460070
(1739001816.563) RX 1F2#10640000001E020E
(1739001816.563) RX 11A#014000AA800003CE
(1739001816.563) RX 284#000000000000C84E
(1739001816.566) RX 1C2#5B
(1739001816.568) RX 1DA#C1641800000102A0
(1739001816.571) RX 1DB#FFE0C06A000000DF
(1739001816.571) RX 1DC#B40F8FFD0CCCD8E4
(1739001816.572) RX 11A#014000AAC0000003
(1739001816.573) RX 1D4#F7070000C74600B7
(1739001816.573) RX 1F2#10640000001E030F
(1739001816.576) RX 1C2#5C
(1739001816.578) RX 1DA#C164180000010325
(1739001816.581) RX 1DB#FFE0C06A0000015A
(1739001816.581) RX 1DC#B40F8FFD0130C9CE
(1739001816.583) RX 11A#0140005500000115
(1739001816.583) RX 1D4#F70700000746007B
(1739001816.583) RX 1F2#10640000001E000C
(1739001816.584) RX 284#000000000000C94F
(1739001816.584) RX 50C#000000005DC8
(1739001816.586) RX 1C2#5D
(1739001816.588) RX 1DA#C16418000001002F
(1739001816.588) RX 55A#003330005F365B08
(1739001816.591) RX 1DB#FFE0C06A00000250
(1739001816.591) RX 1DC#B40F8FFD0520C64C
(1739001816.593) RX 11A#01400055400002D8
(1739001816.593) RX 54A#9E0070030000002D
(1739001816.593) RX 1D4#F7070000474600BC
(1739001816.594) RX 1F2#10640000001E010D
(1739001816.594) RX 284#000000000000CA50
(1739001816.594) RX 54B#0108801204000001
(1739001816.594) RX 5A9#9A44C01304300000
(1739001816.595) RX 54C#6866000000005B00
(1739001816.596) RX 54F#2301000007C08A55
(1739001816.596) RX 1C2#5E
(1739001816.598) RX 1DA#C1641800000101AA
(1739001816.601) RX 1DB#FFE0C06A000003D5
(1739001816.601) RX 1DC#B40F8FFD08C0CB1B
(1739001816.603) RX 11A#014000AA800003CE
(1739001816.604) RX 1D4#F707000087460070
(1739001816.604) RX 1F2#10640000001E020E
(1739001816.604) RX 50A#8512A00E8020
(1739001816.606) RX 1C2#5F
(1739001816.608) RX 1DA#C1641800000102A0
(1739001816.611) RX 1DB#FFE0C06A000000DF
(1739001816.611) RX 1DC#B40F8FFD0CCCD8E4
(1739001816.612) RX 11A#014000AAC0000003
(1739001816.614) RX 1D4#F7070000C74600B7
(1739001816.614) RX 1F2#10640000001E030F
(1739001816.614) RX 284#000000000000CB51
(1739001816.616) RX 1C2#50
(1739001816.618) RX 1DA#C164180000010325
(1739001816.621) RX 1DB#FFE0C06A0000015A
(1739001816.621) RX 1DC#B40F8FFD0130C9CE
(1739001816.623) RX 11A#0140005500000115
(1739001816.624) RX 1D4#F70700000746007B
(1739001816.624) RX 1F2#10640000001E000C
(1739001816.624) RX 50B#000006C00060
(1739001816.626) RX 1C2#51
(1739001816.628) RX 1DA#C16418000001002F
(1739001816.631) RX 1DB#FFE0C06A00000250
(1739001816.631) RX 1DC#B40F8FFD0520C64C
(1739001816.633) RX 11A#01400055400002D8
(1739001816.634) RX 1D4#F7070000474600BC
(1739001816.635) RX 1F2#10640000001E010D
(1739001816.635) RX 284#000000000000CC52
(1739001816.636) RX 1C2#52
(1739001816.638) RX 1DA#C1641800000101AA
(1739001816.641) RX 380#020410210000008D
(1739001816.641) RX 5BF#000000002800001A
(1739001816.641) RX 1DB#FFE0C06A000003D5
(1739001816.641) RX 1DC#B40F8FFD08C0CB1B
(1739001816.642) RX 55B#C9805500E540138B
(1739001816.642) RX 5BC#5A032026B2040080
(1739001816.643) RX 11A#014000AA800003CE
(1739001816.645) RX 1D4#F707000087460070
(1739001816.645) RX 1F2#10640000001E020E
(1739001816.646) RX 1C2#53
(1739001816.648) RX 1DA#C1641800000102A0
(1739001816.651) RX 1DB#FFE0C06A000000DF
(1739001816.651) RX 1DC#B40F8FFD0CCCD8E4
(1739001816.652) RX 11A#014000AAC0000003
(1739001816.655) RX 1D4#F7070000C74600B7
(1739001816.655) RX 1F2#10640000001E030F
(1739001816.655) RX 284#000000000000CD53
(1739001816.656) RX 1C2#54
(1739001816.658) RX 1DA#C164180000010325
(1739001816.661) RX 1DB#FFE0C06A0000015A
(1739001816.661) RX 1DC#B40F8FFD0130C9CE
(1739001816.663) RX 11A#0140005500000115
(1739001816.665) RX 1D4#F70700000746007B
(1739001816.665) RX 1F2#10640000001E000C
(1739001816.665) RX 5B9#67FF67FF28
(1739001816.666) RX 1C2#55
(1739001816.668) RX 1DA#C16418000001002F
(1739001816.671) RX 1DB#FFE0C06A00000250
(1739001816.671) RX 1DC#B40F8FFD0520C64C
(1739001816.673) RX 11A#01400055400002D8
(1739001816.675) RX 1D4#F7070000474600BC
(1739001816.676) RX 1F2#10640000001E010D
(1739001816.676) RX 284#000000000000CE54
(1739001816.676) RX 1C2#56
(1739001816.678) RX 1DA#C1641800000101AA
(1739001816.681) RX 1DB#FFE0C06A000003D5
(1739001816.681) RX 1DC#B40F8FFD08C0CB1B
(1739001816.683) RX 11A#014000AA800003CE
(1739001816.686) RX 1D4#F707000087460070
(1739001816.686) RX 1F2#10640000001E020E
(1739001816.686) RX 50C#00000001B231
(1739001816.686) RX 1C2#57
(1739001816.688) RX 1DA#C1641800000102A0
(1739001816.688) RX 55A#003331005F365B08
(1739001816.691) RX 1DB#FFE0C06A000000DF
(1739001816.691) RX 1DC#B40F8FFD0CCCD8E4
(1739001816.692) RX 11A#014000AAC0000003
(1739001816.693) RX 54A#100070030000002D
(1739001816.694) RX 54B#0108801204000001
(1739001816.695) RX 54C#6866000000005B00
(1739001816.696) RX 54F#2301000007008A55
(1739001816.696) RX 1D4#F7070000C74600B7
(1739001816.696) RX 1F2#10640000001E030F
(1739001816.696) RX 284#000000000000CF55
(1739001816.697) RX 1C2#58
(1739001816.698) RX 1DA#C164180000010325
(1739001816.701) RX 1DB#FFE0C06A0000015A
(1739001816.701) RX 1DC#B40F8FFD0130C9CE
(1739001816.703) RX 11A#0140005500000115
(1739001816.706) RX 1D4#F70700000746007B
(1739001816.706) RX 1F2#10640000001E000C
(1739001816.706) RX 1C2#59
(1739001816.707) RX 50A#8532A00E8020
(1739001816.708) RX 1DA#C16418000001002F
(1739001816.711) RX 1DB#FFE0C06A00000250
(1739001816.711) RX 1DC#B40F8FFD0520C64C
(1739001816.713) RX 11A#01400055400002D8
(1739001816.716) RX 1D4#F7070000474600BC
(1739001816.716) RX 1C2#5A
(1739001816.717) RX 1F2#10640000001E010D
(1739001816.717) RX 284#000000000000D056
(1739001816.718) RX 1DA#C1641800000101AA
(1739001816.721) RX 1DB#FFE0C06A000003D5
(1739001816.721) RX 1DC#B40F8FFD08C0CB1B
(1739001816.723) RX 11A#014000AA800003CE
(1739001816.726) RX 1C2#5B
(1739001816.727) RX 1D4#F707000087460070
(1739001816.727) RX 1F2#10640000001E020E
(1739001816.727) RX 50B#000006C00060
(1739001816.728) RX 1DA#C1641800000102A0
(1739001816.731) RX 1DB#FFE0C06A000000DF
(1739001816.731) RX 1DC#B40F8FFD0CCCD8E4
(1739001816.732) RX 11A#014000AAC0000003
(1739001816.736) RX 1C2#5C
(1739001816.737) RX 1D4#F7070000C74600B7
(1739001816.737) RX 1F2#10640000001E030F
(1739001816.737) RX 284#000000000000D157
(1739001816.738) RX 1DA#C164180000010325
(1739001816.741) RX 380#020410210000009E
(1739001816.741) RX 5BF#000000002800002B
(1739001816.741) RX 1DB#FFE0C06A0000015A
(1739001816.742) RX 1DC#B40F8FFD0130C9CE
(1739001816.742) RX 55B#C980AA00E54010C6
(1739001816.742) RX 5BC#5A032026B2040080
(1739001816.743) RX 11A#0140005500000115
(1739001816.746) RX 1C2#5D
(1739001816.747) RX 1D4#F70700000746007B
(1739001816.747) RX 1F2#10640000001E000C
(1739001816.748) RX 1DA#C16418000001002F
(1739001816.751) RX 1DB#FFE0C06A00000250
(1739001816.751) RX 1DC#B40F8FFD0520C64C
(1739001816.753) RX 11A#01400055400002D8
(1739001816.756) RX 1C2#5E
(1739001816.757) RX 1D4#F7070000474600BC
(1739001816.757) RX 1F2#10640000001E010D
(1739001816.758) RX 284#000000000000D258
(1739001816.758) RX 1DA#C1641800000101AA
(1739001816.761) RX 1DB#FFE0C06A000003D5
(1739001816.762) RX 1DC#B40F8FFD08C0CB1B
(1739001816.763) RX 11A#014000AA800003CE
(1739001816.766) RX 1C2#5F
(1739001816.767) RX 1D4#F707000087460070
(1739001816.768) RX 1F2#10640000001E020E
(1739001816.768) RX 1DA#C1641800000102A0
(1739001816.771) RX 1DB#FFE0C06A000000DF
(1739001816.772) RX 1DC#B40F8FFD0CCCD8E4
(1739001816.772) RX 11A#014000AAC0000003
(1739001816.776) RX 1C2#50
(1739001816.778) RX 1D4#F7070000C74600B7
(1739001816.778) RX 1F2#10640000001E030F
(1739001816.778) RX 1DA#C164180000010325
(1739001816.778) RX 284#000000000000D359
(1739001816.781) RX 1DB#FFE0C06A0000015A
(1739001816.782) RX 1DC#B40F8FFD0130C9CE
(1739001816.783) RX 11A#0140005500000115
(1739001816.786) RX 1C2#51
(1739001816.788) RX 1D4#F70700000746007B
(1739001816.788) RX 1DA#C16418000001002F
(1739001816.788) RX 1F2#10640000001E000C
(1739001816.789) RX 50C#000000025D63
(1739001816.789) RX 55A#003330005F365B08
(1739001816.791) RX 1DB#FFE0C06A00000250
(1739001816.792) RX 1DC#B40F8FFD0520C64C
(1739001816.793) RX 11A#01400055400002D8
(1739001816.793) RX 54A#9E0070030000002D
(1739001816.794) RX 54B#0108801204000001
(1739001816.795) RX 54C#6866000000005B00
(1739001816.796) RX 54F#2301000007408A55
(1739001816.796) RX 1C2#52
(1739001816.798) RX 1DA#C1641800000101AA
(1739001816.798) RX 1D4#F7070000474600BC
(1739001816.798) RX 1F2#10640000001E010D
(1739001816.799) RX 284#000000000000D45A
(1739001816.801) RX 1DB#FFE0C06A000003D5
(1739001816.802) RX 1DC#B40F8FFD08C0CB1B
(1739001816.803) RX 11A#014000AA800003CE
(1739001816.806) RX 1C2#53
(1739001816.808) RX 1DA#C1641800000102A0
(1739001816.808) RX 1D4#F707000087460070
(1739001816.809) RX 1F2#10640000001E020E
(1739001816.809) RX 50A#8552A00E8020
(1739001816.811) RX 1DB#FFE0C06A000000DF
(1739001816.812) RX 1DC#B40F8FFD0CCCD8E4
(1739001816.812) RX 11A#014000AAC0000003
(1739001816.817) RX 1C2#54
(1739001816.818) RX 1DA#C164180000010325
(1739001816.819) RX 1D4#F7070000C74600B7
(1739001816.819) RX 1F2#10640000001E030F
(1739001816.819) RX 284#000000000000D55B
(1739001816.821) RX 1DB#FFE0C06A0000015A
(1739001816.822) RX 1DC#B40F8FFD0130C9CE
(1739001816.823) RX 11A#0140005500000115
(1739001816.827) RX 1C2#55
(1739001816.828) RX 1DA#C16418000001002F
(1739001816.829) RX 1D4#F70700000746007B
(1739001816.829) RX 1F2#10640000001E000C
(1739001816.829) RX 50B#000006C00060
(1739001816.831) RX 1DB#FFE0C06A00000250
(1739001816.832) RX 1DC#B40F8FFD0520C64C
(1739001816.833) RX 11A#01400055400002D8
(1739001816.837) RX 1C2#56
(1739001816.838) RX 1DA#C1641800000101AA
(1739001816.839) RX 1D4#F7070000474600BC
(1739001816.839) RX 1F2#10640000001E010D
(1739001816.840) RX 284#000000000000D65C
(1739001816.841) RX 380#02041021000000AF
(1739001816.841) RX 5BF#000000002800003C
(1739001816.842) RX 1DB#FFE0C06A000003D5
(1739001816.842) RX 1DC#B40F8FFD08C0CB1B
(1739001816.842) RX 55B#C9805500E5401104
(1739001816.843) RX 5BC#5A032026B2040080
(1739001816.843) RX 11A#014000AA800003CE
(1739001816.847) RX 1C2#57
(1739001816.848) RX 1DA#C1641800000102A0
(1739001816.849) RX 1D4#F707000087460070
(1739001816.850) RX 1F2#10640000001E020E
(1739001816.851) RX 1DB#FFE0C06A000000DF
(1739001816.852) RX 1DC#B40F8FFD0CCCD8E4
(1739001816.852) RX 11A#014000AAC0000003
(1739001816.857) RX 1C2#58
(1739001816.858) RX 1DA#C164180000010325
(1739001816.860) RX 1D4#F7070000C74600B7
(1739001816.860) RX 1F2#10640000001E030F
(1739001816.860) RX 284#000000000000D75D
(1739001816.862) RX 1DB#FFE0C06A0000015A
(1739001816.862) RX 1DC#B40F8FFD0130C9CE
(1739001816.863) RX 11A#0140005500000115
(1739001816.867) RX 1C2#59
(1739001816.868) RX 1DA#C16418000001002F
(1739001816.870) RX 1D4#F70700000746007B
(1739001816.870) RX 1F2#10640000001E000C
(1739001816.871) RX 1DB#FFE0C06A00000250
(1739001816.872) RX 1DC#B40F8FFD0520C64C
(1739001816.873) RX 11A#01400055400002D8
(1739001816.877) RX 1C2#5A
(1739001816.878) RX 1DA#C1641800000101AA
(1739001816.880) RX 1D4#F7070000474600BC
(1739001816.880) RX 1F2#10640000001E010D
(1739001816.881) RX 284#000000000000D85E
(1739001816.882) RX 1DB#FFE0C06A000003D5
(1739001816.882) RX 1DC#B40F8FFD08C0CB1B
(1739001816.883) RX 11A#014000AA800003CE
(1739001816.887) RX 1C2#5B
(1739001816.888) RX 1DA#C1641800000102A0
(1739001816.888) RX 55A#003331005F365B08
(1739001816.890) RX 1D4#F707000087460070
(1739001816.891) RX 1F2#10640000001E020E
(1739001816.891) RX 50C#00000003B29A
(1739001816.892) RX 1DB#FFE0C06A000000DF
(1739001816.892) RX 1DC#B40F8FFD0CCCD8E4
(1739001816.892) RX 11A#014000AAC0000003
(1739001816.893) RX 54A#100070030000002D
(1739001816.894) RX 54B#0108801204000001
(1739001816.895) RX 54C#6866000000005B00
(1739001816.896) RX 54F#2301000007808A55
(1739001816.897) RX 1C2#5C
(1739001816.898) RX 1DA#C164180000010325
(1739001816.901) RX 1D4#F7070000C74600B7
(1739001816.901) RX 1F2#10640000001E030F
(1739001816.901) RX 284#000000000000D95F
(1739001816.902) RX 1DB#FFE0C06A0000015A
(1739001816.902) RX 1DC#B40F8FFD0130C9CE
(1739001816.903) RX 11A#0140005500000115
(1739001816.907) RX 1C2#5D
(1739001816.908) RX 1DA#C16418000001002F
(1739001816.911) RX 1D4#F70700000746007B
(1739001816.911) RX 1F2#10640000001E000C
(1739001816.911) RX 50A#8572A00E8020
(1739001816.912) RX 1DB#FFE0C06A00000250
(1739001816.912) RX 1DC#B40F8FFD0520C64C
(1739001816.913) RX 11A#01400055400002D8
(1739001816.917) RX 1C2#5E
(1739001816.918) RX 1DA#C1641800000101AA
(1739001816.921) RX 1D4#F7070000474600BC
(1739001816.921) RX 1F2#10640000001E010D
(1739001816.922) RX 284#000000000000DA60
(1739001816.922) RX 1DB#FFE0C06A000003D5
(1739001816.922) RX 1DC#B40F8FFD08C0CB1B
(1739001816.923) RX 11A#014000AA800003CE
(1739001816.927) RX 1C2#5F
(1739001816.928) RX 1DA#C1641800000102A0
(1739001816.931) RX 1D4#F707000087460070
(1739001816.932) RX 1F2#10640000001E020E
(1739001816.932) RX 1DB#FFE0C06A000000DF
(1739001816.932) RX 50B#000006C00060
(1739001816.932) RX 11A#014000AAC0000003
(1739001816.933) RX 1DC#B40F8FFD0CCCD8E4
(1739001816.937) RX 1C2#50
(1739001816.938) RX 1DA#C164180000010325
(1739001816.941) RX 380#02041021000000B0
(1739001816.941) RX 5BF#0000000028000009
(1739001816.942) RX 1D4#F7070000C74600B7
(1739001816.942) RX 1F2#10640000001E030F
(1739001816.942) RX 284#000000000000DB61
(1739001816.942) RX 1DB#FFE0C06A0000015A
(1739001816.943) RX 1DC#B40F8FFD0130C9CE
(1739001816.943) RX 11A#0140005500000115
(1739001816.943) RX 55B#C980AA00E5401249
(1739001816.944) RX 5BC#5A032026B2040080
(1739001816.947) RX 1C2#51
(1739001816.948) RX 1DA#C16418000001002F
(1739001816.952) RX 1DB#FFE0C06A00000250
(1739001816.952) RX 1D4#F70700000746007B
(1739001816.952) RX 1DC#B40F8FFD0520C64C
(1739001816.952) RX 1F2#10640000001E000C
(1739001816.953) RX 11A#01400055400002D8
(1739001816.957) RX 1C2#52
(1739001816.958) RX 1DA#C1641800000101AA
(1739001816.962) RX 1DB#FFE0C06A000003D5
(1739001816.962) RX 1D4#F7070000474600BC
(1739001816.962) RX 1DC#B40F8FFD08C0CB1B
(1739001816.963) RX 1F2#10640000001E010D
(1739001816.963) RX 284#000000000000DC62
(1739001816.963) RX 11A#014000AA800003CE
(1739001816.967) RX 1C2#53
(1739001816.968) RX 1DA#C1641800000102A0
(1739001816.972) RX 1DB#FFE0C06A000000DF
(1739001816.972) RX 1DC#B40F8FFD0CCCD8E4
(1739001816.972) RX 11A#014000AAC0000003
(1739001816.973) RX 1D4#F707000087460070
(1739001816.973) RX 1F2#10640000001E020E
(1739001816.977) RX 1C2#54
(1739001816.978) RX 1DA#C164180000010325
(1739001816.982) RX 1DB#FFE0C06A0000015A
(1739001816.982) RX 1DC#B40F8FFD0130C9CE
(1739001816.983) RX 1D4#F7070000C74600B7
(1739001816.983) RX 11A#0140005500000115
(1739001816.983) RX 1F2#10640000001E030F
(1739001816.983) RX 284#000000000000DD63
(1739001816.987) RX 1C2#55
(1739001816.988) RX 1DA#C16418000001002F
(1739001816.988) RX 55A#003331005F365B08
(1739001816.992) RX 1DB#FFE0C06A00000250
(1739001816.992) RX 1DC#B40F8FFD0520C64C
(1739001816.993) RX 11A#01400055400002D8
(1739001816.993) RX 1D4#F70700000746007B
(1739001816.993) RX 1F2#10640000001E000C
(1739001816.993) RX 50C#000000005DC8
(1739001816.994) RX 54A#9E0070030000002D
(1739001816.995) RX 54B#0108801204000001
(1739001816.996) RX 54C#6866000000005B00
(1739001816.997) RX 54F#2301000007C08A55
(1739001816.997) RX 1C2#56
(1739001816.998) RX 1DA#C1641800000101AA
(1739001817.002) RX 1DB#FFE0C06A000003D5
(1739001817.002) RX 1DC#B40F8FFD08C0CB1B
(1739001817.003) RX 11A#014000AA800003CE
(1739001817.003) RX 1D4#F7070000474600BC
(1739001817.003) RX 1F2#10640000001E010D
(1739001817.004) RX 284#000000000000DE64
(1739001817.007) RX 1C2#57
(1739001817.008) RX 1DA#C1641800000102A0
(1739001817.012) RX 1DB#FFE0C06A000000DF
(1739001817.012) RX 11A#014000AAC0000003
(1739001817.012) RX 1DC#B40F8FFD0CCCD8E4
(1739001817.013) RX 1D4#F707000087460070
(1739001817.014) RX 1F2#10640000001E020E
(1739001817.014) RX 284#000000000000DF65
(1739001817.014) RX 50A#8512A00E8020
(1739001817.017) RX 1C2#58
(1739001817.018) RX 1DA#C164180000010325
(1739001817.022) RX 1DB#FFE0C06A0000015A
(1739001817.022) RX 1DC#B40F8FFD0130C9CE
(1739001817.023) RX 11A#0140005500000115
(1739001817.024) RX 1D4#F7070000C74600B7
(1739001817.024) RX 1F2#10640000001E030F
(1739001817.027) RX 1C2#59
(1739001817.028) RX 1DA#C16418000001002F
(1739001817.032) RX 1DB#FFE0C06A00000250
(1739001817.032) RX 1DC#B40F8FFD0520C64C
(1739001817.033) RX 11A#01400055400002D8
(1739001817.034) RX 1D4#F70700000746007B
(1739001817.034) RX 1F2#10640000001E000C
(1739001817.034) RX 284#000000000000E066
(1739001817.034) RX 50B#000006C00060
(1739001817.037) RX 1C2#5A
(1739001817.038) RX 1DA#C1641800000101AA
(1739001817.041) RX 380#020410210000008D
(1739001817.041) RX 5BF#000000002800001A
(1739001817.042) RX 1DB#FFE0C06A000003D5
(1739001817.043) RX 1DC#B40F8FFD08C0CB1B
(1739001817.043) RX 11A#014000AA800003CE
(1739001817.043) RX 55B#C9805500E540138B
(1739001817.043) RX 5BC#5A032026B2040080
(1739001817.044) RX 1D4#F7070000474600BC
(1739001817.044) RX 1F2#10640000001E010D
(1739001817.047) RX 1C2#5B
(1739001817.048) RX 1DA#C1641800000102A0
(1739001817.052) RX 11A#014000AAC0000003
(1739001817.052) RX 1DB#FFE0C06A000000DF
(1739001817.053) RX 1DC#B40F8FFD0CCCD8E4
(1739001817.053) RX 5C0#C04C4C0004541400
(1739001817.053) RX 5EB#E00FFFFFFFFFFFFF
(1739001817.054) RX 1D4#F707000087460070
(1739001817.055) RX 1F2#10640000001E020E
(1739001817.055) RX 284#000000000000E167
(1739001817.057) RX 1C2#5C
(1739001817.058) RX 1DA#C164180000010325
(1739001817.062) RX 1DB#FFE0C06A0000015A
(1739001817.062) RX 1DC#B40F8FFD0130C9CE
(1739001817.063) RX 11A#0140005500000115
(1739001817.065) RX 1D4#F7070000C74600B7
(1739001817.065) RX 1F2#10640000001E030F
(1739001817.067) RX 1C2#5D
(1739001817.068) RX 1DA#C16418000001002F
(1739001817.072) RX 1DB#FFE0C06A00000250
(1739001817.072) RX 1DC#B40F8FFD0520C64C
(1739001817.073) RX 11A#01400055400002D8
(1739001817.075) RX 1D4#F70700000746007B
(1739001817.075) RX 1F2#10640000001E000C
(1739001817.075) RX 284#000000000000E268
(1739001817.077) RX 1C2#5E
(1739001817.078) RX 1DA#C1641800000101AA
(1739001817.082) RX 1DB#FFE0C06A000003D5
(1739001817.082) RX 1DC#B40F8FFD08C0CB1B
(1739001817.083) RX 11A#014000AA800003CE
(1739001817.085) RX 1D4#F7070000474600BC
(1739001817.085) RX 1F2#10640000001E010D
(1739001817.087) RX 1C2#5F
(1739001817.088) RX 1DA#C1641800000102A0
(1739001817.088) RX 55A#003330005F365B08
(1739001817.092) RX 11A#014000AAC0000003
(1739001817.092) RX 1DB#FFE0C06A000000DF
(1739001817.093) RX 1DC#B40F8FFD0CCCD8E4
(1739001817.093) RX 54A#100070030000002D
(1739001817.094) RX 54B#0108801204000001
(1739001817.095) RX 54C#6866000000005B00
(1739001817.095) RX 1D4#F707000087460070
(1739001817.096) RX 1F2#10640000001E020E
(1739001817.096) RX 284#000000000000E369
(1739001817.096) RX 50C#00000001B231
(1739001817.096) RX 54F#2301000007008A55
(1739001817.097) RX 1C2#50
(1739001817.098) RX 1DA#C164180000010325
(1739001817.102) RX 1DB#FFE0C06A0000015A
(1739001817.102) RX 1DC#B40F8FFD0130C9CE
(1739001817.103) RX 11A#0140005500000115
(1739001817.106) RX 1D4#F7070000C74600B7
(1739001817.106) RX 1F2#10640000001E030F
(1739001817.106) RX 5A9#9A44C01304300000
(1739001817.107) RX 1C2#51
(1739001817.108) RX 1DA#C16418000001002F
(1739001817.112) RX 1DB#FFE0C06A00000250
(1739001817.112) RX 1DC#B40F8FFD0520C64C
(1739001817.113) RX 11A#01400055400002D8
(1739001817.116) RX 1D4#F70700000746007B
(1739001817.116) RX 1F2#10640000001E000C
(1739001817.116) RX 284#000000000000E46A
(1739001817.116) RX 50A#8532A00E8020
(1739001817.117) RX 1C2#52
(1739001817.118) RX 1DA#C1641800000101AA
(1739001817.122) RX 1DB#FFE0C06A000003D5
(1739001817.123) RX 1DC#B40F8FFD08C0CB1B
(1739001817.123) RX 11A#014000AA800003CE
(1739001817.126) RX 1D4#F7070000474600BC
(1739001817.126) RX 1F2#10640000001E010D
(1739001817.128) RX 1C2#53
(1739001817.128) RX 1DA#C1641800000102A0
(1739001817.132) RX 11A#014000AAC0000003
(1739001817.132) RX 1DB#FFE0C06A000000DF
(1739001817.133) RX 1DC#B40F8FFD0CCCD8E4
(1739001817.136) RX 1D4#F707000087460070
(1739001817.136) RX 1F2#10640000001E020E
(1739001817.137) RX 284#000000000000E56B
(1739001817.137) RX 50B#000006C00060
(1739001817.137) RX 1C2#54
(1739001817.138) RX 1DA#C164180000010325
(1739001817.141) RX 380#020410210000009E
(1739001817.141) RX 5BF#000000002800002B
(1739001817.142) RX 1DB#FFE0C06A0000015A
(1739001817.143) RX 1DC#B40F8FFD0130C9CE
(1739001817.143) RX 11A#0140005500000115
(1739001817.143) RX 55B#C980AA00E54010C6
(1739001817.144) RX 5BC#5A032C26B3052092
(1739001817.147) RX 1D4#F7070000C74600B7
(1739001817.147) RX 1F2#10640000001E030F
(1739001817.147) RX 1C2#55
(1739001817.148) RX 1DA#C16418000001002F
(1739001817.152) RX 1DB#FFE0C06A00000250
(1739001817.153) RX 11A#01400055400002D8
(1739001817.153) RX 1DC#B40F8FFD0520C64C
(1739001817.157) RX 1D4#F70700000746007B
(1739001817.157) RX 1F2#10640000001E000C
(1739001817.157) RX 284#000000000000E66C
(1739001817.157) RX 1C2#56
(1739001817.158) RX 1DA#C1641800000101AA
(1739001817.162) RX 1DB#FFE0C06A000003D5
(1739001817.163) RX 1DC#B40F8FFD08C0CB1B
(1739001817.163) RX 11A#014000AA800003CE
(1739001817.167) RX 1D4#F7070000474600BC
(1739001817.167) RX 1F2#10640000001E010D
(1739001817.168) RX 1C2#57
(1739001817.168) RX 1DA#C1641800000102A0
(1739001817.172) RX 11A#014000AAC0000003
(1739001817.172) RX 1DB#FFE0C06A000000DF
(1739001817.173) RX 1DC#B40F8FFD0CCCD8E4
(1739001817.177) RX 1D4#F707000087460070
(1739001817.177) RX 1F2#10640000001E020E
(1739001817.178) RX 1C2#58
(1739001817.178) RX 284#000000000000E76D
(1739001817.178) RX 1DA#C164180000010325
(1739001817.178) RX 5B9#67FF67FF28
(1739001817.182) RX 1DB#FFE0C06A0000015A
(1739001817.183) RX 1DC#B40F8FFD0130C9CE
(1739001817.183) RX 11A#0140005500000115
(1739001817.187) RX 1D4#F7070000C74600B7
(1739001817.188) RX 1C2#59
(1739001817.188) RX 1F2#10640000001E030F
(1739001817.188) RX 1DA#C16418000001002F
(1739001817.188) RX 55A#003330005F365B08
(1739001817.192) RX 1DB#FFE0C06A00000250
(1739001817.193) RX 11A#01400055400002D8
(1739001817.193) RX 1DC#B40F8FFD0520C64C
(1739001817.193) RX 54A#9E0070030000002D
(1739001817.194) RX 54B#0108801204000001
(1739001817.195) RX 54C#6866000000005B00
(1739001817.196) RX 54F#2301000007408A55
(1739001817.197) RX 1C2#5A
(1739001817.198) RX 1D4#F70700000746007B
(1739001817.198) RX 1DA#C1641800000101AA
(1739001817.198) RX 1F2#10640000001E000C
(1739001817.199) RX 284#000000000000E86E
(1739001817.199) RX 50C#000000025D63
(1739001817.203) RX 1DB#FFE0C06A000003D5
(1739001817.203) RX 11A#014000AA800003CE
(1739001817.203) RX 1DC#B40F8FFD08C0CB1B
(1739001817.207) RX 1C2#5B
(1739001817.208) RX 1DA#C1641800000102A0
(1739001817.208) RX 1D4#F7070000474600BC
(1739001817.208) RX 1F2#10640000001E010D
(1739001817.212) RX 11A#014000AAC0000003
(1739001817.212) RX 1DB#FFE0C06A000000DF
(1739001817.213) RX 1DC#B40F8FFD0CCCD8E4
(1739001817.217) RX 1C2#5C
(1739001817.218) RX 1DA#C164180000010325
(1739001817.218) RX 1D4#F707000087460070
(1739001817.218) RX 1F2#10640000001E020E
(1739001817.219) RX 284#000000000000E96F
(1739001817.219) RX 50A#8552A00E8020
(1739001817.223) RX 1DB#FFE0C06A0000015A
(1739001817.223) RX 11A#0140005500000115
(1739001817.223) RX 1DC#B40F8FFD0130C9CE
(1739001817.227) RX 1C2#5D
(1739001817.228) RX 1DA#C16418000001002F
(1739001817.228) RX 1D4#F7070000C74600B7
(1739001817.229) RX 1F2#10640000001E030F
(1739001817.232) RX 1DB#FFE0C06A00000250
(1739001817.233) RX 11A#01400055400002D8
(1739001817.233) RX 1DC#B40F8FFD0520C64C
(1739001817.238) RX 1C2#5E
(1739001817.238) RX 1DA#C1641800000101AA
(1739001817.239) RX 1D4#F70700000746007B
(1739001817.239) RX 1F2#10640000001E000C
(1739001817.239) RX 284#000000000000EA70
(1739001817.239) RX 50B#000006C00060
(1739001817.241) RX 380#02041021000000AF
(1739001817.241) RX 5BF#000000002800003C
(1739001817.243) RX 1DB#FFE0C06A000003D5
(1739001817.243) RX 11A#014000AA800003CE
(1739001817.243) RX 1DC#B40F8FFD08C0CB1B
(1739001817.243) RX 55B#C9805500E5401104
(1739001817.244) RX 5BC#5A032C26B3052092
(1739001817.248) RX 1C2#5F
(1739001817.248) RX 1DA#C1641800000102A0
(1739001817.249) RX 1D4#F7070000474600BC
(1739001817.249) RX 1F2#10640000001E010D
(1739001817.252) RX 11A#014000AAC0000003
(1739001817.253) RX 1DB#FFE0C06A000000DF
(1739001817.253) RX 1DC#B40F8FFD0CCCD8E4
(1739001817.258) RX 1C2#50
(1739001817.258) RX 1DA#C164180000010325
(1739001817.259) RX 1D4#F707000087460070
(1739001817.259) RX 1F2#10640000001E020E
(1739001817.260) RX 284#000000000000EB71
(1739001817.263) RX 1DB#FFE0C06A0000015A
(1739001817.263) RX 11A#0140005500000115
(1739001817.263) RX 1DC#B40F8FFD0130C9CE
(1739001817.268) RX 1C2#51
(1739001817.268) RX 1DA#C16418000001002F
(1739001817.269) RX 1D4#F7070000C74600B7
(1739001817.270) RX 1F2#10640000001E030F
(1739001817.273) RX 11A#01400055400002D8
(1739001817.273) RX 1DB#FFE0C06A00000250
(1739001817.273) RX 1DC#B40F8FFD0520C64C
(1739001817.278) RX 1C2#52
(1739001817.278) RX 1DA#C1641800000101AA
(1739001817.280) RX 1D4#F70700000746007B
(1739001817.280) RX 1F2#10640000001E000C
(1739001817.280) RX 284#000000000000EC72
(1739001817.283) RX 1DB#FFE0C06A000003D5
(1739001817.283) RX 11A#014000AA800003CE
(1739001817.283) RX 1DC#B40F8FFD08C0CB1B
(1739001817.288) RX 1C2#53
(1739001817.288) RX 1DA#C1641800000102A0
(1739001817.288) RX 55A#003331005F365B08
(1739001817.290) RX 1D4#F7070000474600BC
(1739001817.290) RX 1F2#10640000001E010D
(1739001817.292) RX 11A#014000AAC0000003
(1739001817.293) RX 1DB#FFE0C06A000000DF
(1739001817.293) RX 54A#100070030000002D
(1739001817.293) RX 1DC#B40F8FFD0CCCD8E4
(1739001817.294) RX 54B#0108801204000001
(1739001817.295) RX 54C#6866000000005B00
(1739001817.296) RX 54F#2301000007808A55
(1739001817.298) RX 1C2#54
(1739001817.298) RX 1DA#C164180000010325
(1739001817.300) RX 1D4#F707000087460070
(1739001817.300) RX 1F2#10640000001E020E
(1739001817.301) RX 284#000000000000ED73
(1739001817.301) RX 50C#00000003B29A
(1739001817.303) RX 1DB#FFE0C06A0000015A
(1739001817.303) RX 11A#0140005500000115
(1739001817.303) RX 1DC#B40F8FFD0130C9CE
(1739001817.308) RX 1C2#55
(1739001817.308) RX 1DA#C16418000001002F
(1739001817.310) RX 1D4#F7070000C74600B7
(1739001817.311) RX 1F2#10640000001E030F
(1739001817.313) RX 11A#01400055400002D8
(1739001817.313) RX 1DB#FFE0C06A00000250
(1739001817.313) RX 1DC#B40F8FFD0520C64C
(1739001817.318) RX 1C2#56
(1739001817.318) RX 1DA#C1641800000101AA
(1739001817.321) RX 1D4#F70700000746007B
(1739001817.321) RX 1F2#10640000001E000C
(1739001817.321) RX 284#000000000000EE74
(1739001817.321) RX 50A#8572A00E8020
(1739001817.323) RX 11A#014000AA800003CE
(1739001817.323) RX 1DB#FFE0C06A000003D5
(1739001817.323) RX 1DC#B40F8FFD08C0CB1B
(1739001817.328) RX 1C2#57
(1739001817.328) RX 1DA#C1641800000102A0
(1739001817.331) RX 1D4#F7070000474600BC
(1739001817.331) RX 1F2#10640000001E010D
(1739001817.332) RX 11A#014000AAC0000003
(1739001817.333) RX 1DB#FFE0C06A000000DF
(1739001817.333) RX 1DC#B40F8FFD0CCCD8E4
(1739001817.338) RX 1C2#58
(1739001817.338) RX 1DA#C164180000010325
(1739001817.341) RX 1D4#F707000087460070
(1739001817.341) RX 1F2#10640000001E020E
(1739001817.342) RX 284#000000000000EF75
(1739001817.342) RX 380#02041021000000B0
(1739001817.342) RX 50B#000006C00060
(1739001817.342) RX 5BF#0000000028000009
(1739001817.343) RX 11A#0140005500000115
(1739001817.343) RX 1DB#FFE0C06A0000015A
(1739001817.343) RX 1DC#B40F8FFD0130C9CE
(1739001817.344) RX 55B#C980AA00E5401249
(1739001817.344) RX 5BC#5A032C26B3052092
(1739001817.348) RX 1C2#59
(1739001817.348) RX 1DA#C16418000001002F
(1739001817.351) RX 1D4#F7070000C74600B7
(1739001817.352) RX 1F2#10640000001E030F
(1739001817.353) RX 11A#01400055400002D8
(1739001817.353) RX 1DB#FFE0C06A00000250
(1739001817.353) RX 1DC#B40F8FFD0520C64C
(1739001817.358) RX 1DA#C1641800000101AA
(1739001817.358) RX 1C2#5A
(1739001817.362) RX 1D4#F70700000746007B
(1739001817.362) RX 1F2#10640000001E000C
(1739001817.362) RX 284#000000000000F076
(1739001817.363) RX 11A#014000AA800003CE
(1739001817.363) RX 1DB#FFE0C06A000003D5
(1739001817.363) RX 1DC#B40F8FFD08C0CB1B
(1739001817.368) RX 1DA#C1641800000102A0
(1739001817.368) RX 1C2#5B
(1739001817.372) RX 1D4#F7070000474600BC
(1739001817.372) RX 11A#014000AAC0000003
(1739001817.372) RX 1F2#10640000001E010D
(1739001817.373) RX 1DB#FFE0C06A000000DF
(1739001817.373) RX 1DC#B40F8FFD0CCCD8E4
(1739001817.378) RX 1DA#C164180000010325
(1739001817.378) RX 1C2#5C
(1739001817.382) RX 1D4#F707000087460070
(1739001817.382) RX 1F2#10640000001E020E
(1739001817.383) RX 284#000000000000F177
(1739001817.383) RX 11A#0140005500000115
(1739001817.383) RX 1DB#FFE0C06A0000015A
(1739001817.383) RX 1DC#B40F8FFD0130C9CE
(1739001817.388) RX 1DA#C16418000001002F
(1739001817.388) RX 1C2#5D
(1739001817.388) RX 55A#003331005F365B08
(1739001817.392) RX 1D4#F7070000C74600B7
(1739001817.393) RX 11A#01400055400002D8
(1739001817.393) RX 1F2#10640000001E030F
(1739001817.393) RX 1DB#FFE0C06A00000250
(1739001817.393) RX 54A#9E0070030000002D
(1739001817.394) RX 1DC#B40F8FFD0520C64C
(1739001817.394) RX 54B#0108801204000001
(1739001817.395) RX 54C#6866000000005B00
(1739001817.396) RX 54F#2301000007C08A55
(1739001817.398) RX 1DA#C1641800000101AA
(1739001817.398) RX 1C2#5E
(1739001817.403) RX 1D4#F70700000746007B
(1739001817.403) RX 11A#014000AA800003CE
(1739001817.403) RX 1DB#FFE0C06A000003D5
(1739001817.403) RX 1F2#10640000001E000C
(1739001817.404) RX 1DC#B40F8FFD08C0CB1B
(1739001817.404) RX 284#000000000000F278
(1739001817.404) RX 50C#000000005DC8
(1739001817.408) RX 1DA#C1641800000102A0
(1739001817.408) RX 1C2#5F
(1739001817.412) RX 11A#014000AAC0000003
(1739001817.413) RX 1D4#F7070000474600BC
(1739001817.413) RX 1DB#FFE0C06A000000DF
(1739001817.413) RX 1F2#10640000001E010D
(1739001817.413) RX 1DC#B40F8FFD0CCCD8E4
(1739001817.418) RX 1DA#C164180000010325
(1739001817.418) RX 1C2#50
(1739001817.423) RX 11A#0140005500000115
(1739001817.423) RX 1D4#F707000087460070
(1739001817.423) RX 1DB#FFE0C06A0000015A
(1739001817.424) RX 1F2#10640000001E020E
(1739001817.424) RX 1DC#B40F8FFD0130C9CE
(1739001817.424) RX 284#000000000000F379
(1739001817.424) RX 50A#8512A00E8020
(1739001817.428) RX 1DA#C16418000001002F
(1739001817.428) RX 1C2#51
(1739001817.432) RX 11A#01400055400002D8
(1739001817.433) RX 1DB#FFE0C06A00000250
(1739001817.433) RX 1D4#F7070000C74600B7
(1739001817.434) RX 1F2#10640000001E030F
(1739001817.434) RX 1DC#B40F8FFD0520C64C
(1739001817.434) RX 284#000000000000F47A
(1739001817.438) RX 1DA#C1641800000101AA
(1739001817.438) RX 1C2#52
(1739001817.441) RX 380#020410210000008D
(1739001817.442) RX 5BF#000000002800001A
(1739001817.443) RX 11A#014000AA800003CE
(1739001817.443) RX 1DB#FFE0C06A000003D5
(1739001817.444) RX 1D4#F70700000746007B
(1739001817.444) RX 1DC#B40F8FFD08C0CB1B
(1739001817.444) RX 1F2#10640000001E000C
(1739001817.444) RX 50B#000006C00060
(1739001817.444) RX 55B#C9805500E540138B
(1739001817.445) RX 5BC#5A032C26B3052092
(1739001817.448) RX 1DA#C1641800000102A0
(1739001817.448) RX 1C2#53
(1739001817.452) RX 11A#014000AAC0000003
 2C26B3052092
(1739001817.348) RX 1C2#59
(1739001817.348) RX 1DA#C16418000001002F
(1739001817.432) RX 11A#01400055400002D8
(1739001817.433) RX 1DB#FFE0C06A00000250
(1739001817.433) RX 1D4#F7070000C74600B7
(1739001817.434) RX 1F2#10640000001E030F
(1739001817.434) RX 1DC#B40F8FFD0520C64C
(1739001817.434) RX 284#000000000000F47A
(1739001817.438) RX 1DA#C1641800000101AA
(1739001817.438) RX 1C2#52
(1739001817.441) RX 380#020410210000008D
(1739001817.442) RX 5BF#000000002800001A
(1739001817.463) RX 11A#0140005500000115
(1739001817.463) RX 1DB#FFE0C06A0000015A
(1739001817.464) RX 1DC#B40F8FFD0130C9CE
(1739001817.464) RX 1D4#F707000087460070
(1739001817.464) RX 1F2#10640000001E020E
(1739001817.468) RX 1DA#C16418000001002F
(1739001817.468) RX 1C2#55
(1739001817.472) RX 11A#01400055400002D8
(1739001817.473) RX 1DB#FFE0C06A00000250
(1739001817.474) RX 1DC#B40F8FFD0520C64C
(1739001817.474) RX 1D4#F7070000C74600B7
(1739001817.474) RX 1F2#10640000001E030F
(1739001817.475) RX 284#000000000000F67C
(1739001817.478) RX 1DA#C1641800000101AA
(1739001817.478) RX 1C2#56
(1739001817.483) RX 11A#014000AA800003CE
(1739001817.483) RX 1DB#FFE0C06A000003D5
(1739001817.484) RX 1DC#B40F8FFD08C0CB1B
(1739001817.484) RX 1D4#F70700000746007B
(1739001817.485) RX 1F2#10640000001E000C
(1739001817.488) RX 1DA#C1641800000102A0
(1739001817.488) RX 55A#003331005F365B08
(1739001817.488) RX 1C2#57
(1739001817.492) RX 11A#014000AAC0000003
(1739001817.493) RX 1DB#FFE0C06A000000DF
(1739001817.493) RX 54A#100070030000002D
(1739001817.494) RX 1DC#B40F8FFD0CCCD8E4
(1739001817.494) RX 54B#0108801204000001
(1739001817.495) RX 1D4#F7070000474600BC
(1739001817.495) RX 1F2#10640000001E010D
(1739001817.495) RX 284#000000000000F77D
(1739001817.496) RX 54C#6866000000005B00
(1739001817.496) RX 54F#2301000007008A55
(1739001817.498) RX 1DA#C164180000010325
(1739001817.498) RX 1C2#58
(1739001817.503) RX 11A#0140005500000115
(1739001817.503) RX 1DB#FFE0C06A0000015A
(1739001817.504) RX 1DC#B40F8FFD0130C9CE
(1739001817.505) RX 1D4#F707000087460070
(1739001817.505) RX 1F2#10640000001E020E
(1739001817.506) RX 50C#00000001B231
(1739001817.508) RX 1DA#C16418000001002F
(1739001817.508) RX 1C2#59
(1739001817.512) RX 11A#01400055400002D8
(1739001817.513) RX 1DB#FFE0C06A00000250
(1739001817.514) RX 1DC#B40F8FFD0520C64C
(1739001817.515) RX 1D4#F7070000C74600B7
(1739001817.515) RX 1F2#10640000001E030F
(1739001817.516) RX 284#000000000000F87E
(1739001817.518) RX 1DA#C1641800000101AA
(1739001817.518) RX 1C2#5A
(1739001817.523) RX 11A#014000AA800003CE
(1739001817.523) RX 1DB#FFE0C06A000003D5
(1739001817.524) RX 1DC#B40F8FFD08C0CB1B
(1739001817.525) RX 1D4#F70700000746007B
(1739001817.526) RX 1F2#10640000001E000C
(1739001817.526) RX 50A#8532A00E8020
(1739001817.528) RX 1DA#C1641800000102A0
(1739001817.528) RX 1C2#5B
(1739001817.532) RX 11A#014000AAC0000003
(1739001817.533) RX 1DB#FFE0C06A000000DF
(1739001817.534) RX 1DC#B40F8FFD0CCCD8E4
(1739001817.536) RX 1D4#F7070000474600BC
(1739001817.536) RX 1F2#10640000001E010D
(1739001817.536) RX 284#000000000000F97F
(1739001817.538) RX 1DA#C164180000010325
(1739001817.538) RX 1C2#5C
(1739001817.542) RX 380#020410210000009E
(1739001817.542) RX 5BF#000000002800002B
(1739001817.543) RX 11A#0140005500000115
(1739001817.544) RX 1DB#FFE0C06A0000015A
(1739001817.544) RX 1DC#B40F8FFD0130C9CE
(1739001817.544) RX 55B#C980AA00E54010C6
(1739001817.545) RX 5BC#5A032C26B3052092
(1739001817.546) RX 1D4#F707000087460070
(1739001817.546) RX 1F2#10640000001E020E
(1739001817.546) RX 50B#000006C00060
(1739001817.548) RX 1DA#C16418000001002F
(1739001817.548) RX 1C2#5D
(1739001817.552) RX 11A#01400055400002D8
(1739001817.553) RX 1DB#FFE0C06A00000250
(1739001817.554) RX 1DC#B40F8FFD0520C64C
(1739001817.554) RX 5C0#804C4C0004A01400
(1739001817.555) RX 5EB#E00FFFFFFFFFFFFF
(1739001817.556) RX 1D4#F7070000C74600B7
(1739001817.556) RX 1F2#10640000001E030F
(1739001817.557) RX 284#000000000000FA80
(1739001817.558) RX 1DA#C1641800000101AA
(1739001817.558) RX 1C2#5E
(1739001817.563) RX 11A#014000AA800003CE
(1739001817.564) RX 1DB#FFE0C06A000003D5
(1739001817.564) RX 1DC#B40F8FFD08C0CB1B
(1739001817.566) RX 1D4#F70700000746007B
(1739001817.567) RX 1F2#10640000001E000C
(1739001817.568) RX 1DA#C1641800000102A0
(1739001817.568) RX 1C2#5F
(1739001817.572) RX 11A#014000AAC0000003
(1739001817.573) RX 1DB#FFE0C06A000000DF
(1739001817.574) RX 1DC#B40F8FFD0CCCD8E4
(1739001817.577) RX 1D4#F7070000474600BC
(1739001817.577) RX 1F2#10640000001E010D
(1739001817.577) RX 284#000000000000FB81
(1739001817.578) RX 1DA#C164180000010325
(1739001817.578) RX 1C2#50
(1739001817.583) RX 11A#0140005500000115
(1739001817.584) RX 1DB#FFE0C06A0000015A
(1739001817.584) RX 1DC#B40F8FFD0130C9CE
(1739001817.587) RX 1D4#F707000087460070
(1739001817.587) RX 1F2#10640000001E020E
(1739001817.588) RX 1DA#C16418000001002F
(1739001817.588) RX 55A#003330005F365B08
(1739001817.588) RX 1C2#51
(1739001817.593) RX 11A#01400055400002D8
(1739001817.593) RX 54A#9E0070030000002D
(1739001817.594) RX 1DB#FFE0C06A00000250
(1739001817.594) RX 1DC#B40F8FFD0520C64C
(1739001817.594) RX 54B#0108801204000001
(1739001817.595) RX 54C#6866000000005B00
(1739001817.596) RX 54F#2301000007408A55
(1739001817.597) RX 1D4#F7070000C74600B7
(1739001817.598) RX 1F2#10640000001E030F
(1739001817.598) RX 284#000000000000FC82
(1739001817.598) RX 1DA#C1641800000101AA
(1739001817.598) RX 1C2#52
(1739001817.603) RX 11A#014000AA800003CE
(1739001817.604) RX 1DB#FFE0C06A000003D5
(1739001817.604) RX 1DC#B40F8FFD08C0CB1B
(1739001817.607) RX 1D4#F70700000746007B
(1739001817.608) RX 1F2#10640000001E000C
(1739001817.608) RX 1DA#C1641800000102A0
(1739001817.608) RX 50C#000000025D63
(1739001817.608) RX 1C2#53
(1739001817.612) RX 11A#014000AAC0000003
(1739001817.614) RX 1DB#FFE0C06A000000DF
(1739001817.614) RX 1DC#B40F8FFD0CCCD8E4
(1739001817.618) RX 1D4#F7070000474600BC
(1739001817.618) RX 1DA#C164180000010325
(1739001817.618) RX 1F2#10640000001E010D
(1739001817.618) RX 284#000000000000FD83
(1739001817.619) RX 5A9#9A44C01304300000
(1739001817.619) RX 1C2#54
(1739001817.623) RX 11A#0140005500000115
(1739001817.624) RX 1DB#FFE0C06A0000015A
(1739001817.624) RX 1DC#B40F8FFD0130C9CE
(1739001817.628) RX 1DA#C16418000001002F
(1739001817.628) RX 1D4#F707000087460070
(1739001817.628) RX 1F2#10640000001E020E
(1739001817.628) RX 1C2#55
(1739001817.629) RX 50A#8552A00E8020
(1739001817.633) RX 11A#01400055400002D8
(1739001817.634) RX 1DB#FFE0C06A00000250
(1739001817.634) RX 1DC#B40F8FFD0520C64C
(1739001817.638) RX 1DA#C1641800000101AA
(1739001817.638) RX 1D4#F7070000C74600B7
(1739001817.638) RX 1F2#10640000001E030F
(1739001817.639) RX 1C2#56
(1739001817.639) RX 284#000000000000FE84
(1739001817.642) RX 380#02041021000000AF
(1739001817.642) RX 5BF#000000002800003C
(1739001817.643) RX 11A#014000AA800003CE
(1739001817.644) RX 1DB#FFE0C06A000003D5
(1739001817.644) RX 1DC#B40F8FFD08C0CB1B
(1739001817.644) RX 55B#C9805500E5401104
(1739001817.645) RX 5BC#5A032026B2054074
(1739001817.648) RX 1DA#C1641800000102A0
(1739001817.648) RX 1D4#F70700000746007B
(1739001817.649) RX 1C2#57
(1739001817.649) RX 1F2#10640000001E000C
(1739001817.649) RX 50B#000006C00060
(1739001817.652) RX 11A#014000AAC0000003
(1739001817.654) RX 1DB#FFE0C06A000000DF
(1739001817.654) RX 1DC#B40F8FFD0CCCD8E4
(1739001817.658) RX 1DA#C164180000010325
(1739001817.658) RX 1C2#58
(1739001817.659) RX 1D4#F7070000474600BC
(1739001817.659) RX 1F2#10640000001E010D
(1739001817.659) RX 284#000000000000FF85
(1739001817.663) RX 11A#0140005500000115
(1739001817.664) RX 1DB#FFE0C06A0000015A
(1739001817.664) RX 1DC#B40F8FFD0130C9CE
(1739001817.668) RX 1DA#C16418000001002F
(1739001817.668) RX 1C2#59
(1739001817.669) RX 1D4#F707000087460070
(1739001817.669) RX 1F2#10640000001E020E
(1739001817.672) RX 11A#01400055400002D8
(1739001817.674) RX 1DB#FFE0C06A00000250
(1739001817.674) RX 1DC#B40F8FFD0520C64C
(1739001817.678) RX 1DA#C1641800000101AA
(1739001817.679) RX 1C2#5A
(1739001817.679) RX 1D4#F7070000C74600B7
(1739001817.679) RX 1F2#10640000001E030F
(1739001817.680) RX 284#0000000000000086
(1739001817.683) RX 11A#014000AA800003CE
(1739001817.684) RX 1DB#FFE0C06A000003D5
(1739001817.684) RX 1DC#B40F8FFD08C0CB1B
(1739001817.688) RX 1DA#C1641800000102A0
(1739001817.688) RX 55A#003330005F365B08
(1739001817.689) RX 1C2#5B
(1739001817.689) RX 1D4#F70700000746007B
(1739001817.690) RX 1F2#10640000001E000C
(1739001817.690) RX 5B9#67FF67FF28
(1739001817.692) RX 11A#014000AAC0000003
(1739001817.693) RX 54A#100070030000002D
(1739001817.694) RX 1DB#FFE0C06A000000DF
(1739001817.694) RX 1DC#B40F8FFD0CCCD8E4
(1739001817.694) RX 54B#0108801204000001
(1739001817.695) RX 54C#6866000000005B00
(1739001817.696) RX 54F#2301000007808A55
(1739001817.698) RX 1DA#C164180000010325
(1739001817.699) RX 1C2#5C
(1739001817.700) RX 1D4#F7070000474600BC
(1739001817.700) RX 1F2#10640000001E010D
(1739001817.700) RX 284#0000000000000187
(1739001817.703) RX 11A#0140005500000115
(1739001817.704) RX 1DB#FFE0C06A0000015A
(1739001817.704) RX 1DC#B40F8FFD0130C9CE
(1739001817.708) RX 1DA#C16418000001002F
(1739001817.709) RX 1C2#5D
(1739001817.710) RX 1D4#F707000087460070
(1739001817.710) RX 1F2#10640000001E020E
(1739001817.710) RX 50C#00000003B29A
(1739001817.713) RX 11A#01400055400002D8
(1739001817.714) RX 1DB#FFE0C06A00000250
(1739001817.714) RX 1DC#B40F8FFD0520C64C
(1739001817.718) RX 1DA#C1641800000101AA
(1739001817.719) RX 1C2#5E
(1739001817.720) RX 1D4#F7070000C74600B7
(1739001817.720) RX 1F2#10640000001E030F
(1739001817.721) RX 284#0000000000000288
(1739001817.723) RX 11A#014000AA800003CE
(1739001817.724) RX 1DB#FFE0C06A000003D5
(1739001817.724) RX 1DC#B40F8FFD08C0CB1B
(1739001817.728) RX 1DA#C1641800000102A0
(1739001817.729) RX 1C2#5F
(1739001817.730) RX 1D4#F70700000746007B
(1739001817.731) RX 1F2#10640000001E000C
(1739001817.731) RX 50A#8572A00E8020
(1739001817.732) RX 11A#014000AAC0000003
(1739001817.734) RX 1DB#FFE0C06A000000DF
(1739001817.734) RX 1DC#B40F8FFD0CCCD8E4
(1739001817.738) RX 1DA#C164180000010325
(1739001817.739) RX 1C2#50
(1739001817.741) RX 1D4#F7070000474600BC
(1739001817.741) RX 1F2#10640000001E010D
(1739001817.741) RX 284#0000000000000389
(1739001817.742) RX 380#02041021000000B0
(1739001817.742) RX 5BF#0000000028000009
(1739001817.743) RX 11A#0140005500000115
(1739001817.744) RX 1DB#FFE0C06A0000015A
(1739001817.744) RX 1DC#B40F8FFD0130C9CE
(1739001817.745) RX 55B#C980AA00E5401249
(1739001817.745) RX 5BC#5A032026B2054074
(1739001817.748) RX 1DA#C16418000001002F
(1739001817.749) RX 1C2#51
(1739001817.751) RX 1D4#F707000087460070
(1739001817.751) RX 1F2#10640000001E020E
(1739001817.751) RX 50B#000006C00060
(1739001817.753) RX 11A#01400055400002D8
(1739001817.754) RX 1DB#FFE0C06A00000250
(1739001817.754) RX 1DC#B40F8FFD0520C64C
(1739001817.758) RX 1DA#C1641800000101AA
(1739001817.759) RX 1C2#52
(1739001817.761) RX 1D4#F7070000C74600B7
(1739001817.761) RX 1F2#10640000001E030F
(1739001817.762) RX 284#000000000000048A
(1739001817.763) RX 11A#014000AA800003CE
(1739001817.764) RX 1DB#FFE0C06A000003D5
(1739001817.764) RX 1DC#B40F8FFD08C0CB1B
(1739001817.768) RX 1DA#C1641800000102A0
(1739001817.769) RX 1C2#53
(1739001817.771) RX 1D4#F70700000746007B
(1739001817.772) RX 1F2#10640000001E000C
(1739001817.772) RX 11A#014000AAC0000003
(1739001817.774) RX 1DB#FFE0C06A000000DF
(1739001817.774) RX 1DC#B40F8FFD0CCCD8E4
(1739001817.778) RX 1DA#C164180000010325
(1739001817.779) RX 1C2#54
(1739001817.782) RX 1D4#F7070000474600BC
(1739001817.782) RX 1F2#10640000001E010D
(1739001817.782) RX 284#000000000000058B
(1739001817.783) RX 11A#0140005500000115
(1739001817.784) RX 1DB#FFE0C06A0000015A
(1739001817.784) RX 1DC#B40F8FFD0130C9CE
(1739001817.788) RX 1DA#C16418000001002F
(1739001817.788) RX 55A#003331005F365B08
(1739001817.789) RX 1C2#55
(1739001817.792) RX 1D4#F707000087460070
(1739001817.792) RX 1F2#10640000001E020E
(1739001817.793) RX 11A#01400055400002D8
(1739001817.794) RX 54A#9E0070030000002D
(1739001817.794) RX 1DB#FFE0C06A00000250
(1739001817.794) RX 1DC#B40F8FFD0520C64C
(1739001817.795) RX 54B#0108801204000001
(1739001817.795) RX 54C#6866000000005B00
(1739001817.797) RX 54F#2301000007C08A55
(1739001817.798) RX 1DA#C1641800000101AA
(1739001817.799) RX 1C2#56
(1739001817.802) RX 1D4#F7070000C74600B7
(1739001817.802) RX 1F2#10640000001E030F
(1739001817.803) RX 284#000000000000068C
(1739001817.803) RX 11A#014000AA800003CE
(1739001817.804) RX 1DB#FFE0C06A000003D5
(1739001817.804) RX 1DC#B40F8FFD08C0CB1B
(1739001817.808) RX 1DA#C1641800000102A0
(1739001817.809) RX 1C2#57
(1739001817.812) RX 11A#014000AAC0000003
(1739001817.812) RX 1D4#F70700000746007B
(1739001817.813) RX 1F2#10640000001E000C
(1739001817.813) RX 50C#000000005DC8
(1739001817.814) RX 1DB#FFE0C06A000000DF
(1739001817.814) RX 1DC#B40F8FFD0CCCD8E4
(1739001817.818) RX 1DA#C164180000010325
(1739001817.819) RX 1C2#58
(1739001817.823) RX 1D4#F7070000474600BC
(1739001817.823) RX 11A#0140005500000115
(1739001817.823) RX 1F2#10640000001E010D
(1739001817.804) RX 1DB#FFE0C06A000003D5
(1739001817.804) RX 1DC#B40F8FFD08C0CB1B
(1739001817.808) RX 1DA#C1641800000102A0
(1739001817.809) RX 1C2#57
(1739001817.812) RX 11A#014000AAC0000003
(1739001817.812) RX 1D4#F70700000746007B
(1739001817.813) RX 1F2#10640000001E000C
(1739001817.823) RX 284#000000000000078D
(1739001817.824) RX 1DB#FFE0C06A0000015A
(1739001817.825) RX 1DC#B40F8FFD0130C9CE
(1739001817.828) RX 1DA#C16418000001002F
(1739001817.829) RX 1C2#59
(1739001817.833) RX 11A#01400055400002D8
(1739001817.833) RX 1D4#F707000087460070
(1739001817.833) RX 1F2#10640000001E020E
(1739001817.833) RX 50A#8512A00E8020
(1739001817.834) RX 1DB#FFE0C06A00000250
(1739001817.835) RX 1DC#B40F8FFD0520C64C
(1739001817.838) RX 1DA#C1641800000101AA
(1739001817.839) RX 1C2#5A
(1739001817.842) RX 380#020410210000008D
(1739001817.842) RX 5BF#000000002800001A
(1739001817.843) RX 11A#014000AA800003CE
(1739001817.843) RX 1D4#F7070000C74600B7
(1739001817.843) RX 1F2#10640000001E030F
(1739001817.844) RX 284#000000000000088E
(1739001817.845) RX 1DB#FFE0C06A000003D5
(1739001817.845) RX 1DC#B40F8FFD08C0CB1B
(1739001817.845) RX 55B#C9805500E540138B
(1739001817.845) RX 5BC#5A032026B2054074
(1739001817.848) RX 1DA#C1641800000102A0
(1739001817.849) RX 1C2#5B
(1739001817.852) RX 11A#014000AAC0000003
(1739001817.853) RX 1D4#F70700000746007B
(1739001817.854) RX 1F2#10640000001E000C
(1739001817.854) RX 284#000000000000098F
(1739001817.833) RX 1F2#10640000001E020E
(1739001817.833) RX 50A#8512A00E8020
(1739001817.834) RX 1DB#FFE0C06A00000250
(1739001817.835) RX 1DC#B40F8FFD0520C64C
(1739001817.838) RX 1DA#C1641800000101AA
(1739001817.839) RX 1C2#5A
(1739001817.842) RX 380#020410210000008D
(1739001817.842) RX 5BF#000000002800001A
(1739001817.843) RX 11A#014000AA800003CE
(1739001817.843) RX 1D4#F7070000C74600B7
(173(1739001817.854) RX 50B#000006C00060
(1739001817.854) RX 1DB#FFE0C06A000000DF
(1739001817.855) RX 1DC#B40F8FFD0CCCD8E4
(1739001817.858) RX 1DA#C164180000010325
(1739001817.859) RX 1C2#5C
(1739001817.863) RX 11A#0140005500000115
(1739001817.864) RX 1D4#F7070000474600BC
(1739001817.864) RX 1F2#10640000001E010D
(1739001817.864) RX 1DB#FFE0C06A0000015A
(1739001817.865) RX 1DC#B40F8FFD0130C9CE
(1739001817.868) RX 1DA#C16418000001002F
(1739001817.869) RX 1C2#5D
(1739001817.872) RX 11A#01400055400002D8
(1739001817.874) RX 1D4#F707000087460070
(1739001817.874) RX 1F2#10640000001E020E
(1739001817.874) RX 284#0000000000000A90
(1739001817.874) RX 1DB#FFE0C06A00000250
(1739001817.875) RX 1DC#B40F8FFD0520C64C
(1739001817.878) RX 1DA#C1641800000101AA
(1739001817.879) RX 1C2#5E
(1739001817.883) RX 11A#014000AA800003CE
(1739001817.884) RX 1D4#F7070000C74600B7
(1739001817.884) RX 1F2#10640000001E030F
(1739001817.884) RX 1DB#FFE0C06A000003D5
(1739001817.885) RX 1DC#B40F8FFD08C0CB1B
(1739001817.888) RX 1DA#C1641800000102A0
(1739001817.888) RX 55A#003331005F365B08
(1739001817.889) RX 1C2#5F
(1739001817.892) RX 11A#014000AAC0000003
(1739001817.894) RX 54A#100070030000002D
(1739001817.894) RX 1D4#F70700000746007B
(1739001817.894) RX 1F2#10640000001E000C
(1739001817.895) RX 1DB#FFE0C06A000000DF
(1739001817.895) RX 284#0000000000000B91
(1739001817.895) RX 1DC#B40F8FFD0CCCD8E4
(1739001817.895) RX 54B#0108801204000001
(1739001817.897) RX 54C#6866000000005B00
(1739001817.898) RX 54F#2301000007008A55
(1739001817.898) RX 1DA#C164180000010325
(1739001817.899) RX 1C2#50
(1739001817.903) RX 11A#0140005500000115
(1739001817.904) RX 1DB#FFE0C06A0000015A
(1739001817.905) RX 1D4#F7070000474600BC
(1739001817.905) RX 1DC#B40F8FFD0130C9CE
(1739001817.905) RX 1F2#10640000001E010D
(1739001817.908) RX 1DA#C16418000001002F
(1739001817.909) RX 1C2#51
(1739001817.912) RX 11A#01400055400002D8
(1739001817.914) RX 1DB#FFE0C06A00000250
(1739001817.915) RX 1DC#B40F8FFD0520C64C
(1739001817.915) RX 1D4#F707000087460070
(1739001817.915) RX 1F2#10640000001E020E
(1739001817.915) RX 284#0000000000000C92
(1739001817.916) RX 50C#00000001B231
(1739001817.918) RX 1DA#C1641800000101AA
(1739001817.919) RX 1C2#52
(1739001817.923) RX 11A#014000AA800003CE
(1739001817.925) RX 1DB#FFE0C06A000003D5
(1739001817.925) RX 1DC#B40F8FFD08C0CB1B
(1739001817.925) RX 1D4#F7070000C74600B7
(1739001817.925) RX 1F2#10640000001E030F
(1739001817.928) RX 1DA#C1641800000102A0
(1739001817.929) RX 1C2#53
(1739001817.932) RX 11A#014000AAC0000003
(1739001817.934) RX 1DB#FFE0C06A000000DF
(1739001817.935) RX 1DC#B40F8FFD0CCCD8E4
(1739001817.935) RX 1D4#F70700000746007B
(1739001817.935) RX 1F2#10640000001E000C
(1739001817.936) RX 284#0000000000000D93
(1739001817.936) RX 50A#8532A00E8020
(1739001817.938) RX 1DA#C164180000010325
(1739001817.939) RX 1C2#54
(1739001817.942) RX 380#020410210000009E
(1739001817.942) RX 5BF#000000002800002B
(1739001817.943) RX 11A#0140005500000115
(1739001817.945) RX 1DB#FFE0C06A0000015A
(1739001817.945) RX 1DC#B40F8FFD0130C9CE
(1739001817.945) RX 55B#C980AA00E54010C6
(1739001817.945) RX 1D4#F7070000474600BC
(1739001817.946) RX 1F2#10640000001E010D
(1739001817.946) RX 5BC#5A032026B2054074
(1739001817.948) RX 1DA#C16418000001002F
(1739001817.949) RX 1C2#55
(1739001817.952) RX 11A#01400055400002D8
(1739001817.955) RX 1DB#FFE0C06A00000250
(1739001817.955) RX 1DC#B40F8FFD0520C64C
(1739001817.956) RX 1D4#F707000087460070
(1739001817.956) RX 1F2#10640000001E020E
(1739001817.956) RX 284#0000000000000E94
(1739001817.956) RX 50B#000006C00060
(1739001817.958) RX 1DA#C1641800000101AA
(1739001817.959) RX 1C2#56
(1739001817.963) RX 11A#014000AA800003CE
(1739001817.965) RX 1DB#FFE0C06A000003D5
(1739001817.965) RX 1DC#B40F8FFD08C0CB1B
(1739001817.966) RX 1D4#F7070000C74600B7
(1739001817.966) RX 1F2#10640000001E030F
(1739001817.968) RX 1DA#C1641800000102A0
(1739001817.969) RX 1C2#57
(1739001817.972) RX 11A#014000AAC0000003
(1739001817.975) RX 1DB#FFE0C06A000000DF
(1739001817.975) RX 1DC#B40F8FFD0CCCD8E4
(1739001817.976) RX 1D4#F70700000746007B
(1739001817.976) RX 1F2#10640000001E000C
(1739001817.977) RX 284#0000000000000F95
(1739001817.978) RX 1DA#C164180000010325
(1739001817.979) RX 1C2#58
(1739001817.983) RX 11A#0140005500000115
(1739001817.985) RX 1DB#FFE0C06A0000015A
(1739001817.985) RX 1DC#B40F8FFD0130C9CE
(1739001817.986) RX 1D4#F7070000474600BC
(1739001817.987) RX 1F2#10640000001E010D
(1739001817.988) RX 1DA#C16418000001002F
(1739001817.988) RX 55A#003330005F365B08
(1739001817.989) RX 1C2#59
(1739001817.993) RX 11A#01400055400002D8
(1739001817.994) RX 54A#9E0070030000002D
(1739001817.995) RX 1DB#FFE0C06A00000250
(1739001817.995) RX 54B#0108801204000001
(1739001817.995) RX 1DC#B40F8FFD0520C64C
(1739001817.996) RX 54C#6866000000005B00
(1739001817.997) RX 54F#2301000007408A55
(1739001817.997) RX 1D4#F707000087460070
(1739001817.997) RX 1F2#10640000001E020E
(1739001817.997) RX 284#0000000000001096
(1739001817.998) RX 1DA#C1641800000101AA
(1739001817.999) RX 1C2#5A
(1739001818.003) RX 11A#014000AA800003CE
(1739001818.005) RX 1DB#FFE0C06A000003D5
(1739001818.005) RX 1DC#B40F8FFD08C0CB1B
(1739001818.007) RX 1D4#F7070000C74600B7
(1739001818.007) RX 1F2#10640000001E030F
(1739001818.008) RX 1DA#C1641800000102A0
(1739001818.009) RX 1C2#5B
(1739001818.012) RX 11A#014000AAC0000003
(1739001818.015) RX 1DB#FFE0C06A000000DF
(1739001818.015) RX 1DC#B40F8FFD0CCCD8E4
(1739001818.017) RX 1D4#F70700000746007B
(1739001818.017) RX 1F2#10640000001E000C
(1739001818.018) RX 284#0000000000001197
(1739001818.018) RX 1DA#C164180000010325
(1739001818.018) RX 50C#000000025D63
(1739001818.019) RX 1C2#5C
(1739001818.023) RX 11A#0140005500000115
(1739001818.025) RX 1DB#FFE0C06A0000015A
(1739001818.025) RX 1DC#B40F8FFD0130C9CE
(1739001818.027) RX 1D4#F7070000474600BC
(1739001818.028) RX 1F2#10640000001E010D
(1739001818.028) RX 1DA#C16418000001002F
(1739001818.029) RX 1C2#5D
(1739001818.032) RX 11A#01400055400002D8
(1739001818.035) RX 1DB#FFE0C06A00000250
(1739001818.035) RX 1DC#B40F8FFD0520C64C
(1739001818.038) RX 1D4#F707000087460070
(1739001818.038) RX 1DA#C1641800000101AA
(1739001818.038) RX 1F2#10640000001E020E
(1739001818.038) RX 284#0000000000001298
(1739001818.039) RX 50A#8552A00E8020
(1739001818.039) RX 1C2#5E
(1739001818.042) RX 380#02041021000000AF
(1739001818.042) RX 5BF#000000002800003C
(1739001818.043) RX 11A#014000AA800003CE
(1739001818.045) RX 1DB#FFE0C06A000003D5
(1739001818.045) RX 1DC#B40F8FFD08C0CB1B
(1739001818.046) RX 55B#C9805500E5401104
(1739001818.046) RX 5BC#5A032026B2054074
(1739001818.048) RX 1DA#C1641800000102A0
(1739001818.048) RX 1D4#F7070000C74600B7
(1739001818.048) RX 1F2#10640000001E030F
(1739001818.049) RX 1C2#5F
(1739001818.052) RX 11A#014000AAC0000003
(1739001818.055) RX 1DB#FFE0C06A000000DF
(1739001818.055) RX 1DC#B40F8FFD0CCCD8E4
(1739001818.056) RX 5C0#404C4C0004E41400
(1739001818.056) RX 5EB#E00FFFFFFFFFFFFF
(1739001818.058) RX 1DA#C164180000010325
(1739001818.058) RX 1D4#F70700000746007B
(1739001818.058) RX 1F2#10640000001E000C
(1739001818.059) RX 284#0000000000001399
(1739001818.059) RX 50B#000006C00060
(1739001818.060) RX 1C2#50
(1739001818.063) RX 11A#0140005500000115
(1739001818.065) RX 1DB#FFE0C06A0000015A
(1739001818.065) RX 1DC#B40F8FFD0130C9CE
(1739001818.068) RX 1DA#C16418000001002F
(1739001818.068) RX 1D4#F7070000474600BC
(1739001818.069) RX 1F2#10640000001E010D
(1739001818.069) RX 1C2#51
(1739001818.072) RX 11A#01400055400002D8
(1739001818.075) RX 1DB#FFE0C06A00000250
(1739001818.075) RX 1DC#B40F8FFD0520C64C
(1739001818.078) RX 1DA#C1641800000101AA
(1739001818.079) RX 1D4#F707000087460070
(1739001818.079) RX 1F2#10640000001E020E
(1739001818.079) RX 284#000000000000149A
(1739001818.080) RX 1C2#52
(1739001818.083) RX 11A#014000AA800003CE
(1739001818.085) RX 1DB#FFE0C06A000003D5
(1739001818.085) RX 1DC#B40F8FFD08C0CB1B
(1739001818.088) RX 1DA#C1641800000102A0
(1739001818.088) RX 55A#003330005F365B08
(1739001818.089) RX 1D4#F7070000C74600B7
(1739001818.089) RX 1F2#10640000001E030F
(1739001818.089) RX 1C2#53
(1739001818.092) RX 11A#014000AAC0000003
(1739001818.094) RX 54A#100070030000002D
(1739001818.095) RX 54B#0108801204000001
(1739001818.095) RX 1DB#FFE0C06A000000DF
(1739001818.095) RX 1DC#B40F8FFD0CCCD8E4
(1739001818.096) RX 54C#6866000000005B00
(1739001818.097) RX 54F#2301000007808A55
(1739001818.098) RX 1DA#C164180000010325
(1739001818.099) RX 1D4#F70700000746007B
(1739001818.099) RX 1F2#10640000001E000C
(1739001818.100) RX 1C2#54
(1739001818.100) RX 284#000000000000159B
(1739001818.103) RX 11A#0140005500000115
(1739001818.105) RX 1DB#FFE0C06A0000015A
(1739001818.105) RX 1DC#B40F8FFD0130C9CE
(1739001818.108) RX 1DA#C16418000001002F
(1739001818.109) RX 1D4#F7070000474600BC
(1739001818.110) RX 1F2#10640000001E010D
(1739001818.110) RX 1C2#55
(1739001818.112) RX 11A#01400055400002D8
(1739001818.115) RX 1DB#FFE0C06A00000250
(1739001818.115) RX 1DC#B40F8FFD0520C64C
(1739001818.118) RX 1DA#C1641800000101AA
(1739001818.120) RX 1D4#F707000087460070
(1739001818.120) RX 1C2#56
(1739001818.120) RX 1F2#10640000001E020E
(1739001818.120) RX 284#000000000000169C
(1739001818.120) RX 50C#00000003B29A
(1739001818.123) RX 11A#014000AA800003CE
(1739001818.125) RX 1DB#FFE0C06A000003D5
(1739001818.125) RX 1DC#B40F8FFD08C0CB1B
(1739001818.128) RX 1DA#C1641800000102A0
(1739001818.130) RX 1C2#57
(1739001818.130) RX 1D4#F7070000C74600B7
(1739001818.130) RX 1F2#10640000001E030F
(1739001818.130) RX 5A9#9A44C01304300000
(1739001818.132) RX 11A#014000AAC0000003
(1739001818.135) RX 1DB#FFE0C06A000000DF
(1739001818.135) RX 1DC#B40F8FFD0CCCD8E4
(1739001818.138) RX 1DA#C164180000010325
(1739001818.140) RX 1C2#58
(1739001818.140) RX 1D4#F70700000746007B
(1739001818.140) RX 1F2#10640000001E000C
(1739001818.141) RX 284#000000000000179D
(1739001818.141) RX 50A#8572A00E8020
(1739001818.142) RX 380#02041021000000B0
(1739001818.142) RX 5BF#0000000028000009
(1739001818.143) RX 11A#0140005500000115
(1739001818.145) RX 1DB#FFE0C06A0000015A
(1739001818.145) RX 1DC#B40F8FFD0130C9CE
(1739001818.146) RX 55B#C980AA00E5401249
(1739001818.146) RX 5BC#5A032C26B30620A0
(1739001818.148) RX 1DA#C16418000001002F
(1739001818.150) RX 1C2#59
(1739001818.150) RX 1D4#F7070000474600BC
(1739001818.151) RX 1F2#10640000001E010D
(1739001818.152) RX 11A#01400055400002D8
(1739001818.155) RX 1DB#FFE0C06A00000250
(1739001818.155) RX 1DC#B40F8FFD0520C64C
(1739001818.158) RX 1DA#C1641800000101AA
(1739001818.160) RX 1C2#5A
(1739001818.161) RX 1D4#F707000087460070
(1739001818.161) RX 1F2#10640000001E020E
(1739001818.161) RX 284#000000000000189E
(1739001818.161) RX 50B#000006C00060
(1739001818.163) RX 11A#014000AA800003CE
(1739001818.165) RX 1DB#FFE0C06A000003D5
(1739001818.165) RX 1DC#B40F8FFD08C0CB1B
(1739001818.168) RX 1DA#C1641800000102A0
(1739001818.170) RX 1C2#5B
(1739001818.171) RX 1D4#F7070000C74600B7
(1739001818.171) RX 1F2#10640000001E030F
(1739001818.172) RX 11A#014000AAC0000003
(1739001818.175) RX 1DB#FFE0C06A000000DF
(1739001818.175) RX 1DC#B40F8FFD0CCCD8E4
(1739001818.178) RX 1DA#C164180000010325
(1739001818.180) RX 1C2#5C
(1739001818.181) RX 1D4#F70700000746007B
(1739001818.181) RX 1F2#10640000001E000C
(1739001818.182) RX 284#000000000000199F
(1739001818.183) RX 11A#0140005500000115
(1739001818.185) RX 1DB#FFE0C06A0000015A
(1739001818.185) RX 1DC#B40F8FFD0130C9CE
(1739001818.188) RX 1DA#C16418000001002F
(1739001818.188) RX 55A#003330005F365B08
(1739001818.190) RX 1C2#5D
(1739001818.191) RX 1D4#F7070000474600BC
(1739001818.192) RX 1F2#10640000001E010D
(1739001818.192) RX 11A#01400055400002D8
(1739001818.194) RX 54A#9E0070030000002D
(1739001818.195) RX 54B#0108801204000001
(1739001818.195) RX 1DB#FFE0C06A00000250
(1739001818.195) RX 1DC#B40F8FFD0520C64C
(1739001818.196) RX 54C#6866000000005B00
(1739001818.197) RX 54F#2301000007C08A55
(1739001818.198) RX 1DA#C1641800000101AA
(1739001818.200) RX 1C2#5E
(1739001818.202) RX 1D4#F707000087460070
(1739001818.202) RX 1F2#10640000001E020E
(1739001818.202) RX 284#0000000000001AA0
(1739001818.202) RX 5B9#67FF67FF28
(1739001818.203) RX 11A#014000AA800003CE
(1739001818.205) RX 1DB#FFE0C06A000003D5
(1739001818.206) RX 1DC#B40F8FFD08C0CB1B
(1739001818.208) RX 1DA#C1641800000102A0
(1739001818.210) RX 1C2#5F
(1739001818.212) RX 1D4#F7070000C74600B7
(1739001818.212) RX 11A#014000AAC0000003
(1739001818.212) RX 1F2#10640000001E030F
(1739001818.215) RX 1DB#FFE0C06A000000DF
(1739001818.215) RX 1DC#B40F8FFD0CCCD8E4
(1739001818.218) RX 1DA#C164180000010325
(1739001818.220) RX 1C2#50
(1739001818.222) RX 1D4#F70700000746007B
(1739001818.222) RX 1F2#10640000001E000C
(1739001818.223) RX 284#0000000000001BA1
(1739001818.223) RX 11A#0140005500000115
(1739001818.223) RX 50C#000000005DC8
(1739001818.225) RX 1DB#FFE0C06A0000015A
(1739001818.226) RX 1DC#B40F8FFD0130C9CE
(1739001818.228) RX 1DA#C16418000001002F
(1739001818.230) RX 1C2#51
(1739001818.232) RX 1D4#F7070000474600BC
(1739001818.233) RX 1F2#10640000001E010D
(1739001818.233) RX 11A#01400055400002D8
(1739001818.235) RX 1DB#FFE0C06A00000250
(1739001818.236) RX 1DC#B40F8FFD0520C64C
(1739001818.238) RX 1DA#C1641800000101AA
(1739001818.240) RX 1C2#52
(1739001818.242) RX 380#020410210000008D
(1739001818.242) RX 5BF#000000002800001A
(1739001818.243) RX 11A#014000AA800003CE
(1739001818.243) RX 1D4#F707000087460070
(1739001818.243) RX 1F2#10640000001E020E
(1739001818.243) RX 284#0000000000001CA2
(1739001818.244) RX 50A#8512A00E8020
(1739001818.246) RX 1DB#FFE0C06A000003D5
(1739001818.246) RX 1DC#B40F8FFD08C0CB1B
(1739001818.246) RX 55B#C9805500E540138B
(1739001818.246) RX 5BC#5A032C26B30620A0
(1739001818.248) RX 1DA#C1641800000102A0
(1739001818.250) RX 1C2#53
(1739001818.252) RX 11A#014000AAC0000003
(1739001818.253) RX 1D4#F7070000C74600B7
(1739001818.253) RX 1F2#10640000001E030F
(1739001818.255) RX 1DB#FFC0C06A0000008E
(1739001818.256) RX 1DC#B40F8FFD0CCCD8E4
(1739001818.258) RX 1DA#C164180000010325
(1739001818.260) RX 1C2#54
(1739001818.263) RX 11A#0140005500000115
(1739001818.263) RX 1D4#F70700000746007B
(1739001818.263) RX 1F2#10640000001E000C
(1739001818.264) RX 284#0000000000001DA3
(1739001818.264) RX 50B#000006C00060
(1739001818.265) RX 1DB#FFC0C06A0000010B
(1739001818.266) RX 1DC#B40F8FFD0130C9CE
(1739001818.268) RX 1DA#C16418000001002F
(1739001818.270) RX 1C2#55
(1739001818.272) RX 11A#01400055400002D8
(1739001818.273) RX 1D4#F7070000474600BC
(1739001818.273) RX 1F2#10640000001E010D
(1739001818.274) RX 284#0000000000001EA4
(1739001818.275) RX 1DB#FFC0C06A00000201
(1739001818.276) RX 1DC#B40F8FFD0520C64C
(1739001818.278) RX 1DA#C1641800000101AA
(1739001818.280) RX 1C2#56
(1739001818.283) RX 11A#014000AA800003CE
(1739001818.283) RX 1D4#F707000087460070
(1739001818.284) RX 1F2#10640000001E020E
(1739001818.286) RX 1DB#FFC0C06A00000384
(1739001818.286) RX 1DC#B40F8FFD08C0CB1B
(1739001818.288) RX 1DA#C1641800000102A0
(1739001818.288) RX 55A#003331005F365B08
(1739001818.290) RX 1C2#57
(1739001818.292) RX 11A#014000AAC0000003
(1739001818.294) RX 1D4#F7070000C74600B7
(1739001818.294) RX 1F2#10640000001E030F
(1739001818.294) RX 284#0000000000001FA5
(1739001818.294) RX 54A#100070030000002D
(1739001818.296) RX 1DB#FFC0C06A0000008E
(1739001818.296) RX 1DC#B40F8FFD0CCCD8E4
(1739001818.296) RX 54B#0108801204000001
(1739001818.297) RX 54C#6866000000005B00
(1739001818.298) RX 1DA#C164180000010325
(1739001818.298) RX 54F#2301000007008A55
(1739001818.300) RX 1C2#58
(1739001818.303) RX 11A#0140005500000115
(1739001818.304) RX 1D4#F70700000746007B
(1739001818.304) RX 1F2#10640000001E000C
(1739001818.306) RX 1DB#FFC0C02A00000195
(1739001818.306) RX 1DC#B40F8FFD0130C9CE
(1739001818.308) RX 1DA#C16418000001002F
(1739001818.310) RX 1C2#59
(1739001818.312) RX 11A#01400055400002D8
(1739001818.314) RX 1D4#F7070000474600BC
(1739001818.314) RX 1F2#10640000001E010D
(1739001818.315) RX 284#00000000000020A6
(1739001818.316) RX 1DB#FFC0C02A0000029F
(1739001818.316) RX 1DC#B40F8FFD0520C64C
(1739001818.318) RX 1DA#C1641800000101AA
(1739001818.320) RX 1C2#5A
(1739001818.323) RX 11A#014000AA800003CE
(1739001818.324) RX 1D4#F707000087460070
(1739001818.325) RX 1F2#10640000001E020E
(1739001818.325) RX 50C#00000001B231
(1739001818.326) RX 1DB#FFC0C02A0000031A
(1739001818.326) RX 1DC#B40F8FFD08C0CB1B
(1739001818.328) RX 1DA#C1641800000102A0
(1739001818.330) RX 1C2#5B
(1739001818.332) RX 11A#014000AAC0000003
(1739001818.335) RX 1D4#F7070000C74600B7
(1739001818.335) RX 1F2#10640000001E030F
(1739001818.335) RX 284#00000000000021A7
(1739001818.336) RX 1DB#FFC0C02A00000010
(1739001818.336) RX 1DC#B40F8FFD0CCCD8E4
(1739001818.338) RX 1DA#C164180000010325
(1739001818.340) RX 1C2#5C
(1739001818.342) RX 380#020410210000009E
(1739001818.343) RX 5BF#000000002800002B
(1739001818.343) RX 11A#0140005500000115
(1739001818.345) RX 1D4#F70700000746007B
(1739001818.345) RX 1F2#10640000001E000C
(1739001818.345) RX 50A#8532A00EA020
(1739001818.346) RX 1DB#FFC0C02A00000195
(1739001818.346) RX 1DC#B40F8FFD0130C9CE
(1739001818.347) RX 55B#C980AA00E54010C6
(1739001818.347) RX 5BC#5A032C26B30620A0
(1739001818.348) RX 1DA#C16418000001002F
(1739001818.350) RX 1C2#5D
(1739001818.352) RX 11A#01400055400002D8
(1739001818.355) RX 1D4#F7070000474600BC
(1739001818.355) RX 1F2#10640000001E010D
(1739001818.356) RX 1DB#FFC0C02A0000029F
(1739001818.356) RX 284#00000000000022A8
(1739001818.356) RX 1DC#B40F8FFD0520C64C
(1739001818.358) RX 1DA#C1641800000101AA
(1739001818.360) RX 1C2#5E
(1739001818.363) RX 11A#014000AA800003CE
(1739001818.365) RX 1D4#F707000087460070
(1739001818.366) RX 1F2#10640000001E020E
(1739001818.366) RX 1DB#FFC0C02A0000031A
(1739001818.366) RX 50B#000006C00060
(1739001818.366) RX 1DC#B40F8FFD08C0CB1B
(1739001818.368) RX 1DA#C1641800000102A0
(1739001818.370) RX 1C2#5F
(1739001818.372) RX 11A#014000AAC0000003
(1739001818.376) RX 1DB#FFC0C02A00000010
(1739001818.376) RX 1D4#F7070000C74600B7
(1739001818.376) RX 1DC#B40F8FFD0CCCD8E4
(1739001818.376) RX 1F2#10640000001E030F
(1739001818.377) RX 284#00000000000023A9
(1739001818.378) RX 1DA#C164180000010325
(1739001818.380) RX 1C2#50
(1739001818.383) RX 11A#0140005500000115
(1739001818.386) RX 1DB#FFC0C02A00000195
(1739001818.386) RX 1D4#F70700000746007B
(1739001818.386) RX 1DC#B40F8FFD0130C9CE
(1739001818.387) RX 1F2#10640000001E000C
(1739001818.388) RX 1DA#C16418000001002F
(1739001818.388) RX 55A#003330005F365B08
(1739001818.390) RX 1C2#51
(1739001818.392) RX 11A#01400055400002D8
(1739001818.394) RX 54A#9E0070030000002D
(1739001818.395) RX 54B#0108801204000001
(1739001818.396) RX 1DB#FFC0C02A0000029F
(1739001818.396) RX 54C#6866000000005B00
(1739001818.396) RX 1D4#F7070000474600BC
(1739001818.397) RX 1DC#B40F8FFD0520C64C
(1739001818.397) RX 1F2#10640000001E010D
(1739001818.397) RX 284#00000000000024AA
(1739001818.397) RX 54F#2301000007408A55
(1739001818.398) RX 1DA#C1641800000101AA
(1739001818.400) RX 1C2#52
(1739001818.403) RX 11A#014000AA800003CE
(1739001818.406) RX 1DB#FFC0C02A0000031A
(1739001818.406) RX 1DC#B40F8FFD08C0CB1B
(1739001818.406) RX 1D4#F707000087460070
(1739001818.407) RX 1F2#10640000001E020E
(1739001818.408) RX 1DA#C1641800000102A0
(1739001818.410) RX 1C2#53
(1739001818.412) RX 11A#014000AAC0000003
(1739001818.416) RX 1DB#FFC0C02A00000010
(1739001818.416) RX 1DC#B40F8FFD0CCCD8E4
(1739001818.417) RX 1D4#F7070000C74600B7
(1739001818.417) RX 1F2#10640000001E030F
(1739001818.417) RX 284#00000000000025AB
(1739001818.418) RX 1DA#C164180000010325
(1739001818.420) RX 1C2#54
(1739001818.423) RX 11A#0140005500000115
(1739001818.426) RX 1DB#FFC0C02A00000195
(1739001818.426) RX 1DC#B40F8FFD0130C9CE
(1739001818.427) RX 1D4#F70700000746007B
(1739001818.427) RX 1F2#10640000001E000C
(1739001818.427) RX 50C#000000025D63
(1739001818.428) RX 1DA#C16418000001002F
(1739001818.430) RX 1C2#55
(1739001818.433) RX 11A#01400055400002D8
(1739001818.436) RX 1DB#FFC0C02A0000029F
(1739001818.436) RX 1DC#B40F8FFD0520C64C
(1739001818.437) RX 1D4#F7070000474600BC
(1739001818.437) RX 1F2#10640000001E010D
(1739001818.438) RX 284#00000000000026AC
(1739001818.438) RX 1DA#C1641800000101AA
(1739001818.440) RX 1C2#56
(1739001818.442) RX 380#02041021000000AF
(1739001818.443) RX 5BF#000000002800003C
(1739001818.443) RX 11A#014000AA800003CE
(1739001818.446) RX 1DB#FFC0C02A0000031A
(1739001818.446) RX 1DC#B40F8FFD08C0CB1B
(1739001818.447) RX 55B#C9805500E5401104
(1739001818.447) RX 5BC#5A032C26B30620A0
(1739001818.447) RX 1D4#F707000087460070
(1739001818.448) RX 1F2#10640000001E020E
(1739001818.448) RX 1DA#C1641800000102A0
(1739001818.448) RX 50A#8552A00EA020
(1739001818.450) RX 1C2#57
(1739001818.452) RX 11A#014000AAC0000003
(1739001818.456) RX 1DB#FFC0C02A00000010
(1739001818.456) RX 1DC#B40F8FFD0CCCD8E4
(1739001818.458) RX 1D4#F7070000C74600B7
(1739001818.458) RX 1DA#C164180000010325
(1739001818.458) RX 1F2#10640000001E030F
(1739001818.458) RX 284#00000000000027AD
(1739001818.460) RX 1C2#58
(1739001818.463) RX 11A#0140005500000115
(1739001818.466) RX 1DB#FFC0C02A00000195
(1739001818.466) RX 1DC#B40F8FFD0130C9CE
(1739001818.468) RX 1DA#C16418000001002F
(1739001818.468) RX 1D4#F70700000746007B
(1739001818.468) RX 1F2#10640000001E000C
(1739001818.468) RX 50B#000006C00060
(1739001818.470) RX 1C2#59
(1739001818.472) RX 11A#01400055400002D8
(1739001818.476) RX 1DB#FFC0C02A0000029F
(1739001818.476) RX 1DC#B40F8FFD0520C64C
(1739001818.478) RX 1DA#C1641800000101AA
(1739001818.478) RX 1D4#F7070000474600BC
(1739001818.478) RX 1F2#10640000001E010D
(1739001818.479) RX 284#00000000000028AE
(1739001818.480) RX 1C2#5A
(1739001818.483) RX 11A#014000AA800003CE
(1739001818.486) RX 1DB#FFC0C02A0000031A
(1739001818.486) RX 1DC#B40F8FFD08C0CB1B
(1739001818.488) RX 1DA#C1641800000102A0
(1739001818.488) RX 55A#003331005F365B08
(1739001818.488) RX 1D4#F707000087460070
(1739001818.489) RX 1F2#10640000001E020E
(1739001818.490) RX 1C2#5B
(1739001818.492) RX 11A#014000AAC0000003
(1739001818.494) RX 54A#100070030000002D
(1739001818.495) RX 54B#0108801204000001
(1739001818.496) RX 1DB#FFC0C02A00000010
(1739001818.496) RX 54C#6866200000005B00
(1739001818.496) RX 1DC#B40F8FFD0CCCD8E4
(1739001818.497) RX 54F#2301000007808A55
(1739001818.498) RX 1DA#C164180000010325
(1739001818.499) RX 1D4#F7070000C74600B7
(1739001818.499) RX 1F2#10640000001E030F
(1739001818.499) RX 284#00000000000029AF
(1739001818.500) RX 1C2#5C
(1739001818.503) RX 11A#0140005500000115
(1739001818.506) RX 1DB#FFC0C02A00000195
(1739001818.506) RX 1DC#B40F8FFD0130C9CE
(1739001818.508) RX 1DA#C16418000001002F
(1739001818.509) RX 1D4#F70700000746007B
(1739001818.509) RX 1F2#10640000001E000C
(1739001818.510) RX 1C2#5D
(1739001818.512) RX 11A#01400055400002D8
(1739001818.516) RX 1DB#FFC0C02A0000029F
(1739001818.516) RX 1DC#B40F8FFD0520C64C
(1739001818.518) RX 1DA#C1641800000101AA
(1739001818.519) RX 1D4#F7070000474600BC
(1739001818.519) RX 1F2#10640000001E010D
(1739001818.520) RX 284#0000000000002AB0
(1739001818.520) RX 1C2#5E
(1739001818.523) RX 11A#014000AA800003CE
(1739001818.526) RX 1DB#FFC0C02A0000031A
(1739001818.526) RX 1DC#B40F8FFD08C0CB1B
(1739001818.528) RX 1DA#C1641800000102A0
(1739001818.529) RX 1D4#F707000087460070
(1739001818.530) RX 1F2#10640000001E020E
(1739001818.530) RX 50C#00000003B29A
(1739001818.531) RX 1C2#5F
(1739001818.532) RX 11A#014000AAC0000003
(1739001818.536) RX 1DB#FFC0C02A00000010
(1739001818.536) RX 1DC#B40F8FFD0CCCD8E4
(1739001818.538) RX 1DA#C164180000010325
(1739001818.540) RX 1D4#F7070000C74600B7
(1739001818.540) RX 1F2#10640000001E030F
(1739001818.540) RX 284#0000000000002BB1
(1739001818.541) RX 1C2#50
(1739001818.542) RX 380#02041021000000B0
(1739001818.543) RX 11A#0140005500000115
(1739001818.543) RX 5BF#0000000028000009
(1739001818.546) RX 1DB#FFC0C02A00000195
(1739001818.547) RX 1DC#B40F8FFD0130C9CE
(1739001818.547) RX 55B#C980AA00E5401249
(1739001818.547) RX 5BC#5A032C26B30620A0
(1739001818.548) RX 1DA#C16418000001002F
(1739001818.550) RX 1D4#F70700000746007B
(1739001818.550) RX 1F2#10640000001E000C
(1739001818.550) RX 50A#8572A00EA020
(1739001818.551) RX 1C2#51
(1739001818.552) RX 11A#01400055400002D8
(1739001818.556) RX 1DB#FFC0C02A0000029F
(1739001818.557) RX 1DC#B40F8FFD0520C64C
(1739001818.557) RX 5C0#C04C4C0004541400
(1739001818.557) RX 5EB#E00FFFFFFFFFFFFF
(1739001818.558) RX 1DA#C1641800000101AA
(1739001818.560) RX 1D4#F7070000474600BC
(1739001818.560) RX 1F2#10640000001E010D
(1739001818.561) RX 284#0000000000002CB2
(1739001818.561) RX 1C2#52
(1739001818.563) RX 11A#014000AA800003CE
(1739001818.566) RX 1DB#FFC0C02A0000031A
(1739001818.567) RX 1DC#B40F8FFD08C0CB1B
(1739001818.568) RX 1DA#C1641800000102A0
(1739001818.570) RX 1D4#F707000087460070
(1739001818.571) RX 1F2#10640000001E020E
(1739001818.571) RX 1C2#53
(1739001818.571) RX 50B#000006C00060
(1739001818.572) RX 11A#014000AAC0000003
(1739001818.576) RX 1DB#FFC0C02A00000010
(1739001818.577) RX 1DC#B40F8FFD0CCCD8E4
(1739001818.578) RX 1DA#C164180000010325
(1739001818.581) RX 1D4#F7070000C74600B7
(1739001818.581) RX 1C2#54
(1739001818.581) RX 1F2#10640000001E030F
(1739001818.581) RX 284#0000000000002DB3
(1739001818.583) RX 11A#0140005500000115
(1739001818.586) RX 1DB#FFC0C02A00000195
(1739001818.587) RX 1DC#B40F8FFD0130C9CE
(1739001818.588) RX 1DA#C16418000001002F
(1739001818.588) RX 55A#003330005F365B08
(1739001818.591) RX 1C2#55
(1739001818.591) RX 1D4#F70700000746007B
(1739001818.591) RX 1F2#10640000001E000C
(1739001818.592) RX 11A#01400055400002D8
(1739001818.594) RX 54A#9E0070030000002D
(1739001818.595) RX 54B#0108801204000001
(1739001818.596) RX 54C#6866200000005B00
(1739001818.596) RX 1DB#FFC0C02A0000029F
(1739001818.597) RX 1DC#B40F8FFD0520C64C
(1739001818.597) RX 54F#2301000007C08A55
(1739001818.598) RX 1DA#C1641800000101AA
(1739001818.601) RX 1C2#56
(1739001818.601) RX 1D4#F7070000474600BC
(1739001818.601) RX 1F2#10640000001E010D
(1739001818.602) RX 284#0000000000002EB4
(1739001818.603) RX 11A#014000AA800003CE
(1739001818.606) RX 1DB#FFC0C02A0000031A
(1739001818.607) RX 1DC#B40F8FFD08C0CB1B
(1739001818.608) RX 1DA#C1641800000102A0
(1739001818.611) RX 1C2#57
(1739001818.611) RX 1D4#F707000087460070
(1739001818.611) RX 1F2#10640000001E020E
(1739001818.612) RX 11A#014000AAC0000003
(1739001818.616) RX 1DB#FFC0C02A00000010
(1739001818.617) RX 1DC#B40F8FFD0CCCD8E4
(1739001818.618) RX 1DA#C164180000010325
(1739001818.621) RX 1C2#58
(1739001818.622) RX 1D4#F7070000C74600B7
(1739001818.622) RX 1F2#10640000001E030F
(1739001818.622) RX 284#0000000000002FB5
(1739001818.623) RX 11A#0140005500000115
(1739001818.626) RX 1DB#FFC0C02A00000195
(1739001818.627) RX 1DC#B40F8FFD0130C9CE
(1739001818.628) RX 1DA#C16418000001002F
(1739001818.631) RX 1C2#59
(1739001818.632) RX 1D4#F70700000746007B
(1739001818.632) RX 1F2#10640000001E000C
(1739001818.632) RX 50C#000000005DC8
(1739001818.633) RX 11A#01400055400002D8
(1739001818.636) RX 1DB#FFC0C02A0000029F
(1739001818.637) RX 1DC#B40F8FFD0520C64C
(1739001818.638) RX 1DA#C1641800000101AA
(1739001818.641) RX 1C2#5A
(1739001818.642) RX 1D4#F7070000474600BC
(1739001818.642) RX 1F2#10640000001E010D
(1739001818.643) RX 284#00000000000030B6
(1739001818.643) RX 11A#014000AA800003CE
(1739001818.643) RX 380#020410210000008D
(1739001818.643) RX 5A9#9A44C01304300000
(1739001818.643) RX 5BF#000000002800001A
(1739001818.647) RX 1DB#FFC0C02A0000031A
(1739001818.647) RX 1DC#B40F8FFD08C0CB1B
(1739001818.647) RX 55B#C9805500E540138B
(1739001818.648) RX 1DA#C1641800000102A0
(1739001818.648) RX 5BC#5A032026B2064080
(1739001818.651) RX 1C2#5B
(1739001818.652) RX 11A#014000AAC0000003
(1739001818.652) RX 1D4#F707000087460070
(1739001818.653) RX 1F2#10640000001E020E
(1739001818.653) RX 50A#8512A00EA020
(1739001818.656) RX 1DB#FFC0C02A00000010
(1739001818.657) RX 1DC#B40F8FFD0CCCD8E4
(1739001818.658) RX 1DA#C164180000010325
(1739001818.661) RX 1C2#5C
(1739001818.663) RX 1D4#F7070000C74600B7
(1739001818.663) RX 11A#0140005500000115
(1739001818.663) RX 1F2#10640000001E030F
(1739001818.663) RX 284#00000000000031B7
(1739001818.667) RX 1DB#FFC0C02A00000195
(1739001818.667) RX 1DC#B40F8FFD0130C9CE
(1739001818.668) RX 1DA#C16418000001002F
(1739001818.671) RX 1C2#5D
(1739001818.672) RX 11A#01400055400002D8
(1739001818.673) RX 1D4#F70700000746007B
(1739001818.673) RX 1F2#10640000001E000C
(1739001818.673) RX 50B#000006C00060
(1739001818.677) RX 1DB#FFC0C02A0000029F
(1739001818.677) RX 1DC#B40F8FFD0520C64C
(1739001818.678) RX 1DA#C1641800000101AA
(1739001818.681) RX 1C2#5E
(1739001818.683) RX 11A#014000AA800003CE
(1739001818.683) RX 1D4#F7070000474600BC
(1739001818.683) RX 1F2#10640000001E010D
(1739001818.683) RX 284#00000000000032B8
(1739001818.687) RX 1DB#FFC0C02A0000031A
(1739001818.687) RX 1DC#B40F8FFD08C0CB1B
(1739001818.688) RX 1DA#C1641800000102A0
(1739001818.688) RX 55A#003331005F365B08
(1739001818.691) RX 1C2#5F
(1739001818.692) RX 11A#014000AAC0000003
(1739001818.693) RX 1D4#F707000087460070
(1739001818.693) RX 1F2#10640000001E020E
(1739001818.694) RX 284#00000000000033B9
(1739001818.694) RX 54A#100070030000002D
(1739001818.695) RX 54B#0108801204000001
(1739001818.696) RX 54C#6866200000005B00
(1739001818.697) RX 1DB#FFC0C02A00000010
(1739001818.697) RX 1DC#B40F8FFD0CCCD8E4
(1739001818.697) RX 54F#2301000007008A55
(1739001818.698) RX 1DA#C164180000010325
(1739001818.701) RX 1C2#50
(1739001818.703) RX 11A#0140005500000115
(1739001818.704) RX 1D4#F7070000C74600B7
(1739001818.704) RX 1F2#10640000001E030F
(1739001818.707) RX 1DB#FFC0C02A00000195
(1739001818.707) RX 1DC#B40F8FFD0130C9CE
(1739001818.708) RX 1DA#C16418000001002F
(1739001818.711) RX 1C2#51
(1739001818.712) RX 11A#01400055400002D8
(1739001818.714) RX 1D4#F70700000746007B
(1739001818.714) RX 1F2#10640000001E000C
(1739001818.714) RX 284#00000000000034BA
(1739001818.714) RX 5B9#67FF67FF28
(1739001818.717) RX 1DB#FFC0C02A0000029F
(1739001818.717) RX 1DC#B40F8FFD0520C64C
(1739001818.718) RX 1DA#C1641800000101AA
(1739001818.721) RX 1C2#52
(1739001818.723) RX 11A#014000AA800003CE
(1739001818.724) RX 1D4#F7070000474600BC
(1739001818.724) RX 1F2#10640000001E010D
(1739001818.727) RX 1DB#FFC0C02A0000031A
(1739001818.727) RX 1DC#B40F8FFD08C0CB1B
(1739001818.728) RX 1DA#C1641800000102A0
(1739001818.731) RX 1C2#53
(1739001818.732) RX 11A#014000AAC0000003
(1739001818.734) RX 1D4#F707000087460070
(1739001818.734) RX 1F2#10640000001E020E
(1739001818.735) RX 284#00000000000035BB
(1739001818.735) RX 50C#00000001B231
(1739001818.737) RX 1DB#FFC0C02A00000010
(1739001818.737) RX 1DC#B40F8FFD0CCCD8E4
(1739001818.738) RX 1DA#C164180000010325
(1739001818.741) RX 1C2#54
(1739001818.743) RX 11A#0140005500000115
(1739001818.743) RX 380#020410210000009E
(1739001818.743) RX 5BF#000000002800002B
(1739001818.744) RX 1D4#F7070000C74600B7
(1739001818.745) RX 1F2#10640000001E030F
(1739001818.747) RX 1DB#FFC0C02A00000195
(1739001818.747) RX 1DC#B40F8FFD0130C9CE
(1739001818.748) RX 55B#C980AA00E54010C6
(1739001818.748) RX 1DA#C16418000001002F
(1739001818.748) RX 5BC#5A032026B2064080
(1739001818.751) RX 1C2#55
(1739001818.752) RX 11A#01400055400002D8
(1739001818.755) RX 1D4#F70700000746007B
(1739001818.755) RX 1F2#10640000001E000C
(1739001818.755) RX 284#00000000000036BC
(1739001818.755) RX 50A#8532A00EA020
(1739001818.757) RX 1DB#FFC0C02A0000029F
(1739001818.757) RX 1DC#B40F8FFD0520C64C
(1739001818.758) RX 1DA#C1641800000101AA
(1739001818.761) RX 1C2#56
(1739001818.763) RX 11A#014000AA800003CE
(1739001818.765) RX 1D4#F7070000474600BC
(1739001818.765) RX 1F2#10640000001E010D
(1739001818.767) RX 1DB#FFC0C02A0000031A
(1739001818.767) RX 1DC#B40F8FFD08C0CB1B
(1739001818.768) RX 1DA#C1641800000102A0
(1739001818.771) RX 1C2#57
(1739001818.772) RX 11A#014000AAC0000003
(1739001818.775) RX 1D4#F707000087460070
(1739001818.775) RX 1F2#10640000001E020E
(1739001818.776) RX 284#00000000000037BD
(1739001818.776) RX 50B#000006C00060
(1739001818.777) RX 1DB#FFC0C02A00000010
(1739001818.777) RX 1DC#B40F8FFD0CCCD8E4
(1739001818.778) RX 1DA#C164180000010325
(1739001818.781) RX 1C2#58
(1739001818.783) RX 11A#0140005500000115
(1739001818.785) RX 1D4#F7070000C74600B7
(1739001818.786) RX 1F2#10640000001E030F
(1739001818.787) RX 1DB#FFC0C02A00000195
(1739001818.787) RX 1DC#B40F8FFD0130C9CE
(1739001818.788) RX 1DA#C16418000001002F
(1739001818.788) RX 55A#003330005F365B08
(1739001818.791) RX 1C2#59
(1739001818.792) RX 11A#01400055400002D8
(1739001818.794) RX 54A#9E0070030000002D
(1739001818.795) RX 54B#0108801204000001
(1739001818.796) RX 1D4#F70700000746007B
(1739001818.796) RX 1F2#10640000001E000C
(1739001818.796) RX 284#00000000000038BE
(1739001818.796) RX 54C#6866200000005B00
(1739001818.797) RX 1DB#FFC0C02A0000029F
(1739001818.797) RX 1DC#B40F8FFD0520C64C
(1739001818.797) RX 54F#2301000007408A55
(1739001818.798) RX 1DA#C1641800000101AA
(1739001818.801) RX 1C2#5A
(1739001818.803) RX 11A#014000AA800003CE
(1739001818.806) RX 1D4#F7070000474600BC
(1739001818.806) RX 1F2#10640000001E010D
(1739001818.807) RX 1DB#FFC0C02A0000031A
(1739001818.807) RX 1DC#B40F8FFD08C0CB1B
(1739001818.808) RX 1DA#C1641800000102A0
(1739001818.811) RX 1C2#5B
(1739001818.812) RX 11A#014000AAC0000003
(1739001818.816) RX 1D4#F707000087460070
(1739001818.816) RX 1F2#10640000001E020E
(1739001818.817) RX 284#00000000000039BF
(1739001818.817) RX 1DB#FFC0C02A00000010
(1739001818.817) RX 1DC#B40F8FFD0CCCD8E4
(1739001818.818) RX 1DA#C164180000010325
(1739001818.821) RX 1C2#5C
(1739001818.823) RX 11A#0140005500000115
(1739001818.826) RX 1D4#F7070000C74600B7
(1739001818.827) RX 1F2#10640000001E030F
(1739001818.827) RX 1DB#FFC0C02A00000195
(1739001818.827) RX 1DC#B40F8FFD0130C9CE
(1739001818.828) RX 1DA#C16418000001002F
(1739001818.831) RX 1C2#5D
(1739001818.832) RX 11A#01400055400002D8
(1739001818.837) RX 1D4#F70700000746007B
(1739001818.837) RX 1F2#10640000001E000C
(1739001818.837) RX 1DB#FFC0C02A0000029F
(1739001818.837) RX 284#0000000000003AC0
(1739001818.838) RX 1DC#B40F8FFD0520C64C
(1739001818.838) RX 1DA#C1641800000101AA
(1739001818.838) RX 50C#000000025D63
(1739001818.841) RX 1C2#5E
(1739001818.843) RX 11A#014000AA800003CE
(1739001818.843) RX 380#02041021000000AF
(1739001818.843) RX 5BF#000000002800003C
(1739001818.847) RX 1D4#F7070000474600BC
(1739001818.847) RX 1F2#10640000001E010D
(1739001818.847) RX 1DB#FFC0C02A0000031A
(1739001818.848) RX 1DA#C1641800000102A0
(1739001818.848) RX 1DC#B40F8FFD08C0CB1B
(1739001818.848) RX 55B#C9805500E5401104
(1739001818.848) RX 5BC#5A032026B2064080
(1739001818.851) RX 1C2#5F
(1739001818.852) RX 11A#014000AAC0000003
(1739001818.857) RX 1DB#FFC0C02A00000010
(1739001818.857) RX 1D4#F707000087460070
(1739001818.857) RX 1DC#B40F8FFD0CCCD8E4
(1739001818.858) RX 1DA#C164180000010325
(1739001818.858) RX 1F2#10640000001E020E
(1739001818.858) RX 284#0000000000003BC1
(1739001818.858) RX 50A#8552A00EA020
(1739001818.861) RX 1C2#50
(1739001818.863) RX 11A#0140005500000115
(1739001818.867) RX 1DB#FFC0C02A00000195
(1739001818.867) RX 1D4#F7070000C74600B7
(1739001818.868) RX 1DC#B40F8FFD0130C9CE
(1739001818.868) RX 1DA#C16418000001002F
(1739001818.868) RX 1F2#10640000001E030F
(1739001818.871) RX 1C2#51
(1739001818.872) RX 11A#01400055400002D8
(1739001818.877) RX 1DB#FFC0C02A0000029F
(1739001818.877) RX 1DC#B40F8FFD0520C64C
(1739001818.878) RX 1DA#C1641800000101AA
(1739001818.878) RX 1D4#F70700000746007B
(1739001818.878) RX 1F2#10640000001E000C
(1739001818.878) RX 284#0000000000003CC2
(1739001818.879) RX 50B#000006C00060
(1739001818.881) RX 1C2#52
(1739001818.883) RX 11A#014000AA800003CE
(1739001818.887) RX 1DB#FFC0C02A0000031A
(1739001818.887) RX 1DC#B40F8FFD08C0CB1B
(1739001818.888) RX 1DA#C1641800000102A0
(1739001818.888) RX 1D4#F7070000474600BC
(1739001818.888) RX 1F2#10640000001E010D
(1739001818.888) RX 55A#003331005F365B08
(1739001818.891) RX 1C2#53
(1739001818.892) RX 11A#014000AAC0000003
(1739001818.894) RX 54A#100070030000002D
(1739001818.895) RX 54B#0108801204000001
(1739001818.896) RX 54C#6866200000005B00
(1739001818.897) RX 1DB#FFC0C02A00000010
(1739001818.897) RX 54F#2301000007808A55
(1739001818.898) RX 1DA#C164180000010325
(1739001818.898) RX 1DC#B40F8FFD0CCCD8E4
(1739001818.898) RX 1D4#F707000087460070
(1739001818.898) RX 1F2#10640000001E020E
(1739001818.899) RX 284#0000000000003DC3
(1739001818.901) RX 1C2#54
(1739001818.903) RX 11A#0140005500000115
(1739001818.907) RX 1DB#FFC0C02A00000195
(1739001818.908) RX 1DC#B40F8FFD0130C9CE
(1739001818.908) RX 1DA#C16418000001002F
(1739001818.908) RX 1D4#F7070000C74600B7
(1739001818.909) RX 1F2#10640000001E030F
(1739001818.911) RX 1C2#55
(1739001818.912) RX 11A#01400055400002D8
(1739001818.917) RX 1DB#FFC0C02A0000029F
(1739001818.917) RX 1DC#B40F8FFD0520C64C
(1739001818.918) RX 1DA#C1641800000101AA
(1739001818.919) RX 1D4#F70700000746007B
(1739001818.919) RX 1F2#10640000001E000C
(1739001818.919) RX 284#0000000000003EC4
(1739001818.921) RX 1C2#56
(1739001818.923) RX 11A#014000AA800003CE
(1739001818.927) RX 1DB#FFC0C02A0000031A
(1739001818.928) RX 1DC#B40F8FFD08C0CB1B
(1739001818.928) RX 1DA#C1641800000102A0
(1739001818.929) RX 1D4#F7070000474600BC
(1739001818.929) RX 1F2#10640000001E010D
(1739001818.931) RX 1C2#57
(1739001818.932) RX 11A#014000AAC0000003
(1739001818.937) RX 1DB#FFC0C02A00000010
(1739001818.938) RX 1DC#B40F8FFD0CCCD8E4
(1739001818.938) RX 1DA#C164180000010325
(1739001818.939) RX 1D4#F707000087460070
(1739001818.939) RX 1F2#10640000001E020E
(1739001818.940) RX 284#0000000000003FC5
(1739001818.940) RX 50C#00000003B29A
(1739001818.941) RX 1C2#58
(1739001818.943) RX 11A#0140005500000115
(1739001818.943) RX 380#02041021000000B0
(1739001818.943) RX 5BF#0000000028000009
(1739001818.947) RX 1DB#FFC0C02A00000195
(1739001818.948) RX 1DA#C16418000001002F
(1739001818.948) RX 1DC#B40F8FFD0130C9CE
(1739001818.948) RX 55B#C980AA00E5401249
(1739001818.949) RX 5BC#5A032026B2064080
(1739001818.949) RX 1D4#F7070000C74600B7
(1739001818.950) RX 1F2#10640000001E030F
(1739001818.951) RX 1C2#59
(1739001818.952) RX 11A#01400055400002D8
(1739001818.957) RX 1DB#FFC0C02A0000029F
(1739001818.958) RX 1DC#B40F8FFD0520C64C
(1739001818.958) RX 1DA#C1641800000101AA
(1739001818.960) RX 1D4#F70700000746007B
(1739001818.960) RX 1F2#10640000001E000C
(1739001818.960) RX 284#00000000000040C6
(1739001818.960) RX 50A#8572A00EA020
(1739001818.961) RX 1C2#5A
(1739001818.963) RX 11A#014000AA800003CE
(1739001818.967) RX 1DB#FFC0C02A0000031A
(1739001818.968) RX 1DA#C1641800000102A0
(1739001818.968) RX 1DC#B40F8FFD08C0CB1B
(1739001818.970) RX 1D4#F7070000474600BC
(1739001818.970) RX 1F2#10640000001E010D
 80
(1739001818.949) RX 1D4#F7070000C74600B7
(1739001818.950) RX 1F2#10640000001E030F
(1739001818.951) RX 1C2#59
(1739001818.952) RX 11A#01400055400002D8
(1739001818.957) RX 1DB#FFC0C02A0000029F
(1739001818.958) RX 1DC#B40F8FFD0520C64C
(1739001818.958) RX 1DA#C1641800000101AA
(1739001818.960) RX 1D4#F70700000746007B
(1739001818.960) RX 1F2#10640000001E000C
(1739001818.980) RX 1D4#F707000087460070
(1739001818.980) RX 1F2#10640000001E020E
(1739001818.981) RX 284#00000000000041C7
(1739001818.981) RX 50B#000006C00060
(1739001818.982) RX 1C2#5C
(1739001818.983) RX 11A#0140005500000115
(1739001818.987) RX 1DB#FFC0C02A00000195
(1739001818.988) RX 1DA#C16418000001002F
(1739001818.988) RX 1DC#B40F8FFD0130C9CE
(1739001818.988) RX 55A#003330005F365B08
(1739001818.990) RX 1D4#F7070000C74600B7
(1739001818.991) RX 1F2#10640000001E030F
(1739001818.992) RX 1C2#5D
(1739001818.992) RX 11A#01400055400002D8
(1739001818.994) RX 54A#9E0070030000002D
(1739001818.995) RX 54B#0108801204000001
(1739001818.996) RX 54C#6866200000005B00
(1739001818.997) RX 1DB#FFC0C02A0000029F
(1739001818.998) RX 1DA#C1641800000101AA
(1739001818.998) RX 1DC#B40F8FFD0520C64C
(1739001818.998) RX 54F#2301000007C08A55
(1739001819.001) RX 1D4#F70700000746007B
(1739001819.001) RX 1F2#10640000001E000C
(1739001819.001) RX 284#00000000000042C8
(1739001819.002) RX 1C2#5E
(1739001819.003) RX 11A#014000AA800003CE
(1739001819.007) RX 1DB#FFC0C02A0000031A
(1739001819.008) RX 1DA#C1641800000102A0
(1739001819.008) RX 1DC#B40F8FFD08C0CB1B
(1739001819.011) RX 1D4#F7070000474600BC
(1739001819.011) RX 1F2#10640000001E010D
(1739001819.012) RX 1C2#5F
(1739001819.012) RX 11A#014000AAC0000003
(1739001819.017) RX 1DB#FFC0C02A00000010
(1739001819.018) RX 1DA#C164180000010325
(1739001819.018) RX 1DC#B40F8FFD0CCCD8E4
(1739001819.021) RX 1D4#F707000087460070
(1739001819.021) RX 1F2#10640000001E020E
(1739001819.021) RX 284#00000000000043C9
(1739001819.022) RX 1C2#50
(1739001819.023) RX 11A#0140005500000115
(1739001819.028) RX 1DB#FFC0C02A00000195
(1739001819.028) RX 1DA#C16418000001002F
(1739001819.028) RX 1DC#B40F8FFD0130C9CE
(1739001819.031) RX 1D4#F7070000C74600B7
(1739001819.032) RX 1F2#10640000001E030F
(1739001819.032) RX 1C2#51
(1739001819.032) RX 11A#01400055400002D8
(1739001819.038) RX 1DB#FFC0C02A0000029F
(1739001819.038) RX 1DA#C1641800000101AA
(1739001819.038) RX 1DC#B40F8FFD0520C64C
(1739001819.042) RX 1D4#F70700000746007B
(1739001819.042) RX 1F2#10640000001E000C
(1739001819.042) RX 1C2#52
(1739001819.042) RX 284#00000000000044CA
(1739001819.042) RX 50C#000000005DC8
(1739001819.043) RX 11A#014000AA800003CE
(1739001819.043) RX 380#020410210000008D
(1739001819.043) RX 5BF#000000002800001A
(1739001819.048) RX 1DA#C1641800000102A0
(1739001819.048) RX 1DB#FFC0C02A0000031A
(1739001819.048) RX 1DC#B40F8FFD08C0CB1B
(1739001819.048) RX 55B#C9805500E540138B
(1739001819.049) RX 5BC#5A032026B2064080
(1739001819.052) RX 1D4#F7070000474600BC
(1739001819.052) RX 11A#014000AAC0000003
(1739001819.052) RX 1C2#53
