(1739300704.188100) can0 679#00
(1739300704.258100) can0 1D4#A06D000042064060
(1739300704.259100) can0 1F2#0864000000010106
(1739300704.259100) can0 5A9#FFFFFCFFFFF00000
(1739300704.268100) can0 1D4#9C6D000082064018
(1739300704.269100) can0 1F2#0864000000010207
(1739300704.269100) can0 50A#0600000C0000
(1739300704.279100) can0 1D4#9C6D0000C20640DF
(1739300704.279100) can0 1F2#0864000000010308
(1739300704.289100) can0 1D4#9C6D000002064013
(1739300704.289100) can0 1F2#0864000000010005
(1739300704.289100) can0 50B#000000C00000
(1739300704.299100) can0 1D4#9C6D0000420640D4
(1739300704.299100) can0 1F2#0864000000010106
(1739300704.309100) can0 1D4#9C6D00008206605B
(1739300704.310100) can0 1F2#0864000000020208
(1739300704.320100) can0 1D4#9C6D0000C206609C
(1739300704.320100) can0 1F2#0864000000020309
(1739300704.330100) can0 1D4#9C6D000002066050
(1739300704.330100) can0 1F2#0864000000020006
(1739300704.330100) can0 5B9#07FF07FF28
(1739300704.340100) can0 1D4#9C6D000042066097
(1739300704.340100) can0 1F2#0864000000020107
(1739300704.350100) can0 1D4#9C6D00008206605B
(1739300704.351100) can0 1F2#0864000000020208
(1739300704.351100) can0 50C#000000015D5F
(1739300704.361100) can0 1D4#9C6D0000C206609C
(1739300704.361100) can0 1F2#086400000004030B
(1739300704.371100) can0 1D4#9C6D000002066050
(1739300704.371100) can0 1F2#0864000000040008
(1739300704.371100) can0 50A#0620000C0000
(1739300704.381100) can0 1D4#9C6D000042066097
(1739300704.381100) can0 1F2#0864000000040109
(1739300704.391100) can0 54A#9E0070020000002A
(1739300704.391100) can0 1D4#9C6D00008206605B
(1739300704.392100) can0 1F2#086400000004020A
(1739300704.392100) can0 50B#000000C00000
(1739300704.392100) can0 54B#0008800004000000
(1739300704.393100) can0 54C#FFFF000000F8FF00
(1739300704.394100) can0 54F#140000000B40001E
(1739300704.402100) can0 1D4#9C6D0000C206609C
(1739300704.402100) can0 1F2#086400000004030B
(1739300704.412100) can0 1D4#9F6D000002066059
(1739300704.412100) can0 1F2#0864000000040008
(1739300704.420100) can0 1C2#50
(1739300704.422100) can0 1D4#9F6D00004206609E
(1739300704.422100) can0 1F2#0864000000040109
(1739300704.430100) can0 1C2#51
(1739300704.432100) can0 1D4#9F6D000082066052
(1739300704.433100) can0 1F2#086400000004020A
(1739300704.440100) can0 1C2#52
(1739300704.443100) can0 1D4#9F6D0000C2066095
(1739300704.443100) can0 1F2#086400000004030B
(1739300704.450100) can0 1C2#53
(1739300704.453100) can0 1DB#7FE0FFEA00000079
(1739300704.453100) can0 1D4#9F6D000002066059
(1739300704.453100) can0 1DC#FFFFFFFF1FFFFC6B
(1739300704.453100) can0 1F2#0864000000040008
(1739300704.453100) can0 50C#000000025D63
(1739300704.460100) can0 1C2#54
(1739300704.463100) can0 1DB#0000FFEA00000136
(1739300704.463100) can0 1DC#FFFFFFFF0130C975
(1739300704.463100) can0 1D4#9F6D00004206609E
(1739300704.463100) can0 1F2#0864000000040109
(1739300704.470100) can0 1C2#55
(1739300704.473100) can0 1DB#0000FFEA0000023C
(1739300704.473100) can0 1DC#FFFFFFFF0520C6F7
(1739300704.473100) can0 1D4#9F6D000082066052
(1739300704.474100) can0 1F2#086400000004020A
(1739300704.474100) can0 50A#0640000C0000
(1739300704.479100) can0 54A#100070020000002A
(1739300704.480100) can0 54B#0008800004000000
(1739300704.480100) can0 1C2#56
(1739300704.481100) can0 54C#FFFF000000F8FF00
(1739300704.482100) can0 54F#1F0000000B800C24
(1739300704.483100) can0 1DB#0000FFEA000003B9
(1739300704.483100) can0 1DC#FFFFFFFF08C0CBA0
(1739300704.484100) can0 1D4#9F6D0000C2066095
(1739300704.484100) can0 1F2#086400000004030B
(1739300704.490100) can0 1C2#57
(1739300704.493100) can0 1DB#0000FFEA000000B3
(1739300704.493100) can0 1DC#FFFFFFFF0CCCD85F
(1739300704.494100) can0 1D4#9F6D000002066059
(1739300704.494100) can0 1F2#0864000000040008
(1739300704.494100) can0 50B#000000C00000
(1739300704.500100) can0 1C2#58
(1739300704.503100) can0 1DB#0000AE6A000001E7
(1739300704.503100) can0 1DC#FFFFFFFF0130C975
(1739300704.504100) can0 1D4#9F6D00004206609E
(1739300704.504100) can0 1F2#0864000000040109
(1739300704.505100) can0 380#0004102100000003
(1739300704.510100) can0 1C2#59
(1739300704.513100) can0 1DB#0000AE6A000002ED
(1739300704.513100) can0 1DC#FFFFFFFF0520C6F7
(1739300704.514100) can0 1D4#9F6D000082066052
(1739300704.515100) can0 1F2#086400000004020A
(1739300704.515100) can0 380#0204102100000016
(1739300704.520100) can0 1C2#5A
(1739300704.523100) can0 1DB#0000AE2A000003F6
(1739300704.523100) can0 1DC#B43F8FFD08C0CBA0
(1739300704.524100) can0 380#020418210000002F
(1739300704.525100) can0 1D4#A06D0000C2066028
(1739300704.525100) can0 1F2#086400000004030B
(1739300704.530100) can0 1C2#5B
(1739300704.533100) can0 1DB#0000AE2A000000FC
(1739300704.533100) can0 1DC#B43F8FFD0CCCD85F
(1739300704.535100) can0 1D4#A06D00000206E06D
(1739300704.535100) can0 1F2#0864000000040008
(1739300704.540100) can0 1C2#5C
(1739300704.543100) can0 1DB#0000AE2A00000179
(1739300704.543100) can0 1DC#B43F8FFD0130C975
(1739300704.544100) can0 55B#5D405500FFC020B3
(1739300704.544100) can0 5BC#20032026B20521CC
(1739300704.545100) can0 1D4#A06D00004206E0AA
(1739300704.545100) can0 1F2#0864000000040109
(1739300704.548100) can0 1DA#FF0000007FFE0197
(1739300704.550100) can0 1C2#5D
(1739300704.553100) can0 1DB#0000AE2A00000273
(1739300704.553100) can0 1DC#B43F8FFD0520C6F7
(1739300704.555100) can0 1D4#A06D00008206E066
(1739300704.556100) can0 1F2#086400000004020A
(1739300704.556100) can0 50C#000000035DF4
(1739300704.558100) can0 1DA#FF0000007FFE029D
(1739300704.560100) can0 1C2#5E
(1739300704.563100) can0 1DB#0000AE2A000003F6
(1739300704.563100) can0 1DC#B43F8FFD08C0CBA0
(1739300704.566100) can0 1D4#A06D0000C206E0A1
(1739300704.566100) can0 1F2#086400000005030C
(1739300704.568100) can0 1DA#010000007FFE036D
(1739300704.570100) can0 1C2#5F
(1739300704.573100) can0 1DB#0000AE2A000000FC
(1739300704.573100) can0 1DC#B43F8FFD0CCCD85F
(1739300704.576100) can0 1D4#A06D00000206E06D
(1739300704.576100) can0 1F2#086400000007000B
(1739300704.576100) can0 50A#0660000C0000
(1739300704.578100) can0 1DA#010000007FFE0067
(1739300704.579100) can0 54A#9E0070020000002A
(1739300704.580100) can0 54B#0008800004000000
(1739300704.580100) can0 1C2#50
(1739300704.581100) can0 54C#FFFF000000F8FF00
(1739300704.582100) can0 54F#1F0000000BC00C24
(1739300704.583100) can0 1DB#0000AE2A00000179
(1739300704.583100) can0 1DC#B43F8FFD0130C975
(1739300704.586100) can0 1D4#A06D00004206E0AA
(1739300704.586100) can0 1F2#086400000007010C
(1739300704.588100) can0 1DA#010000007FFF0175
(1739300704.590100) can0 1C2#51
(1739300704.593100) can0 1DB#0000AE2A00000273
(1739300704.593100) can0 1DC#B43F8FFD0520C6F7
(1739300704.595100) can0 380#0204182100000030
(1739300704.595100) can0 5BF#0000000010000000
(1739300704.596100) can0 1D4#A06D00008206E066
(1739300704.597100) can0 1F2#086400000007020D
(1739300704.597100) can0 50B#000000C00000
(1739300704.598100) can0 1DA#010000007FFF027F
(1739300704.600100) can0 1C2#52
(1739300704.603100) can0 1DB#0000AE2A000003F6
(1739300704.603100) can0 1DC#B43F8FFD08C0CBA0
(1739300704.605100) can0 380#020418211000000E
(1739300704.607100) can0 1D4#A06D0000C206E0A1
(1739300704.607100) can0 1F2#086400000007030E
(1739300704.608100) can0 1DA#010000007FFF03FA
(1739300704.610100) can0 1C2#53
(1739300704.613100) can0 1DB#0000AE2A000000FC
(1739300704.613100) can0 1DC#B43F8FFD0CCCD85F
(1739300704.617100) can0 1D4#A06D00000206E06D
(1739300704.617100) can0 1F2#086400000007000B
(1739300704.618100) can0 1DA#010000007FFF00F0
(1739300704.620100) can0 1C2#54
(1739300704.623100) can0 1DB#0000AE2A00000179
(1739300704.623100) can0 1DC#B43F8FFD0130C975
(1739300704.627100) can0 1D4#A06D00004206E0AA
(1739300704.627100) can0 1F2#08640000006D0108
(1739300704.628100) can0 1DA#010000007FFF0175
(1739300704.630100) can0 1C2#55
(1739300704.633100) can0 1DB#0000AE2A00000273
(1739300704.633100) can0 1DC#B43F8FFD0520C6F7
(1739300704.637100) can0 1D4#A06D00008206E066
(1739300704.637100) can0 1F2#08640000006E020A
(1739300704.638100) can0 1DA#010000007FFF027F
(1739300704.638100) can0 55A#002F2F005F2F3AE8
(1739300704.640100) can0 1C2#56
(1739300704.643100) can0 1DB#0000AE2A000003F6
(1739300704.643100) can0 1DC#B43F8FFD08C0CBA0
(1739300704.644100) can0 55B#5D405500FFC02136
(1739300704.644100) can0 5BC#20032026B20521CC
(1739300704.648100) can0 1D4#A06D0000C206E0A1
(1739300704.648100) can0 1F2#08640000006E030B
(1739300704.648100) can0 1DA#010000007FFF03FA
(1739300704.651100) can0 1C2#57
(1739300704.654100) can0 1DB#0000AE2A000000FC
(1739300704.654100) can0 1DC#B40F8FFD0CCCD8E4
(1739300704.658100) can0 1D4#A06D00000206E06D
(1739300704.658100) can0 1F2#08640000006E0008
(1739300704.658100) can0 1DA#010000007FFF00F0
(1739300704.658100) can0 50C#00000000B2A6
(1739300704.660100) can0 1C2#58
(1739300704.663100) can0 1DB#0000AE2A00000179
(1739300704.663100) can0 1DC#B40F8FFD0130C9CE
(1739300704.668100) can0 1DA#010000007FFF0175
(1739300704.668100) can0 1D4#A06D00004206E0AA
(1739300704.668100) can0 1F2#08640000006E0109
(1739300704.671100) can0 1C2#59
(1739300704.673100) can0 1DB#0000AE2A00000273
(1739300704.673100) can0 1DC#B40F8FFD0520C64C
(1739300704.678100) can0 1DA#010000007FFF027F
(1739300704.678100) can0 1D4#A06D00008206E066
(1739300704.678100) can0 1F2#08640000006E020A
(1739300704.679100) can0 50A#0600000C0000
(1739300704.679100) can0 54A#100070020000002A
(1739300704.680100) can0 54B#0008800004000000
(1739300704.681100) can0 1C2#5A
(1739300704.681100) can0 54C#FFFF000000F8FF00
(1739300704.682100) can0 54F#1F0000000B000C24
(1739300704.683100) can0 1DB#0000AE2A000003F6
(1739300704.684100) can0 1DC#B40F8FFD08C0CB1B
(1739300704.688100) can0 1DA#010000007FFF03FA
(1739300704.689100) can0 1D4#A06D0000C206E0A1
(1739300704.689100) can0 1F2#08640000006E030B
(1739300704.691100) can0 1C2#5B
(1739300704.693100) can0 1DB#0000AE2A000000FC
(1739300704.693100) can0 1DC#B40F8FFD0CCCD8E4
(1739300704.695100) can0 380#020418211000001F
(1739300704.695100) can0 5BF#000033001800001F
(1739300704.698100) can0 1DA#010000007FFF00F0
(1739300704.699100) can0 1D4#A06D00000206E06D
(1739300704.699100) can0 1F2#08640000006E0008
(1739300704.699100) can0 50B#000000C00000
(1739300704.701100) can0 1C2#5C
(1739300704.703100) can0 1DB#0000AE2A00000179
(1739300704.704100) can0 1DC#B40F8FFD0130C9CE
(1739300704.708100) can0 1DA#010000007FFF0175
(1739300704.709100) can0 1D4#A06D00004206E0AA
(1739300704.709100) can0 1F2#08640000006E0109
(1739300704.711100) can0 1C2#5D
(1739300704.713100) can0 1DB#0000AE2A00000273
(1739300704.714100) can0 1DC#B40F8FFD0520C64C
(1739300704.718100) can0 1DA#010000007FFF027F
(1739300704.719100) can0 1D4#A06D00008206E066
(1739300704.719100) can0 1F2#08640000006E020A
(1739300704.721100) can0 1C2#5E
(1739300704.723100) can0 1DB#0000AE2A000003F6
(1739300704.724100) can0 1DC#B40F8FFD08C0CB1B
(1739300704.728100) can0 1DA#010000007FFF03FA
(1739300704.729100) can0 1D4#A06D0000C206E0A1
(1739300704.730100) can0 1F2#08640000006E030B
(1739300704.731100) can0 1C2#5F
(1739300704.733100) can0 1DB#0000AE2A000000FC
(1739300704.734100) can0 1DC#B40F8FFD0CCCD8E4
(1739300704.738100) can0 1DA#010000007FFF00F0
(1739300704.738100) can0 55A#002F2F005F2F3AE8
(1739300704.740100) can0 1D4#A06D00000206E06D
(1739300704.741100) can0 1F2#08640000006E0008
(1739300704.741100) can0 1C2#50
(1739300704.743100) can0 1DB#0000AE2A00000179
(1739300704.744100) can0 1DC#B40F8FFD0130C9CE
(1739300704.744100) can0 55B#5D40AA00FFC0227B
(1739300704.744100) can0 5BC#20032C26B305416E
(1739300704.748100) can0 1DA#010000007FFF0175
(1739300704.750100) can0 1D4#A06D00004206E0AA
(1739300704.750100) can0 1F2#08640000006E0109
(1739300704.751100) can0 1C2#51
(1739300704.755100) can0 1DB#0000AE2A00000273
(1739300704.755100) can0 1DC#B40F8FFD0520C64C
(1739300704.758100) can0 1DA#010000007FFF027F
(1739300704.760100) can0 1D4#A06D00008206E066
(1739300704.760100) can0 1F2#08640000006E020A
(1739300704.761100) can0 50C#000000015D5F
(1739300704.761100) can0 1C2#52
(1739300704.764100) can0 1DB#0000AE2A000003F6
(1739300704.764100) can0 1DC#B40F8FFD08C0CB1B
(1739300704.768100) can0 1DA#010000007FFF03FA
(1739300704.771100) can0 1D4#A06D0000C206E0A1
(1739300704.771100) can0 1F2#08640000006E030B
(1739300704.771100) can0 1C2#53
(1739300704.771100) can0 5A9#FFFFFCFFFFF00000
(1739300704.774100) can0 1DB#0000AE2A000000FC
(1739300704.774100) can0 1DC#B40F8FFD0CCCD8E4
(1739300704.778100) can0 1DA#010000007FFF00F0
(1739300704.779100) can0 54A#9E0070020000002A
(1739300704.780100) can0 54B#0008800004000000
(1739300704.781100) can0 1D4#A06D00000206E06D
(1739300704.781100) can0 1C2#54
(1739300704.781100) can0 1F2#08640000006E0008
(1739300704.781100) can0 50A#0620000C0000
(1739300704.782100) can0 54C#FFFF000000F8FF00
(1739300704.782100) can0 54F#1F0000000B400C25
(1739300704.784100) can0 1DB#0000AE2A00000179
(1739300704.784100) can0 1DC#B40F8FFD0130C9CE
(1739300704.788100) can0 1DA#010000007FFF0175
(1739300704.791100) can0 1C2#55
(1739300704.791100) can0 1D4#A06D00004206E0AA
(1739300704.791100) can0 1F2#08640000006E0109
(1739300704.794100) can0 1DB#0000AE2A00000273
(1739300704.794100) can0 1DC#B40F8FFD0520C64C
(1739300704.795100) can0 380#0204182110000020
(1739300704.795100) can0 5BF#0000330018000020
(1739300704.798100) can0 1DA#010000007FFF027F
(1739300704.801100) can0 1C2#56
(1739300704.801100) can0 1D4#A06D00008206E066
(1739300704.801100) can0 1F2#08640000006E020A
(1739300704.802100) can0 50B#000000C00000
(1739300704.804100) can0 1DB#0000AE2A000003F6
(1739300704.804100) can0 1DC#B40F8FFD08C0CB1B
(1739300704.808100) can0 1DA#010000000001039A
(1739300704.811100) can0 1C2#57
(1739300704.811100) can0 1D4#A06D0000C206E0A1
(1739300704.812100) can0 1F2#08640000006E030B
(1739300704.814100) can0 1DB#0000AE2A000000FC
(1739300704.814100) can0 1DC#B40F8FFD0CCCD8E4
(1739300704.818100) can0 1DA#0100000000010090
(1739300704.821100) can0 1C2#58
(1739300704.822100) can0 1D4#F70700000206E0B7
(1739300704.822100) can0 1F2#08640000006E0008
(1739300704.824100) can0 1DB#0000AE2A00000179
(1739300704.824100) can0 1DC#B40F8FFD0130C9CE
(1739300704.828100) can0 1DA#0100000000010115
(1739300704.831100) can0 1C2#59
(1739300704.832100) can0 1D4#F70700004206E070
(1739300704.832100) can0 1F2#08640000006E0109
(1739300704.834100) can0 1DB#0000AE2A00000273
(1739300704.834100) can0 1DC#B40F8FFD0520C64C
(1739300704.838100) can0 1DA#010000000001021F
(1739300704.838100) can0 55A#002F2F005F2F3AE8
(1739300704.841100) can0 1C2#5A
(1739300704.842100) can0 1D4#F70700008206E0BC
(1739300704.842100) can0 1F2#08640000006E020A
(1739300704.843100) can0 5B9#07FF67FF28
(1739300704.844100) can0 1DB#0000AE2A000003F6
(1739300704.844100) can0 1DC#B40F8FFD08C0CB1B
(1739300704.844100) can0 55B#5D405500FFC023B9
(1739300704.845100) can0 5BC#20032C26B305416E
(1739300704.848100) can0 1DA#010000000001039A
(1739300704.851100) can0 1C2#5B
(1739300704.852100) can0 1D4#F7070000C206E07B
(1739300704.853100) can0 1F2#08640000006E030B
(1739300704.855100) can0 1DB#0000AE2A000000FC
(1739300704.855100) can0 1DC#B40F8FFD0CCCD8E4
(1739300704.858100) can0 1DA#0100000000010090
(1739300704.861100) can0 1C2#5C
(1739300704.863100) can0 1D4#F70700000206E0B7
(1739300704.863100) can0 1F2#08640000006E0008
(1739300704.863100) can0 50C#00000002B20D
(1739300704.864100) can0 1DB#0000AE2A00000179
(1739300704.864100) can0 1DC#B40F8FFD0130C9CE
(1739300704.868100) can0 1DA#0100000000010115
(1739300704.871100) can0 1C2#5D
(1739300704.873100) can0 1D4#F70700004206E070
(1739300704.873100) can0 1F2#08640000006E0109
(1739300704.874100) can0 1DB#0000AE2A00000273
(1739300704.874100) can0 1DC#B40F8FFD0520C64C
(1739300704.878100) can0 1DA#010000000001021F
(1739300704.879100) can0 54A#100070020000002A
(1739300704.880100) can0 54B#0008800004000000
(1739300704.881100) can0 1C2#5E
(1739300704.881100) can0 54C#FFFF000000F8FF00
(1739300704.882100) can0 54F#1F0000000B800C25
(1739300704.883100) can0 1D4#F70700008206E0BC
(1739300704.883100) can0 1F2#08640000006E020A
(1739300704.884100) can0 50A#0640000C0000
(1739300704.884100) can0 1DB#0000AE2A000003F6
(1739300704.884100) can0 1DC#B40F8FFD08C0CB1B
(1739300704.888100) can0 1DA#010000000001039A
(1739300704.891100) can0 1C2#5F
(1739300704.893100) can0 1D4#F7070000C206E07B
(1739300704.894100) can0 1F2#08640000006E030B
(1739300704.894100) can0 1DB#0000AE2A000000FC
(1739300704.894100) can0 1DC#B40F8FFD0CCCD8E4
(1739300704.895100) can0 380#0204182110000031
(1739300704.895100) can0 5BF#0000330018000031
(1739300704.898100) can0 1DA#0100000000010090
(1739300704.901100) can0 1C2#50
(1739300704.904100) can0 1D4#F70700000206E0B7
(1739300704.904100) can0 1F2#08640000006E0008
(1739300704.904100) can0 1DB#0000AE2A00000179
(1739300704.904100) can0 50B#000000C00000
(1739300704.905100) can0 1DC#B40F8FFD0130C9CE
(1739300704.908100) can0 1DA#0100000000010115
(1739300704.911100) can0 1C2#51
(1739300704.914100) can0 1DB#0000AE2A00000273
(1739300704.914100) can0 1D4#F70700004206E070
(1739300704.914100) can0 1DC#B40F8FFD0520C64C
(1739300704.915100) can0 1F2#08640000006E0109
(1739300704.918100) can0 1DA#010000000001021F
(1739300704.921100) can0 1C2#52
(1739300704.924100) can0 1DB#0000AE2A000003F6
(1739300704.924100) can0 1D4#F70700008206E0BC
(1739300704.924100) can0 1DC#B40F8FFD08C0CB1B
(1739300704.925100) can0 1F2#08640000006E020A
(1739300704.928100) can0 1DA#010000000001039A
(1739300704.931100) can0 1C2#53
(1739300704.934100) can0 1DB#0000AE2A000000FC
(1739300704.934100) can0 1DC#B40F8FFD0CCCD8E4
(1739300704.934100) can0 1D4#F7070000C206E07B
(1739300704.935100) can0 1F2#08640000006E030B
(1739300704.938100) can0 1DA#0100000000010090
(1739300704.938100) can0 55A#002F2F005F2F3AE8
(1739300704.941100) can0 1C2#54
(1739300704.944100) can0 1DB#0000AE2A00000179
(1739300704.944100) can0 1DC#B40F8FFD0130C9CE
(1739300704.945100) can0 1D4#F70700000206E0B7
(1739300704.945100) can0 1F2#08640000006E0008
(1739300704.945100) can0 55B#5D40AA00FFC020F4
(1739300704.945100) can0 5BC#20032C26B305416E
(1739300704.948100) can0 1DA#0100000000010115
(1739300704.951100) can0 1C2#55
(1739300704.955100) can0 1DB#0000AE2A00000273
(1739300704.955100) can0 1DC#B40F8FFD0520C64C
(1739300704.955100) can0 1D4#F70700004206E070
(1739300704.955100) can0 1F2#08640000006E0109
(1739300704.956100) can0 5C0#804C4C0004A0E100
(1739300704.956100) can0 5EB#FF0E2E2C0E0B800E
(1739300704.958100) can0 1DA#010000000001021F
(1739300704.961100) can0 1C2#56
(1739300704.964100) can0 1DB#0000AE2A000003F6
(1739300704.964100) can0 1DC#B40F8FFD08C0CB1B
(1739300704.965100) can0 1D4#F70700008206E0BC
(1739300704.965100) can0 1F2#08640000006E020A
(1739300704.966100) can0 50C#000000035DF4
(1739300704.968100) can0 1DA#010000000001039A
(1739300704.971100) can0 1C2#57
(1739300704.974100) can0 1DB#0000AE2A000000FC
(1739300704.974100) can0 1DC#B40F8FFD0CCCD8E4
(1739300704.975100) can0 1D4#F7070000C206E07B
(1739300704.976100) can0 1F2#08640000006E030B
(1739300704.978100) can0 1DA#0100000000010090
(1739300704.979100) can0 54A#9E0070020000002A
(1739300704.980100) can0 54B#0008800004000000
(1739300704.981100) can0 54C#FFFF000000F8FF00
(1739300704.981100) can0 1C2#58
(1739300704.982100) can0 54F#1F0000000BC00C25
(1739300704.984100) can0 1DB#0000AE2A00000179
(1739300704.984100) can0 1DC#B40F8FFD0130C9CE
(1739300704.986100) can0 1D4#F70700000206E0B7
(1739300704.986100) can0 1F2#08640000006E0008
(1739300704.986100) can0 50A#0660000C0000
(1739300704.988100) can0 1DA#0100000000010115
(1739300704.991100) can0 1C2#59
(1739300704.994100) can0 1DB#0000AE2A00000273
(1739300704.994100) can0 1DC#B40F8FFD0520C64C
(1739300704.995100) can0 380#020418211000000E
(1739300704.995100) can0 5BF#000033001800000E
(1739300704.996100) can0 1D4#F70700004206E070
(1739300704.996100) can0 1F2#08640000006E0109
(1739300704.998100) can0 1DA#010000000001021F
(1739300705.001100) can0 1C2#5A
(1739300705.004100) can0 1DB#0000AE2A000003F6
(1739300705.004100) can0 1DC#B40F8FFD08C0CB1B
(1739300705.006100) can0 1D4#F70700008206E0BC
(1739300705.006100) can0 1F2#08640000006E020A
(1739300705.007100) can0 50B#000000C00000
(1739300705.008100) can0 1DA#010000000001039A
(1739300705.011100) can0 1C2#5B
(1739300705.014100) can0 1DB#0000AE2A000000FC
(1739300705.014100) can0 1DC#B40F8FFD0CCCD8E4
(1739300705.016100) can0 1D4#F7070000C206E07B
(1739300705.017100) can0 1F2#08640000006E030B
(1739300705.018100) can0 1DA#0100000000010090
(1739300705.021100) can0 1C2#5C
(1739300705.024100) can0 1DB#0000AE2A00000179
(1739300705.024100) can0 1DC#B40F8FFD0130C9CE
(1739300705.027100) can0 1D4#F70700000206E0B7
(1739300705.027100) can0 1F2#08640000006E0008
(1739300705.028100) can0 1DA#0100000000010115
(1739300705.031100) can0 1C2#5D
(1739300705.034100) can0 1DB#0000AE2A00000273
(1739300705.034100) can0 1DC#B40F8FFD0520C64C
(1739300705.037100) can0 1D4#F70700004206E070
(1739300705.037100) can0 1F2#08640000006E0109
(1739300705.038100) can0 1DA#010000000001021F
(1739300705.038100) can0 55A#002F2F005F2F3AE8
(1739300705.041100) can0 1C2#5E
(1739300705.044100) can0 1DB#0000AE2A000003F6
(1739300705.045100) can0 1DC#B40F8FFD08C0CB1B
(1739300705.045100) can0 55B#5D405500FFC02136
(1739300705.045100) can0 5BC#20032C26B305416E
(1739300705.047100) can0 1D4#F70700008206E0BC
(1739300705.047100) can0 1F2#08640000006E020A
(1739300705.048100) can0 1DA#010000000001039A
(1739300705.051100) can0 1C2#5F
(1739300705.055100) can0 1DB#0000AE2A000000FC
(1739300705.056100) can0 1DC#B40F8FFD0CCCD8E4
(1739300705.057100) can0 1D4#F7070000C206E07B
(1739300705.058100) can0 1F2#08640000006E030B
(1739300705.058100) can0 1DA#0100000000010090
(1739300705.061100) can0 1C2#50
(1739300705.064100) can0 1DB#0000AE2A00000179
(1739300705.065100) can0 1DC#B40F8FFD0130C9CE
(1739300705.068100) can0 1D4#F70700000206E0B7
(1739300705.068100) can0 1F2#08640000006E0008
(1739300705.068100) can0 1DA#0100000000010115
(1739300705.068100) can0 50C#00000000B2A6
(1739300705.071100) can0 1C2#51
(1739300705.074100) can0 1DB#0000AE2A00000273
(1739300705.075100) can0 1DC#B40F8FFD0520C64C
(1739300705.078100) can0 1D4#F70700004206E070
(1739300705.078100) can0 1DA#010000000001021F
(1739300705.078100) can0 1F2#08640000006E0109
(1739300705.079100) can0 54A#100070020000002A
(1739300705.080100) can0 54B#0008800004000000
(1739300705.081100) can0 54C#FFFF000000F8FF00
(1739300705.081100) can0 1C2#52
(1739300705.082100) can0 54F#1F0000000B000C25
(1739300705.084100) can0 1DB#0000AE2A000003F6
(1739300705.085100) can0 1DC#B40F8FFD08C0CB1B
(1739300705.088100) can0 1DA#010000000001039A
(1739300705.088100) can0 1D4#F70700008206E0BC
(1739300705.088100) can0 1F2#08640000006E020A
(1739300705.089100) can0 50A#0600000C0000
(1739300705.092100) can0 1C2#53
(1739300705.094100) can0 1DB#0000AE2A000000FC
(1739300705.095100) can0 1DC#B40F8FFD0CCCD8E4
(1739300705.095100) can0 380#020418211000001F
(1739300705.095100) can0 5BF#000033001800001F
(1739300705.098100) can0 1DA#0100000000010090
(1739300705.098100) can0 1D4#F7070000C206E07B
(1739300705.098100) can0 1F2#08640000006E030B
(1739300705.102100) can0 1C2#54
(1739300705.104100) can0 1DB#0000AE2A00000179
(1739300705.105100) can0 1DC#B40F8FFD0130C9CE
(1739300705.108100) can0 1DA#0100000000010115
(1739300705.108100) can0 1D4#F70700000206E0B7
(1739300705.109100) can0 1F2#08640000006E0008
(1739300705.109100) can0 50B#000000C00000
(1739300705.112100) can0 1C2#55
(1739300705.114100) can0 1DB#0000AE2A00000273
(1739300705.115100) can0 1DC#B40F8FFD0520C64C
(1739300705.118100) can0 1DA#010000000001021F
(1739300705.119100) can0 1D4#F70700004206E070
(1739300705.119100) can0 1F2#08640000006E0109
(1739300705.122100) can0 1C2#56
(1739300705.124100) can0 1DB#0000AE2A000003F6
(1739300705.125100) can0 1DC#B40F8FFD08C0CB1B
(1739300705.128100) can0 1DA#010000000001039A
(1739300705.129100) can0 1D4#F70700008206E0BC
(1739300705.129100) can0 1F2#08640000006E020A
(1739300705.132100) can0 1C2#57
(1739300705.135100) can0 1DB#0000AE2A000000FC
(1739300705.135100) can0 1DC#B40F8FFD0CCCD8E4
(1739300705.138100) can0 1DA#0100000000010090
(1739300705.138100) can0 55A#002F2F005F2F3AE8
(1739300705.139100) can0 1D4#F7070000C206E07B
(1739300705.139100) can0 1F2#08640000006E030B
(1739300705.142100) can0 1C2#58
(1739300705.145100) can0 1DB#0000AE2A00000179
(1739300705.145100) can0 1DC#B40F8FFD0130C9CE
(1739300705.145100) can0 55B#5D40AA00FFC0227B
(1739300705.146100) can0 5BC#20032C26B305416E
(1739300705.148100) can0 1DA#0100000000010115
(1739300705.149100) can0 1D4#F70700000206E0B7
(1739300705.150100) can0 1F2#08640000006E0008
(1739300705.152100) can0 1C2#59
(1739300705.155100) can0 1DB#0000AE2A00000273
(1739300705.155100) can0 1DC#B40F8FFD0520C64C
(1739300705.158100) can0 1DA#010000000001021F
(1739300705.160100) can0 1D4#F70700004206E070
(1739300705.160100) can0 1F2#08640000006E0109
(1739300705.162100) can0 1C2#5A
(1739300705.165100) can0 1DB#0000AE2A000003F6
(1739300705.165100) can0 1DC#B40F8FFD08C0CB1B
(1739300705.168100) can0 1DA#010000000001039A
(1739300705.170100) can0 1D4#F70700008206E0BC
(1739300705.170100) can0 1F2#08640000006E020A
(1739300705.170100) can0 50C#000000015D5F
(1739300705.172100) can0 1C2#5B
(1739300705.175100) can0 1DB#0000AE2A000000FC
(1739300705.175100) can0 1DC#B40F8FFD0CCCD8E4
(1739300705.178100) can0 1DA#0100000000010090
(1739300705.179100) can0 54A#9E0070020000002A
(1739300705.180100) can0 1D4#F7070000C206E07B
(1739300705.180100) can0 1F2#08640000006E030B
(1739300705.181100) can0 54B#0008800004000000
(1739300705.181100) can0 54C#FFFF000000F8FF00
(1739300705.182100) can0 1C2#5C
(1739300705.182100) can0 54F#1F0000000B400C25
(1739300705.185100) can0 1DB#0000AE2A00000179
(1739300705.185100) can0 1DC#B40F8FFD0130C9CE
(1739300705.188100) can0 1DA#0100000000010115
(1739300705.191100) can0 1D4#F70700000206E0B7
(1739300705.191100) can0 1F2#08640000006E0008
(1739300705.191100) can0 50A#0620000C0000
(1739300705.192100) can0 1C2#5D
(1739300705.195100) can0 1DB#0000AE2A00000273
(1739300705.195100) can0 1DC#B40F8FFD0520C64C
(1739300705.195100) can0 380#0204182110000020
(1739300705.195100) can0 5BF#0000330018000020
(1739300705.198100) can0 1DA#010000000001021F
(1739300705.201100) can0 1D4#F70700004206E070
(1739300705.201100) can0 1F2#08640000006E0109
(1739300705.202100) can0 1C2#5E
(1739300705.205100) can0 1DB#0000AE2A000003F6
(1739300705.205100) can0 1DC#B40F8FFD08C0CB1B
(1739300705.208100) can0 1DA#010000000001039A
(1739300705.211100) can0 1D4#F70700008206E0BC
(1739300705.211100) can0 1F2#08640000006E020A
(1739300705.211100) can0 50B#000000C00000
(1739300705.212100) can0 1C2#5F
(1739300705.215100) can0 1DB#0000AE2A000000FC
(1739300705.215100) can0 1DC#B40F8FFD0CCCD8E4
(1739300705.218100) can0 1DA#0100000000010090
(1739300705.221100) can0 1D4#F7070000C206E07B
(1739300705.221100) can0 1F2#08640000006E030B
(1739300705.222100) can0 1C2#50
(1739300705.225100) can0 1DB#0000AE2A00000179
(1739300705.225100) can0 1DC#B40F8FFD0130C9CE
(1739300705.228100) can0 1DA#0100000000010115
(1739300705.231100) can0 1D4#F70700000206E0B7
(1739300705.232100) can0 1F2#08640000006E0008
(1739300705.232100) can0 1C2#51
(1739300705.235100) can0 1DB#0000AE2A00000273
(1739300705.235100) can0 1DC#B40F8FFD0520C64C
(1739300705.238100) can0 1DA#010000000001021F
(1739300705.238100) can0 55A#002F2F005F2F3AE8
(1739300705.242100) can0 1D4#F70700004206E070
(1739300705.242100) can0 1F2#08640000006E0109
(1739300705.242100) can0 1C2#52
(1739300705.245100) can0 1DB#0000AE2A000003F6
(1739300705.245100) can0 1DC#B40F8FFD08C0CB1B
(1739300705.245100) can0 55B#5D405500FFC023B9
(1739300705.246100) can0 5BC#20032026B20621F8
(1739300705.248100) can0 1DA#010000000001039A
(1739300705.252100) can0 1D4#F70700008206E0BC
(1739300705.252100) can0 1C2#53
(1739300705.252100) can0 1F2#08640000006E020A
(1739300705.255100) can0 1DB#0000AE2A000000FC
(1739300705.256100) can0 1DC#B40F8FFD0CCCD8E4
(1739300705.258100) can0 1DA#0100000000010090
(1739300705.262100) can0 1C2#54
(1739300705.262100) can0 1D4#F7070000C206E07B
(1739300705.262100) can0 1F2#08640000006E030B
(1739300705.265100) can0 1DB#0000AE2A00000179
(1739300705.265100) can0 1DC#B40F8FFD0130C9CE
(1739300705.268100) can0 1DA#0100000000010115
(1739300705.272100) can0 1D4#F70700000206E0B7
(1739300705.273100) can0 1C2#55
(1739300705.273100) can0 1F2#08640000006E0008
(1739300705.273100) can0 50C#00000002B20D
(1739300705.275100) can0 1DB#0000AE2A00000273
(1739300705.275100) can0 1DC#B40F8FFD0520C64C
(1739300705.278100) can0 1DA#010000000001021F
(1739300705.279100) can0 54A#100070020000002A
(1739300705.280100) can0 54B#0008800004000000
(1739300705.281100) can0 54C#FFFF000000F8FF00
(1739300705.282100) can0 1C2#56
(1739300705.282100) can0 54F#1F0000000B800C25
(1739300705.283100) can0 1D4#F70700004206E070
(1739300705.283100) can0 1F2#08640000006E0109
(1739300705.283100) can0 5A9#FFFFFC1083800000
(1739300705.285100) can0 1DB#0000AE2A000003F6
(1739300705.285100) can0 1DC#B40F8FFD08C0CB1B
(1739300705.288100) can0 1DA#010000000001039A
(1739300705.292100) can0 1C2#57
(1739300705.293100) can0 1D4#F70700008206E0BC
(1739300705.293100) can0 1F2#08640000006E020A
(1739300705.293100) can0 50A#0640000C0000
(1739300705.295100) can0 1DB#0000AE2A000000FC
(1739300705.295100) can0 380#0204182110000031
(1739300705.295100) can0 1DC#B40F8FFD0CCCD8E4
(1739300705.296100) can0 5BF#0000330018000031
(1739300705.298100) can0 1DA#0100000000010090
(1739300705.302100) can0 1C2#58
(1739300705.303100) can0 1D4#F7070000C206E07B
(1739300705.303100) can0 1F2#08640000006E030B
(1739300705.305100) can0 1DB#0000AE2A00000179
(1739300705.305100) can0 1DC#B40F8FFD0130C9CE
(1739300705.308100) can0 1DA#0100000000010115
(1739300705.312100) can0 1C2#59
(1739300705.313100) can0 1D4#F70700000206E0B7
(1739300705.314100) can0 1F2#08640000006E0008
(1739300705.314100) can0 50B#000000C00000
(1739300705.315100) can0 1DB#0000AE2A00000273
(1739300705.315100) can0 1DC#B40F8FFD0520C64C
(1739300705.318100) can0 1DA#010000000001021F
(1739300705.322100) can0 1C2#5A
(1739300705.324100) can0 1D4#F70700004206E070
(1739300705.324100) can0 1F2#08640000006E0109
(1739300705.325100) can0 1DB#0000AE2A000003F6
(1739300705.325100) can0 1DC#B40F8FFD08C0CB1B
(1739300705.328100) can0 1DA#010000000001039A
(1739300705.332100) can0 1C2#5B
(1739300705.334100) can0 1D4#F70700008206E0BC
(1739300705.334100) can0 1F2#08640000006E020A
(1739300705.335100) can0 1DB#0000AE2A000000FC
(1739300705.335100) can0 1DC#B40F8FFD0CCCD8E4
(1739300705.338100) can0 1DA#0100000000010090
(1739300705.338100) can0 55A#002F2F005F2F3AE8
(1739300705.342100) can0 1C2#5C
(1739300705.344100) can0 1D4#F7070000C206E07B
(1739300705.344100) can0 1F2#08640000006E030B
(1739300705.345100) can0 1DB#0000AE2A00000179
(1739300705.346100) can0 1DC#B40F8FFD0130C9CE
(1739300705.346100) can0 55B#5D40AA00FFC020F4
(1739300705.346100) can0 5BC#20032026B20621F8
(1739300705.348100) can0 1DA#0100000000010115
(1739300705.352100) can0 1C2#5D
(1739300705.354100) can0 1D4#F70700000206E0B7
(1739300705.355100) can0 1F2#08640000006E0008
(1739300705.355100) can0 5B9#07FF67FF28
(1739300705.356100) can0 1DB#0000AE2A00000273
(1739300705.357100) can0 1DC#B40F8FFD0520C64C
(1739300705.358100) can0 1DA#010000000001021F
(1739300705.362100) can0 1C2#5E
(1739300705.365100) can0 1D4#F70700004206E070
(1739300705.365100) can0 1F2#08640000006E0109
(1739300705.365100) can0 1DB#0000AE2A000003F6
(1739300705.366100) can0 1DC#B40F8FFD08C0CB1B
(1739300705.368100) can0 1DA#010000000001039A
(1739300705.372100) can0 1C2#5F
(1739300705.375100) can0 1D4#F70700008206E0BC
(1739300705.375100) can0 1F2#08640000006E020A
(1739300705.375100) can0 1DB#0000AE2A000000FC
(1739300705.375100) can0 50C#000000035DF4
(1739300705.376100) can0 1DC#B40F8FFD0CCCD8E4
(1739300705.378100) can0 1DA#0100000000010090
(1739300705.380100) can0 54A#9E0070020000002A
(1739300705.381100) can0 54B#0008800004000000
(1739300705.382100) can0 54C#FFFF000000F8FF00
(1739300705.382100) can0 1C2#50
(1739300705.383100) can0 54F#1F0000000BC00C25
(1739300705.385100) can0 1D4#F7070000C206E07B
(1739300705.385100) can0 1DB#0000AE2A00000179
(1739300705.386100) can0 1F2#08640000006E030B
(1739300705.386100) can0 1DC#B40F8FFD0130C9CE
(1739300705.388100) can0 1DA#0100000000010115
(1739300705.392100) can0 1C2#51
(1739300705.395100) can0 1DB#0000AE2A00000273
(1739300705.395100) can0 1D4#F70700000206E0B7
(1739300705.396100) can0 1DC#B40F8FFD0520C64C
(1739300705.396100) can0 1F2#08640000006E0008
(1739300705.396100) can0 380#020418211000000E
(1739300705.396100) can0 50A#0660000C0000
(1739300705.397100) can0 5BF#000033001800000E
(1739300705.398100) can0 1DA#010000000001021F
(1739300705.402100) can0 1C2#52
(1739300705.405100) can0 1DB#0000AE2A000003F6
(1739300705.405100) can0 1DC#B40F8FFD08C0CB1B
(1739300705.406100) can0 1D4#F70700004206E070
(1739300705.406100) can0 1F2#08640000006E0109
(1739300705.408100) can0 1DA#010000000001039A
(1739300705.412100) can0 1C2#53
(1739300705.415100) can0 1DB#0000AE2A000000FC
(1739300705.416100) can0 1DC#B40F8FFD0CCCD8E4
(1739300705.416100) can0 1D4#F70700008206E0BC
(1739300705.416100) can0 1F2#08640000006E020A
(1739300705.416100) can0 50B#000000C00000
(1739300705.418100) can0 1DA#0100000000010090
(1739300705.422100) can0 1C2#54
(1739300705.425100) can0 1DB#0000AE2A00000179
(1739300705.426100) can0 1DC#B40F8FFD0130C9CE
(1739300705.426100) can0 1D4#F7070000C206E07B
(1739300705.426100) can0 1F2#08640000006E030B
(1739300705.428100) can0 1DA#0100000000010115
(1739300705.432100) can0 1C2#55
(1739300705.435100) can0 1DB#0000AE2A00000273
(1739300705.436100) can0 1DC#B40F8FFD0520C64C
(1739300705.436100) can0 1D4#F70700000206E0B7
(1739300705.436100) can0 1F2#08640000006E0008
(1739300705.438100) can0 1DA#010000000001021F
(1739300705.438100) can0 55A#002F2F005F2F3AE8
(1739300705.442100) can0 1C2#56
(1739300705.446100) can0 1DB#0000AE2A000003F6
(1739300705.446100) can0 1DC#B40F8FFD08C0CB1B
(1739300705.446100) can0 55B#5D405500FFC02136
(1739300705.446100) can0 5BC#20032026B20621F8
(1739300705.447100) can0 1D4#F70700004206E070
(1739300705.447100) can0 1F2#08640000006E0109
(1739300705.448100) can0 1DA#010000000001039A
(1739300705.452100) can0 1C2#57
(1739300705.456100) can0 1DB#0000AE2A000000FC
(1739300705.456100) can0 1DC#B40F8FFD0CCCD8E4
(1739300705.457100) can0 1D4#F70700008206E0BC
(1739300705.457100) can0 1F2#08640000006E020A
(1739300705.457100) can0 5C0#404C4C0004E4E100
(1739300705.458100) can0 5EB#E00FFFFFFFFFFFFF
(1739300705.458100) can0 1DA#0100000000010090
(1739300705.462100) can0 1C2#58
(1739300705.465100) can0 1DB#0000AE2A00000179
(1739300705.466100) can0 1DC#B40F8FFD0130C9CE
(1739300705.467100) can0 1D4#F7070000C206E07B
(1739300705.467100) can0 1F2#08640000006E030B
(1739300705.468100) can0 1DA#0100000000010115
(1739300705.473100) can0 1C2#59
(1739300705.475100) can0 1DB#0000AE2A00000273
(1739300705.476100) can0 1DC#B40F8FFD0520C64C
(1739300705.477100) can0 1D4#F70700000206E0B7
(1739300705.477100) can0 1F2#08640000006E0008
(1739300705.478100) can0 50C#00000000B2A6
(1739300705.478100) can0 1DA#010000000001021F
(1739300705.480100) can0 54A#100070020000002A
(1739300705.481100) can0 54B#0008800004000000
(1739300705.482100) can0 54C#FFFF000000F8FF00
(1739300705.482100) can0 1C2#5A
(1739300705.483100) can0 54F#1F0000000B000C25
(1739300705.486100) can0 1DB#0000AE2A000003F6
(1739300705.486100) can0 1DC#B40F8FFD08C0CB1B
(1739300705.488100) can0 1D4#F70700004206E070
(1739300705.488100) can0 1F2#08640000006E0109
(1739300705.488100) can0 1DA#010000000001039A
(1739300705.492100) can0 1C2#5B
(1739300705.495100) can0 380#020418211000001F
(1739300705.496100) can0 1DB#0000AE2A000000FC
(1739300705.496100) can0 5BF#000033001800001F
(1739300705.496100) can0 1DC#B40F8FFD0CCCD8E4
(1739300705.498100) can0 1D4#F70700008206E0BC
(1739300705.498100) can0 1DA#0100000000010090
(1739300705.498100) can0 1F2#08640000006E020A
(1739300705.498100) can0 50A#0600000C0000
(1739300705.502100) can0 1C2#5C
(1739300705.506100) can0 1DB#0000AE2A00000179
(1739300705.506100) can0 1DC#B40F8FFD0130C9CE
(1739300705.508100) can0 1DA#0100000000010115
(1739300705.508100) can0 1D4#F7070000C206E07B
(1739300705.508100) can0 1F2#08640000006E030B
(1739300705.512100) can0 1C2#5D
(1739300705.516100) can0 1DB#0000AE2A00000273
(1739300705.516100) can0 1DC#B40F8FFD0520C64C
(1739300705.518100) can0 1DA#010000000001021F
(1739300705.518100) can0 1D4#F70700000206E0B7
(1739300705.518100) can0 1F2#08640000006E0008
(1739300705.519100) can0 50B#000000C00000
(1739300705.522100) can0 1C2#5E
(1739300705.526100) can0 1DB#0000AE2A000003F6
(1739300705.526100) can0 1DC#B40F8FFD08C0CB1B
(1739300705.528100) can0 1DA#010000000001039A
(1739300705.528100) can0 1D4#F70700004206E070
(1739300705.529100) can0 1F2#08640000006E0109
(1739300705.532100) can0 1C2#5F
(1739300705.536100) can0 1DB#0000AE2A000000FC
(1739300705.536100) can0 1DC#B40F8FFD0CCCD8E4
(1739300705.538100) can0 1DA#0100000000010090
(1739300705.538100) can0 55A#002F2F005F2F3AE8
(1739300705.539100) can0 1D4#F70700008206E0BC
(1739300705.539100) can0 1F2#08640000006E020A
(1739300705.542100) can0 1C2#50
(1739300705.546100) can0 1DB#0000AE2A00000179
(1739300705.546100) can0 1DC#B40F8FFD0130C9CE
(1739300705.546100) can0 55B#5D40AA00FFC0227B
(1739300705.547100) can0 5BC#20032026B20621F8
(1739300705.548100) can0 1DA#0100000000010115
(1739300705.549100) can0 1D4#F7070000C206E07B
(1739300705.549100) can0 1F2#08640000006E030B
(1739300705.553100) can0 1C2#51
(1739300705.557100) can0 1DB#0000AE2A00000273
(1739300705.557100) can0 1DC#B40F8FFD0520C64C
(1739300705.558100) can0 1DA#010000000001021F
(1739300705.559100) can0 1D4#F70700000206E0B7
(1739300705.559100) can0 1F2#08640000006E0008
(1739300705.563100) can0 1C2#52
(1739300705.566100) can0 1DB#0000AE2A000003F6
(1739300705.566100) can0 1DC#B40F8FFD08C0CB1B
(1739300705.568100) can0 1DA#010000000001039A
(1739300705.569100) can0 1D4#F70700004206E070
(1739300705.570100) can0 1F2#08640000006E0109
(1739300705.573100) can0 1C2#53
(1739300705.576100) can0 1DB#0000AE2A000000FC
(1739300705.576100) can0 1DC#B40F8FFD0CCCD8E4
(1739300705.578100) can0 1DA#0100000000010090
(1739300705.580100) can0 54A#9E0070020000002A
(1739300705.580100) can0 1D4#F70700008206E0BC
(1739300705.580100) can0 1F2#08640000006E020A
(1739300705.580100) can0 50C#000000015D5F
(1739300705.581100) can0 54B#0008800004000000
(1739300705.582100) can0 54C#FFFF000000F8FF00
(1739300705.583100) can0 54F#1F0000000B400C25
(1739300705.583100) can0 1C2#54
(1739300705.586100) can0 1DB#0000AE2A00000179
(1739300705.586100) can0 1DC#B40F8FFD0130C9CE
(1739300705.588100) can0 1DA#0100000000010115
(1739300705.590100) can0 1D4#F7070000C206E07B
(1739300705.590100) can0 1F2#08640000006E030B
(1739300705.593100) can0 1C2#55
(1739300705.596100) can0 380#0204182110000020
(1739300705.596100) can0 1DB#0000AE2A00000273
(1739300705.596100) can0 5BF#0000330018000020
(1739300705.596100) can0 1DC#B40F8FFD0520C64C
(1739300705.598100) can0 1DA#010000000001021F
(1739300705.600100) can0 1D4#F70700000206E0B7
(1739300705.600100) can0 1F2#08640000006E0008
(1739300705.601100) can0 50A#0620000C0000
(1739300705.603100) can0 1C2#56
(1739300705.606100) can0 1DB#0000AE2A000003F6
(1739300705.606100) can0 1DC#B40F8FFD08C0CB1B
(1739300705.608100) can0 1DA#010000000001039A
(1739300705.610100) can0 1D4#F70700004206E070
(1739300705.611100) can0 1F2#08640000006E0109
(1739300705.613100) can0 1C2#57
(1739300705.616100) can0 1DB#0000AE2A000000FC
(1739300705.616100) can0 1DC#B40F8FFD0CCCD8E4
(1739300705.618100) can0 1DA#0100000000010090
(1739300705.621100) can0 1D4#F70700008206E0BC
(1739300705.621100) can0 1F2#08640000006E020A
(1739300705.621100) can0 50B#000000C00000
(1739300705.623100) can0 1C2#58
(1739300705.626100) can0 1DB#0000AE2A00000179
(1739300705.626100) can0 1DC#B40F8FFD0130C9CE
(1739300705.628100) can0 1DA#0100000000010115
(1739300705.631100) can0 1D4#F7070000C206E07B
(1739300705.631100) can0 1F2#08640000006E030B
(1739300705.633100) can0 1C2#59
(1739300705.636100) can0 1DB#0000AE2A00000273
(1739300705.636100) can0 1DC#B40F8FFD0520C64C
(1739300705.638100) can0 1DA#010000000001021F
(1739300705.638100) can0 55A#002F2F005F2F3AE8
(1739300705.641100) can0 1D4#F70700000206E0B7
(1739300705.641100) can0 1F2#08640000006E0008
(1739300705.643100) can0 1C2#5A
(1739300705.646100) can0 1DB#0000AE2A000003F6
(1739300705.646100) can0 1DC#B40F8FFD08C0CB1B
(1739300705.647100) can0 55B#5D405500FFC023B9
(1739300705.647100) can0 5BC#20032026B20621F8
(1739300705.648100) can0 1DA#010000000001039A
(1739300705.651100) can0 1D4#F70700004206E070
(1739300705.652100) can0 1F2#08640000006E0109
(1739300705.653100) can0 1C2#5B
(1739300705.657100) can0 1DB#0000AE2A000000FC
(1739300705.658100) can0 1DC#B40F8FFD0CCCD8E4
(1739300705.658100) can0 1DA#0100000000010090
(1739300705.662100) can0 1D4#F70700008206E0BC
(1739300705.662100) can0 1F2#08640000006E020A
(1739300705.663100) can0 1C2#5C
(1739300705.666100) can0 1DB#0000AE2A00000179
(1739300705.666100) can0 1DC#B40F8FFD0130C9CE
(1739300705.668100) can0 1DA#0100000000010115
(1739300705.672100) can0 1D4#F7070000C206E07B
(1739300705.672100) can0 1F2#08640000006E030B
(1739300705.673100) can0 1C2#5D
(1739300705.676100) can0 1DB#0000AE2A00000273
(1739300705.676100) can0 1DC#B40F8FFD0520C64C
(1739300705.678100) can0 1DA#010000000001021F
(1739300705.680100) can0 54A#100070020000002A
(1739300705.681100) can0 54B#0008800004000000
(1739300705.682100) can0 54C#FFFF000000F8FF00
(1739300705.682100) can0 1D4#F70700000206E0B7
(1739300705.682100) can0 1F2#08640000006E0008
(1739300705.683100) can0 50C#00000002B20D
(1739300705.683100) can0 54F#1F0000000B800C25
(1739300705.683100) can0 1C2#5E
(1739300705.686100) can0 1DB#0000AE2A000003F6
(1739300705.686100) can0 1DC#B40F8FFD08C0CB1B
(1739300705.688100) can0 1DA#010000000001039A
(1739300705.692100) can0 1D4#F70700004206E070
(1739300705.693100) can0 1F2#08640000006E0109
(1739300705.693100) can0 1C2#5F
(1739300705.696100) can0 380#0204182110000031
(1739300705.696100) can0 5BF#0000330018000031
(1739300705.696100) can0 1DB#0000AE2A000000FC
(1739300705.696100) can0 1DC#B40F8FFD0CCCD8E4
(1739300705.698100) can0 1DA#0100000000010090
(1739300705.703100) can0 1D4#F70700008206E0BC
(1739300705.703100) can0 1F2#08640000006E020A
(1739300705.703100) can0 1C2#50
(1739300705.703100) can0 50A#0640000C0000
(1739300705.706100) can0 1DB#0000AE2A00000179
(1739300705.706100) can0 1DC#B40F8FFD0130C9CE
(1739300705.708100) can0 1DA#0100000000010115
(1739300705.713100) can0 1D4#F7070000C206E07B
(1739300705.713100) can0 1C2#51
(1739300705.713100) can0 1F2#08640000006E030B
(1739300705.716100) can0 1DB#0000AE2A00000273
(1739300705.716100) can0 1DC#B40F8FFD0520C64C
(1739300705.718100) can0 1DA#010000000001021F
(1739300705.723100) can0 1C2#52
(1739300705.723100) can0 1D4#F70700000206E0B7
(1739300705.723100) can0 1F2#08640000006E0008
(1739300705.724100) can0 50B#000000C00000
(1739300705.726100) can0 1DB#0000AE2A000003F6
(1739300705.726100) can0 1DC#B40F8FFD08C0CB1B
(1739300705.728100) can0 1DA#010000000001039A
(1739300705.733100) can0 1C2#53
(1739300705.733100) can0 1D4#F70700004206E070
(1739300705.734100) can0 1F2#08640000006E0109
(1739300705.736100) can0 1DB#0000AE2A000000FC
(1739300705.736100) can0 1DC#B40F8FFD0CCCD8E4
(1739300705.738100) can0 1DA#0100000000010090
(1739300705.738100) can0 55A#002F2F005F2F3AE8
(1739300705.743100) can0 1C2#54
(1739300705.744100) can0 1D4#F70700008206E0BC
(1739300705.744100) can0 1F2#08640000006E020A
(1739300705.746100) can0 1DB#0000AE2A00000179
(1739300705.747100) can0 1DC#B40F8FFD0130C9CE
(1739300705.747100) can0 55B#5D40AA00FFC020F4
(1739300705.747100) can0 5BC#20032C26B3064194
(1739300705.748100) can0 1DA#0100000000010115
(1739300705.753100) can0 1C2#55
(1739300705.754100) can0 1D4#F7070000C206E07B
(1739300705.754100) can0 1F2#08640000006E030B
(1739300705.757100) can0 1DB#0000AE2A00000273
(1739300705.757100) can0 1DC#B40F8FFD0520C64C
(1739300705.758100) can0 1DA#010000000001021F
(1739300705.763100) can0 1C2#56
(1739300705.764100) can0 1D4#F70700000206E0B7
(1739300705.764100) can0 1F2#08640000006E0008
(1739300705.766100) can0 1DB#0000AE2A000003F6
(1739300705.767100) can0 1DC#B40F8FFD08C0CB1B
(1739300705.768100) can0 1DA#010000000001039A
(1739300705.773100) can0 1C2#57
(1739300705.774100) can0 1D4#F70700004206E070
(1739300705.775100) can0 1F2#08640000006E0109
(1739300705.776100) can0 1DB#0000AE2A000000FC
(1739300705.776100) can0 1DC#B40F8FFD0CCCD8E4
(1739300705.778100) can0 1DA#0100000000010090
(1739300705.780100) can0 54A#9E0070020000002A
(1739300705.781100) can0 54B#0008800004000000
(1739300705.782100) can0 54C#FFFF000000F8FF00
(1739300705.783100) can0 54F#1F0000000BC00C25
(1739300705.783100) can0 1C2#58
(1739300705.785100) can0 1D4#F70700008206E0BC
(1739300705.785100) can0 1F2#08640000006E020A
(1739300705.785100) can0 50C#000000035DF4
(1739300705.786100) can0 1DB#0000AE2A00000179
(1739300705.787100) can0 1DC#B40F8FFD0130C9CE
(1739300705.788100) can0 1DA#0100000000010115
(1739300705.793100) can0 1C2#59
(1739300705.795100) can0 1D4#F7070000C206E07B
(1739300705.795100) can0 1F2#08640000006E030B
(1739300705.795100) can0 5A9#FFFFFC1083800000
(1739300705.796100) can0 380#020418211000000E
(1739300705.796100) can0 5BF#000033001800000E
(1739300705.796100) can0 1DB#0000AE2A00000273
(1739300705.797100) can0 1DC#B40F8FFD0520C64C
(1739300705.798100) can0 1DA#010000000001021F
(1739300705.803100) can0 1C2#5A
(1739300705.805100) can0 1D4#F70700000206E0B7
(1739300705.805100) can0 1F2#08640000006E0008
(1739300705.806100) can0 50A#0660000C0000
(1739300705.807100) can0 1DB#0000AE2A000003F6
(1739300705.807100) can0 1DC#B40F8FFD08C0CB1B
(1739300705.808100) can0 1DA#010000000001039A
(1739300705.813100) can0 1C2#5B
(1739300705.815100) can0 1D4#F70700004206E070
(1739300705.815100) can0 1F2#08640000006E0109
(1739300705.816100) can0 1DB#0000AE2A000000FC
(1739300705.817100) can0 1DC#B40F8FFD0CCCD8E4
(1739300705.818100) can0 1DA#0100000000010090
(1739300705.823100) can0 1C2#5C
(1739300705.826100) can0 1D4#F70700008206E0BC
(1739300705.826100) can0 1F2#08640000006E020A
(1739300705.826100) can0 50B#000000C00000
(1739300705.826100) can0 1DB#0000AE2A00000179
(1739300705.827100) can0 1DC#B40F8FFD0130C9CE
(1739300705.828100) can0 1DA#0100000000010115
(1739300705.833100) can0 1C2#5D
(1739300705.836100) can0 1D4#F7070000C206E07B
(1739300705.836100) can0 1F2#08640000006E030B
(1739300705.836100) can0 1DB#0000AE2A00000273
(1739300705.837100) can0 1DC#B40F8FFD0520C64C
(1739300705.838100) can0 1DA#010000000001021F
(1739300705.838100) can0 55A#002F2F005F2F3AE8
(1739300705.843100) can0 1C2#5E
(1739300705.846100) can0 1D4#F70700000206E0B7
(1739300705.846100) can0 1F2#08640000006E0008
(1739300705.847100) can0 1DB#0000AE2A000003F6
(1739300705.847100) can0 1DC#B40F8FFD08C0CB1B
(1739300705.848100) can0 55B#5D405500FFC02136
(1739300705.848100) can0 1DA#010000000001039A
(1739300705.848100) can0 5BC#20032C26B3064194
(1739300705.853100) can0 1C2#5F
(1739300705.856100) can0 1D4#F70700004206E070
(1739300705.857100) can0 1F2#08640000006E0109
(1739300705.858100) can0 1DA#0100000000010090
(1739300705.858100) can0 1DB#0000AE2A000000FC
(1739300705.858100) can0 1DC#B40F8FFD0CCCD8E4
(1739300705.863100) can0 1C2#50
(1739300705.866100) can0 1DB#0000AE2A00000179
(1739300705.867100) can0 1D4#F70700008206E0BC
(1739300705.867100) can0 1DC#B40F8FFD0130C9CE
(1739300705.867100) can0 1F2#08640000006E020A
(1739300705.867100) can0 5B9#07FF67FF28
(1739300705.868100) can0 1DA#0100000000010115
(1739300705.873100) can0 1C2#51
(1739300705.876100) can0 1DB#0000AE2A00000273
(1739300705.877100) can0 1D4#F7070000C206E07B
(1739300705.877100) can0 1DC#B40F8FFD0520C64C
(1739300705.877100) can0 1F2#08640000006E030B
(1739300705.878100) can0 1DA#010000000001021F
(1739300705.880100) can0 54A#100070020000002A
(1739300705.881100) can0 54B#0008800004000000
(1739300705.882100) can0 54C#FFFF000000F8FF00
(1739300705.883100) can0 54F#1F0000000B000C25
(1739300705.883100) can0 1C2#52
(1739300705.887100) can0 1DB#0000AE2A000003F6
(1739300705.887100) can0 1DC#B40F8FFD08C0CB1B
(1739300705.887100) can0 1D4#F70700000206E0B7
(1739300705.887100) can0 1F2#08640000006E0008
(1739300705.888100) can0 50C#00000000B2A6
(1739300705.888100) can0 1DA#010000000001039A
(1739300705.893100) can0 1C2#53
(1739300705.896100) can0 380#020418211000001F
(1739300705.896100) can0 5BF#000033001800001F
(1739300705.897100) can0 1DB#0000AE2A000000FC
(1739300705.897100) can0 1DC#B40F8FFD0CCCD8E4
(1739300705.897100) can0 1D4#F70700004206E070
(1739300705.898100) can0 1F2#08640000006E0109
(1739300705.898100) can0 1DA#0100000000010090
(1739300705.903100) can0 1C2#54
(1739300705.907100) can0 1DB#0000AE2A00000179
(1739300705.907100) can0 1DC#B40F8FFD0130C9CE
(1739300705.907100) can0 1D4#F70700008206E0BC
(1739300705.908100) can0 1F2#08640000006E020A
(1739300705.908100) can0 1DA#0100000000010115
(1739300705.908100) can0 50A#0600000C0000
(1739300705.913100) can0 1C2#55
(1739300705.917100) can0 1DB#0000AE2A00000273
(1739300705.917100) can0 1DC#B40F8FFD0520C64C
(1739300705.918100) can0 1D4#F7070000C206E07B
(1739300705.918100) can0 1DA#010000000001021F
(1739300705.918100) can0 1F2#08640000006E030B
(1739300705.923100) can0 1C2#56
(1739300705.927100) can0 1DB#0000AE2A000003F6
(1739300705.927100) can0 1DC#B40F8FFD08C0CB1B
(1739300705.928100) can0 1DA#010000000001039A
(1739300705.928100) can0 1D4#F70700000206E0B7
(1739300705.928100) can0 1F2#08640000006E0008
(1739300705.928100) can0 50B#000000C00000
(1739300705.933100) can0 1C2#57
(1739300705.937100) can0 1DB#0000AE2A000000FC
(1739300705.937100) can0 1DC#B40F8FFD0CCCD8E4
(1739300705.938100) can0 1DA#0100000000010090
(1739300705.938100) can0 55A#002F2F005F2F3AE8
(1739300705.938100) can0 1D4#F70700004206E070
(1739300705.938100) can0 1F2#08640000006E0109
(1739300705.943100) can0 1C2#58
(1739300705.947100) can0 1DB#0000AE2A00000179
(1739300705.947100) can0 1DC#B40F8FFD0130C9CE
(1739300705.947100) can0 55B#5D40AA00FFC0227B
(1739300705.948100) can0 1DA#0100000000010115
(1739300705.948100) can0 5BC#20032C26B3064194
(1739300705.948100) can0 1D4#F70700008206E0BC
(1739300705.949100) can0 1F2#08640000006E020A
(1739300705.953100) can0 1C2#59
(1739300705.960100) can0 1DA#010000000001021F
(1739300705.962100) can0 1DB#0000AE2A00000273
(1739300705.962100) can0 1DC#B40F8FFD0520C64C
(1739300705.962100) can0 1D4#F7070000C206E07B
(1739300705.962100) can0 1F2#08640000006E030B
(1739300705.962100) can0 5C0#C04C4C000454E100
(1739300705.963100) can0 5EB#E00FFFFFFFFFFFFF
(1739300705.963100) can0 56E#4E
(1739300705.963100) can0 1C2#5A
(1739300705.967100) can0 1DB#0000AE2A000003F6
(1739300705.967100) can0 1DC#B40F8FFD08C0CB1B
(1739300705.968100) can0 1DA#010000000001039A
(1739300705.969100) can0 1D4#F70700000206E0B7
(1739300705.969100) can0 1F2#08640000006E0008
(1739300705.973100) can0 1C2#5B
(1739300705.977100) can0 1DB#0000AE2A000000FC
(1739300705.977100) can0 1DC#B40F8FFD0CCCD8E4
(1739300705.978100) can0 1DA#0100000000010090
(1739300705.979100) can0 1D4#F70700044246E0B5
(1739300705.979100) can0 1F2#086420000071010F
(1739300705.980100) can0 54A#9E0070020000002A
(1739300705.981100) can0 54B#0008800004000000
(1739300705.982100) can0 54C#FFFF000000F8FF00
(1739300705.983100) can0 54F#1F0000000B400C25
(1739300705.984100) can0 1C2#5C
(1739300705.987100) can0 1DB#0000AE2A00000179
(1739300705.987100) can0 1DC#B43F8503E130C913
(1739300705.988100) can0 1DA#0100000000010115
(1739300705.989100) can0 1D4#F70700048246E079
(1739300705.990100) can0 1F2#0864200000710200
(1739300705.990100) can0 50C#000000015D5F
(1739300705.994100) can0 1C2#5D
(1739300705.996100) can0 380#020418001000002D
(1739300705.996100) can0 5BF#000033004000002B
(1739300705.997100) can0 1DB#0000AE2A00000273
(1739300705.997100) can0 1DC#B43F8503E520C691
(1739300705.998100) can0 1DA#010000000001021F
(1739300706.000100) can0 1D4#F7070004C246E0BE
(1739300706.000100) can0 1F2#0864200000710301
(1739300706.004100) can0 1C2#5E
(1739300706.007100) can0 1DB#0000AE2A000003F6
(1739300706.007100) can0 1DC#B43F8503E8C0CBC6
(1739300706.008100) can0 1DA#010000000001039A
(1739300706.010100) can0 1D4#F70700040246E072
(1739300706.010100) can0 1F2#086420000071000E
(1739300706.010100) can0 50A#0620000C0000
(1739300706.014100) can0 1C2#5F
(1739300706.017100) can0 1DB#0000AE2A000000FC
(1739300706.017100) can0 1DC#B43F8503ECCCD839
(1739300706.018100) can0 1DA#0100000000010090
(1739300706.020100) can0 1D4#F70700044246E0B5
(1739300706.020100) can0 1F2#086420000071010F
(1739300706.024100) can0 1C2#50
(1739300706.027100) can0 1DB#0000AE2A00000179
(1739300706.027100) can0 1DC#B43F8503E130C913
(1739300706.028100) can0 1DA#0100000000010115
(1739300706.030100) can0 1D4#F70700048246E079
(1739300706.031100) can0 1F2#0864200000710200
(1739300706.031100) can0 50B#000000C00000
(1739300706.034100) can0 1C2#51
(1739300706.037100) can0 1DB#0000AE2A00000273
(1739300706.037100) can0 1DC#B43F8503E520C691
(1739300706.038100) can0 1DA#010000000001021F
(1739300706.038100) can0 55A#002F2F005F2F3AE8
(1739300706.041100) can0 1D4#F7070004C246E0BE
(1739300706.041100) can0 1F2#0864200000710301
(1739300706.044100) can0 1C2#52
(1739300706.047100) can0 1DB#0000AE2A000003F6
(1739300706.047100) can0 1DC#B43F8503E8C0CBC6
(1739300706.048100) can0 55B#5D405500FFC023B9
(1739300706.048100) can0 1DA#010000000001039A
(1739300706.048100) can0 5BC#20032C26B3064194
(1739300706.051100) can0 1D4#F70700040246E072
(1739300706.051100) can0 1F2#086420000071000E
(1739300706.054100) can0 1C2#53
(1739300706.058100) can0 1DA#0100000000010090
(1739300706.059100) can0 1DB#0000AE2A000000FC
(1739300706.059100) can0 1DC#B43F8503ECCCD839
(1739300706.061100) can0 1D4#F70700044246E0B5
(1739300706.061100) can0 1F2#086420000071010F
(1739300706.063100) can0 56E#4E
(1739300706.064100) can0 1C2#54
(1739300706.067100) can0 1DB#0000AE2A00000179
(1739300706.067100) can0 1DC#B43F8503E130C913
(1739300706.068100) can0 1DA#0100000000010115
(1739300706.071100) can0 1D4#F70700048246E079
(1739300706.072100) can0 1F2#0864200000710200
(1739300706.074100) can0 1C2#55
(1739300706.077100) can0 1DB#0000AE2A00000273
(1739300706.077100) can0 1DC#B43F8503E520C691
(1739300706.078100) can0 1DA#010000000001021F
(1739300706.080100) can0 54A#100070020000002A
(1739300706.081100) can0 54B#0008800004000000
(1739300706.082100) can0 1D4#F7070004C246E0BE
(1739300706.082100) can0 1F2#0864200000710301
(1739300706.082100) can0 54C#FFFF000000F8FF00
(1739300706.083100) can0 54F#1F0000000B800C25
(1739300706.084100) can0 1C2#56
(1739300706.087100) can0 1DB#0000AE2A000003F6
(1739300706.087100) can0 1DC#B43F8503E8C0CBC6
(1739300706.088100) can0 1DA#010000000001039A
(1739300706.092100) can0 1D4#F70700040246E072
(1739300706.092100) can0 1F2#086420000071000E
(1739300706.092100) can0 50C#00000002B20D
(1739300706.094100) can0 1C2#57
(1739300706.096100) can0 380#020418001000003E
(1739300706.096100) can0 5BF#000033004000003C
(1739300706.097100) can0 1DB#0000AE2A000000FC
(1739300706.098100) can0 1DC#B43F8503ECCCD839
(1739300706.098100) can0 1DA#0100000000010090
(1739300706.102100) can0 1D4#F70700044246E0B5
(1739300706.102100) can0 1F2#086420000071010F
(1739300706.104100) can0 1C2#58
(1739300706.107100) can0 1DB#0000AE2A00000179
(1739300706.108100) can0 1DC#B43F8503E130C913
(1739300706.108100) can0 1DA#0100000000010115
(1739300706.112100) can0 1D4#F70700048246E079
(1739300706.113100) can0 1F2#0864200000710200
(1739300706.113100) can0 50A#0640000C0000
(1739300706.114100) can0 1C2#59
(1739300706.117100) can0 1DB#0000AE2A00000273
(1739300706.117100) can0 1DC#B43F8503E520C691
(1739300706.118100) can0 1DA#010000000001021F
(1739300706.123100) can0 1D4#F7070004C246E0BE
(1739300706.123100) can0 1F2#0864200000710301
(1739300706.124100) can0 1C2#5A
(1739300706.127100) can0 1DB#0000AE2A000003F6
(1739300706.128100) can0 1DC#B43F8503E8C0CBC6
(1739300706.128100) can0 1DA#010000000001039A
(1739300706.133100) can0 1D4#F70700040246E072
(1739300706.133100) can0 1F2#086420000072000F
(1739300706.133100) can0 50B#000000C00000
(1739300706.134100) can0 1C2#5B
(1739300706.137100) can0 1DB#0000AE2A000000FC
(1739300706.138100) can0 1DC#B43F8503ECCCD839
(1739300706.138100) can0 1DA#0100000000010090
(1739300706.138100) can0 55A#002F2F005F2F3AE8
(1739300706.143100) can0 1D4#F70700044246E0B5
(1739300706.143100) can0 1F2#0864200000720100
(1739300706.144100) can0 1C2#5C
(1739300706.147100) can0 1DB#0000AE2A00000179
(1739300706.148100) can0 1DA#0100000000010115
(1739300706.148100) can0 1DC#B43F8503E130C913
(1739300706.148100) can0 55B#5D40AA00FFC020F4
(1739300706.149100) can0 5BC#20032C26B3064194
(1739300706.153100) can0 1D4#F70700048246E079
(1739300706.154100) can0 1F2#0864200000720201
(1739300706.154100) can0 1C2#5D
(1739300706.158100) can0 1DA#010000000001021F
(1739300706.160100) can0 1DB#0000AE2A00000273
(1739300706.160100) can0 1DC#B43F8503E520C691
(1739300706.163100) can0 56E#4E
(1739300706.164100) can0 1D4#F7070004C246E0BE
(1739300706.164100) can0 1F2#0864200000730303
(1739300706.164100) can0 1C2#5E
(1739300706.167100) can0 1DB#0000AE2A000003F6
(1739300706.168100) can0 1DC#B43F8503E8C0CBC6
(1739300706.168100) can0 1DA#010000000001039A
(1739300706.174100) can0 1D4#F70700040246E072
(1739300706.174100) can0 1F2#0864200000730000
(1739300706.174100) can0 1C2#5F
(1739300706.177100) can0 1DB#0000AE2A000000FC
(1739300706.178100) can0 1DC#B43F8503ECCCD839
(1739300706.178100) can0 1DA#0100000000010090
(1739300706.180100) can0 54A#9E0070020000002A
(1739300706.181100) can0 54B#0008800004000000
(1739300706.182100) can0 54C#FFFF000000F8FF00
(1739300706.183100) can0 54F#1F0000000BC00C25
(1739300706.184100) can0 1D4#F70700044246E0B5
(1739300706.184100) can0 1C2#50
(1739300706.184100) can0 1F2#0864200000730101
(1739300706.187100) can0 1DB#0000AE2A00000179
(1739300706.188100) can0 1DA#0100000000010115
(1739300706.188100) can0 1DC#B43F8503E130C913
(1739300706.194100) can0 1C2#51
(1739300706.194100) can0 1D4#F70700048246E079
(1739300706.195100) can0 1F2#0864200000730202
(1739300706.195100) can0 50C#000000035DF4
(1739300706.196100) can0 380#0204180010022403
(1739300706.196100) can0 5BF#0000330040000009
(1739300706.197100) can0 1DB#0000AE2A00000273
(1739300706.198100) can0 1DC#B43F8503E520C691
(1739300706.198100) can0 1DA#010000000001021F
(1739300706.204100) can0 1C2#52
(1739300706.205100) can0 1D4#F7070004C246E0BE
(1739300706.205100) can0 1F2#0864200000730303
(1739300706.208100) can0 1DB#0000AE2A000003F6
(1739300706.208100) can0 1DA#010000000001039A
(1739300706.208100) can0 1DC#B43F8503E8C0CBC6
(1739300706.214100) can0 1C2#53
(1739300706.215100) can0 1D4#F70700040246E072
(1739300706.215100) can0 1F2#0864200000730000
(1739300706.215100) can0 50A#0660000C0000
(1739300706.218100) can0 1DB#0000AE2A000000FC
(1739300706.218100) can0 1DA#0100000000010090
(1739300706.218100) can0 1DC#B43F8503ECCCD839
(1739300706.224100) can0 1C2#54
(1739300706.225100) can0 1D4#F70700044246E0B5
(1739300706.225100) can0 1F2#0864200000730101
(1739300706.228100) can0 1DB#0000AE2A00000179
(1739300706.228100) can0 1DA#0100000000010115
(1739300706.228100) can0 1DC#B43F8503E130C913
(1739300706.234100) can0 1C2#55
(1739300706.235100) can0 1D4#F70700048246E079
(1739300706.235100) can0 1F2#0864200000730202
(1739300706.236100) can0 50B#000000C00000
(1739300706.237100) can0 1DB#0000AE2A00000273
(1739300706.238100) can0 1DA#010000000001021F
(1739300706.238100) can0 1DC#B43F8503E520C691
(1739300706.238100) can0 55A#002F2F005F2F3AE8
(1739300706.244100) can0 1C2#56
(1739300706.245100) can0 1D4#F7070004C346E045
(1739300706.246100) can0 1F2#0864200000750305
(1739300706.248100) can0 1DB#0000AE2A000003F6
(1739300706.248100) can0 1DA#010000000001039A
(1739300706.248100) can0 1DC#B43F8503E8C0CBC6
(1739300706.248100) can0 55B#5D405500FFC02136
(1739300706.249100) can0 5BC#20032026B2040194
(1739300706.254100) can0 1C2#57
(1739300706.256100) can0 1D4#F70700040346E089
(1739300706.256100) can0 1F2#0864200000750002
(1739300706.258100) can0 1DA#0100000000010090
(1739300706.259100) can0 1DB#0000AE2A000000FC
(1739300706.260100) can0 1DC#B43F8503ECCCD839
(1739300706.263100) can0 56E#4E
(1739300706.264100) can0 1C2#58
(1739300706.266100) can0 1D4#F70700044346E04E
(1739300706.266100) can0 1F2#0864200000750103
(1739300706.268100) can0 1DB#0000AE2A00000179
(1739300706.268100) can0 1DA#020000000001011C
(1739300706.268100) can0 1DC#B43F8503E130C913
(1739300706.275100) can0 1C2#59
(1739300706.276100) can0 1D4#F70700048346E082
(1739300706.276100) can0 1F2#0864200000750204
(1739300706.278100) can0 1DB#FFE0AE2A00000233
(1739300706.278100) can0 1DA#1400000000010274
(1739300706.278100) can0 1DC#B43F8503E520C691
(1739300706.280100) can0 54A#100070020000002A
(1739300706.281100) can0 54B#0008800004000000
(1739300706.282100) can0 54C#FFFF000000F8FF00
(1739300706.283100) can0 54F#1F0000000B000C25
(1739300706.284100) can0 1C2#5A
(1739300706.287100) can0 1D4#F7070004C346E045
(1739300706.287100) can0 1F2#0864200000750305
(1739300706.288100) can0 1DA#2C00000000010359
(1739300706.288100) can0 1DB#FFA0AE2A00000314
(1739300706.288100) can0 1DC#B43F8503E8C0CBC6
(1739300706.294100) can0 1C2#5B
(1739300706.296100) can0 380#0204180010044014
(1739300706.296100) can0 5BF#000033004000001A
(1739300706.297100) can0 1D4#F70700040346E089
(1739300706.297100) can0 1F2#0864200000750002
(1739300706.297100) can0 50C#00000000B2A6
(1739300706.298100) can0 1DB#FF80AE2A0000004F
(1739300706.298100) can0 1DA#3E0000000001002D
(1739300706.298100) can0 1DC#B43F8503ECCCD839
(1739300706.304100) can0 1C2#5C
(1739300706.307100) can0 1D4#F70700044346E04E
(1739300706.307100) can0 1F2#0864200000750103
(1739300706.307100) can0 5A9#FFFFFC1083800000
(1739300706.308100) can0 1DA#5700000000010132
(1739300706.308100) can0 1DB#FF60AE2A000001F8
(1739300706.308100) can0 1DC#B43F8503E130C913
(1739300706.314100) can0 1C2#5D
(1739300706.317100) can0 1D4#F70700048346E082
(1739300706.317100) can0 1F2#0864200000750204
(1739300706.318100) can0 1DA#6E00000000010297
(1739300706.318100) can0 1DB#FF40AE2A000002A3
(1739300706.318100) can0 50A#0600000C0000
(1739300706.318100) can0 1DC#B43F8503E520C691
(1739300706.324100) can0 1C2#5E
(1739300706.328100) can0 1D4#F7070004C346E045
(1739300706.328100) can0 1F2#0864200000750305
(1739300706.328100) can0 1DA#7A0000000001037E
(1739300706.328100) can0 1DB#FF40AE2A00000326
(1739300706.329100) can0 1DC#B43F8503E8C0CBC6
(1739300706.334100) can0 1C2#5F
(1739300706.338100) can0 1DA#8800000000010025
(1739300706.338100) can0 1D4#F70700040346E089
(1739300706.338100) can0 1DB#FF20AE2A000000DF
(1739300706.338100) can0 1F2#0864200000750002
(1739300706.339100) can0 1DC#B43F8503ECCCD839
(1739300706.339100) can0 50B#000000C00000
(1739300706.339100) can0 55A#002F2F005F2F42E8
(1739300706.344100) can0 1C2#50
(1739300706.348100) can0 1DA#92000000000101E6
(1739300706.348100) can0 1D4#F70700044346E04E
(1739300706.348100) can0 1DB#FF20AE2A0000015A
(1739300706.348100) can0 1F2#0864200000750103
(1739300706.349100) can0 1DC#B43F8503E130C913
(1739300706.349100) can0 55B#5D40AA00FFC0227B
(1739300706.349100) can0 5BC#20032026B2040194
(1739300706.355100) can0 1C2#51
(1739300706.358100) can0 1DA#9A000000000102D4
(1739300706.358100) can0 1D4#F70700048346E082
(1739300706.358100) can0 1F2#0864200000750204
(1739300706.360100) can0 1DB#FF20AE2A00000250
(1739300706.360100) can0 1DC#B43F8503E520C691
(1739300706.363100) can0 56E#4E
(1739300706.364100) can0 1C2#52
(1739300706.368100) can0 1DA#9F0000000001034A
(1739300706.368100) can0 1DB#FF20ADEA0000036E
(1739300706.368100) can0 1DC#B43F8503E8C0CBC6
(1739300706.368100) can0 1D4#F7070004C346E045
(1739300706.369100) can0 1F2#0864200000750305
(1739300706.374100) can0 1C2#53
(1739300706.378100) can0 1DA#A2000000000100F3
(1739300706.378100) can0 1DB#FF40ADEA00000097
(1739300706.378100) can0 1DC#B43F8503ECCCD839
(1739300706.379100) can0 1D4#F70700040346E089
(1739300706.379100) can0 1F2#0864200000750002
(1739300706.379100) can0 5B9#29CC61F828
(1739300706.380100) can0 54A#9E0070020000002A
(1739300706.381100) can0 54B#0008800004000000
(1739300706.382100) can0 54C#FFFF000000F8FF00
(1739300706.383100) can0 54F#1F0000000B400C25
(1739300706.384100) can0 1C2#54
(1739300706.388100) can0 1DA#A500000000010163
(1739300706.388100) can0 1DB#FF80AE2A000001CA
(1739300706.388100) can0 1DC#B43F8503E130C913
(1739300706.389100) can0 1D4#F70700044346E04E
(1739300706.389100) can0 1F2#0864200000750103
(1739300706.395100) can0 1C2#55
(1739300706.396100) can0 380#020418001004C421
(1739300706.397100) can0 5BF#000033004000002B
(1739300706.398100) can0 1DA#A80000000001024A
(1739300706.398100) can0 1DB#FFA0AE2A00000291
(1739300706.398100) can0 1DC#B43F8503E520C691
(1739300706.399100) can0 1D4#F70700048346E082
(1739300706.399100) can0 1F2#0864200000750204
(1739300706.400100) can0 50C#000000015D5F
(1739300706.404100) can0 1C2#56
(1739300706.408100) can0 1DA#AA000000000103C1
(1739300706.408100) can0 1DB#FFC0AE2A000003E7
(1739300706.408100) can0 1DC#B43F8503E8C0CBC6
(1739300706.409100) can0 1D4#F7070004C346E045
(1739300706.410100) can0 1F2#0864200000750305
(1739300706.415100) can0 1C2#57
(1739300706.418100) can0 1DA#AB000000000100CC
(1739300706.418100) can0 1DB#FFC0AE2A000000ED
(1739300706.418100) can0 1DC#B43F8503ECCCD839
(1739300706.420100) can0 1D4#F70700040346E089
(1739300706.420100) can0 1F2#0864200000750002
(1739300706.420100) can0 50A#0620000C0000
(1739300706.425100) can0 1C2#58
(1739300706.426100) can0 380#120418001004D434
(1739300706.408100) can0 1DA#AA000000000103C1
(1739300706.408100) can0 1DB#FFC0AE2A000003E7
(1739300706.408100) can0 1DC#B43F8503E8C0CBC6
(1739300706.409100) can0 1D4#F7070004C346E045
(1739300706.410100) can0 1F2#0864200000750305
(1739300706.415100) can0 1C2#57
(1739300706.438100) can0 1DA#AC00000000010256
(1739300706.438100) can0 55A#002F2F005F2F42E8
(1739300706.438100) can0 1DB#FFE0AE2A00000233
(1739300706.438100) can0 1DC#B43F8503E520C691
(1739300706.440100) can0 1D4#F70700048346E082
(1739300706.440100) can0 1F2#0864200000750204
(1739300706.441100) can0 50B#000000C00000
(1739300706.445100) can0 1C2#5A
(1739300706.448100) can0 1DA#AD000000000103D4
(1739300706.448100) can0 1DB#0000AE2A000003F6
(1739300706.449100) can0 1DC#B43F8503E8C0CBC6
(1739300706.449100) can0 55B#5D405500FFC023B9
(1739300706.449100) can0 5BC#20032026B2040194
(1739300706.450100) can0 1D4#F7070004C346E045
(1739300706.451100) can0 1F2#0864200000750305
(1739300706.455100) can0 1C2#5B
(1739300706.458100) can0 1DA#AE000000000100D7
(1739300706.458100) can0 1DB#0000AE2A000000FC
(1739300706.459100) can0 1DC#B43F8503ECCCD839
(1739300706.459100) can0 5C0#804C4C0004A0E100
(1739300706.460100) can0 5EB#E00FFFFFFFFFFFFF
(1739300706.461100) can0 1D4#F70700040346E089
(1739300706.461100) can0 1F2#0864200000750002
(1739300706.463100) can0 56E#4E
(1739300706.465100) can0 1C2#5C
(1739300706.468100) can0 1DA#AE00000000010152
(1739300706.468100) can0 1DB#0000AE2A00000179
(1739300706.469100) can0 1DC#B43F8503E130C913
(1739300706.471100) can0 1D4#F70700044346E04E
(1739300706.471100) can0 1F2#0864200000750103
(1739300706.475100) can0 1C2#5D
(1739300706.478100) can0 1DA#AE00000000010258
(1739300706.478100) can0 1DB#0000AE2A00000273
(1739300706.479100) can0 1DC#B43F8503E520C691
(1739300706.480100) can0 54A#100070020000002A
(1739300706.481100) can0 1D4#F70700048346E082
(1739300706.481100) can0 1F2#0864200000750204
(1739300706.482100) can0 54B#0008800004000000
(1739300706.482100) can0 54C#FFFF000000F8FF00
(1739300706.483100) can0 54F#1F0000000B800C25
(1739300706.485100) can0 1C2#5E
(1739300706.488100) can0 1DA#AE000000000103DD
(1739300706.488100) can0 1DB#0000AE2A000003F6
(1739300706.489100) can0 1DC#B43F8503E8C0CBC6
(1739300706.492100) can0 1D4#F7070004C346E045
(1739300706.492100) can0 1F2#0864200000750305
(1739300706.495100) can0 1C2#5F
(1739300706.496100) can0 380#120418001004F00F
(1739300706.497100) can0 5BF#001A330040000037
(1739300706.498100) can0 1DA#AF000000000100D0
(1739300706.498100) can0 1DB#0000AE2A000000FC
(1739300706.499100) can0 1DC#B43F8503ECCCD839
(1739300706.502100) can0 1D4#F70700040346E089
(1739300706.502100) can0 1F2#0864200000750002
(1739300706.502100) can0 50C#00000002B20D
(1739300706.505100) can0 1C2#50
(1739300706.508100) can0 1DA#AF00000000010155
(1739300706.509100) can0 1DB#0000AE2A00000179
(1739300706.509100) can0 1DC#B43F8503E130C913
(1739300706.512100) can0 1D4#F70700044346E04E
(1739300706.512100) can0 1F2#0864200000750103
(1739300706.515100) can0 1C2#51
(1739300706.518100) can0 1DA#AF00080000010276
(1739300706.518100) can0 1DB#0000AE2A00000273
(1739300706.519100) can0 1DC#B43F8503E520C691
(1739300706.522100) can0 1D4#F70700048346E082
(1739300706.522100) can0 1F2#0864200000750204
(1739300706.523100) can0 50A#0640000C0000
(1739300706.525100) can0 1C2#52
(1739300706.528100) can0 1DA#AF000800000103F3
(1739300706.529100) can0 1DB#0000AE2A000003F6
(1739300706.529100) can0 1DC#B43F8503E8C0CBC6
(1739300706.532100) can0 1D4#F7070004C346E045
(1739300706.533100) can0 1F2#0864200000750305
(1739300706.535100) can0 1C2#53
(1739300706.538100) can0 1DA#AF000800000100F9
(1739300706.538100) can0 55A#002F2F005F2F4AE8
(1739300706.539100) can0 1DB#0000AE2A000000FC
(1739300706.539100) can0 1DC#B43F8503ECCCD839
(1739300706.543100) can0 1D4#F70700040346E089
(1739300706.543100) can0 1F2#0864200000750002
(1739300706.543100) can0 50B#000000C00000
(1739300706.545100) can0 1C2#54
(1739300706.548100) can0 1DA#AF0008000001017C
(1739300706.549100) can0 1DB#0000AE2A00000179
(1739300706.549100) can0 1DC#B43F8503E130C913
(1739300706.549100) can0 55B#5D40AA00FFC020F4
(1739300706.549100) can0 5BC#20032026B2040194
(1739300706.553100) can0 1D4#F70700044346E04E
(1739300706.553100) can0 1F2#006420000076010C
(1739300706.555100) can0 1C2#55
(1739300706.558100) can0 1DA#AF00080000010276
(1739300706.558100) can0 1DB#0000AE2A00000273
(1739300706.559100) can0 1DC#B43F8503E520C691
(1739300706.563100) can0 56E#4E
(1739300706.563100) can0 1D4#F70700048346E082
(1739300706.563100) can0 1F2#006420000076020D
(1739300706.565100) can0 1C2#56
(1739300706.568100) can0 1DA#AF000800000103F3
(1739300706.568100) can0 1DB#0000AE2A000003F6
(1739300706.569100) can0 1DC#B43F8503E8C0CBC6
(1739300706.573100) can0 1D4#F7070004C346E045
(1739300706.574100) can0 1F2#006420000076030E
(1739300706.575100) can0 1C2#57
(1739300706.578100) can0 1DA#AF000800000100F9
(1739300706.579100) can0 1DB#0000AE2A000000FC
(1739300706.579100) can0 1DC#B43F8503ECCCD839
(1739300706.580100) can0 54A#9E0070020000002A
(1739300706.581100) can0 54B#0008800004000000
(1739300706.582100) can0 54C#FFFF000000F8FF00
(1739300706.583100) can0 54F#1F0000000BC00C25
(1739300706.584100) can0 1D4#F70700040346E089
(1739300706.584100) can0 1F2#006420000076000B
(1739300706.585100) can0 1C2#58
(1739300706.588100) can0 1DA#AF0008000001017C
(1739300706.589100) can0 1DB#0000AE2A00000179
(1739300706.589100) can0 1DC#B43F8503E130C913
(1739300706.594100) can0 1D4#F70700044346E04E
(1739300706.594100) can0 1F2#006420000076010C
(1739300706.595100) can0 1C2#59
(1739300706.596100) can0 380#1204180010050012
(1739300706.597100) can0 5BF#004C330040000009
(1739300706.598100) can0 1DA#AF00080000010276
(1739300706.598100) can0 1DB#0000AE2A00000273
(1739300706.599100) can0 1DC#B43F8503E520C691
(1739300706.604100) can0 1D4#F70700048346E082
(1739300706.604100) can0 1F2#006420000076020D
(1739300706.605100) can0 50C#000000035DF4
(1739300706.605100) can0 1C2#5A
(1739300706.608100) can0 1DA#AF000800000103F3
(1739300706.609100) can0 1DB#0000AE2A000003F6
(1739300706.609100) can0 1DC#B43F8503E8C0CBC6
(1739300706.614100) can0 1D4#F7070004C346E045
(1739300706.615100) can0 1F2#006420000076030E
(1739300706.615100) can0 1C2#5B
(1739300706.618100) can0 1DA#AF000800000100F9
(1739300706.619100) can0 1DB#0000AE2A000000FC
(1739300706.619100) can0 1DC#B43F8503ECCCD839
(1739300706.625100) can0 1D4#F70700040346E089
(1739300706.625100) can0 1F2#006420000076000B
(1739300706.625100) can0 50A#0660000C0000
(1739300706.625100) can0 1C2#5C
(1739300706.628100) can0 1DA#AF0008000001017C
(1739300706.629100) can0 1DB#0000AE2A00000179
(1739300706.629100) can0 1DC#B43F8503E130C913
(1739300706.635100) can0 1D4#F70700044346E04E
(1739300706.635100) can0 1F2#006420000076010C
(1739300706.635100) can0 1C2#5D
(1739300706.638100) can0 1DA#AF00080000010276
(1739300706.638100) can0 55A#002F2F005F2F4AE8
(1739300706.639100) can0 1DB#0000AE2A00000273
(1739300706.639100) can0 1DC#B43F8503E520C691
(1739300706.645100) can0 1D4#F70700048346E082
(1739300706.645100) can0 1C2#5E
(1739300706.645100) can0 1F2#006420000076020D
(1739300706.646100) can0 50B#000000C00000
(1739300706.648100) can0 1DA#AF000800000103F3
(1739300706.649100) can0 1DB#0000AE2A000003F6
(1739300706.649100) can0 1DC#B43F8503E8C0CBC6
(1739300706.649100) can0 55B#5D405500FFC02136
(1739300706.650100) can0 5BC#20032026B2040194
(1739300706.655100) can0 1D4#F7070004C746E0A3
(1739300706.655100) can0 1C2#5F
(1739300706.656100) can0 1F2#1064200000780301
(1739300706.658100) can0 1DA#AF000800000100F9
(1739300706.659100) can0 1DB#0000AE2A000000FC
(1739300706.659100) can0 1DC#B43F8503ECCCD839
(1739300706.663100) can0 56E#4E
(1739300706.665100) can0 1C2#50
(1739300706.665100) can0 1D4#F70700040746E06F
(1739300706.666100) can0 1F2#106420000078000E
(1739300706.668100) can0 1DA#AF0018000001012E
(1739300706.669100) can0 1DB#0000AE2A00000179
(1739300706.669100) can0 1DC#B43F8503E130C913
(1739300706.675100) can0 1C2#51
(1739300706.676100) can0 1D4#F70700044746E0A8
(1739300706.676100) can0 1F2#106420000078010F
(1739300706.678100) can0 1DA#AF00180000010224
(1739300706.679100) can0 1DB#0000AE2A00000273
(1739300706.679100) can0 1DC#B43F8503E520C691
(1739300706.681100) can0 54A#100070020000002A
(1739300706.681100) can0 54B#0008800004000000
(1739300706.683100) can0 54C#FFFF000000F8FF00
(1739300706.683100) can0 54F#1F0000000B000C25
(1739300706.685100) can0 1C2#52
(1739300706.686100) can0 1D4#F70700048746E064
(1739300706.686100) can0 1F2#1064200000780200
(1739300706.688100) can0 1DA#AF001800000103A1
(1739300706.689100) can0 1DB#0000AE2A000003F6
(1739300706.689100) can0 1DC#B43F8503E8C0CBC6
(1739300706.695100) can0 1C2#53
(1739300706.696100) can0 1D4#F7070004C746E0A3
(1739300706.696100) can0 1F2#1064200000780301
(1739300706.697100) can0 380#1204180050050C23
(1739300706.697100) can0 5BF#006433004800001C
(1739300706.698100) can0 1DA#AF001800000100AB
(1739300706.699100) can0 1DB#0000AE2A000000FC
(1739300706.699100) can0 1DC#B43F8503ECCCD839
(1739300706.705100) can0 1C2#54
(1739300706.707100) can0 1D4#F70700040746E06F
(1739300706.707100) can0 1F2#106420000078000E
(1739300706.707100) can0 50C#00000000B2A6
(1739300706.708100) can0 1DA#AF0018000001012E
(1739300706.709100) can0 1DB#0000AE2A00000179
(1739300706.709100) can0 1DC#B43F8503E130C913
(1739300706.715100) can0 1C2#55
(1739300706.717100) can0 1D4#F70700044746E0A8
(1739300706.717100) can0 1F2#106420000078010F
(1739300706.718100) can0 1DA#AF00180000010224
(1739300706.719100) can0 1DB#FFE0AE2A00000233
(1739300706.719100) can0 1DC#B43F8503E520C691
(1739300706.725100) can0 1C2#56
(1739300706.727100) can0 1D4#F70700048746E064
(1739300706.727100) can0 1F2#1064200000780200
(1739300706.727100) can0 50A#0602000C0000
(1739300706.728100) can0 1DA#AF001800000103A1
(1739300706.729100) can0 1DB#FFE0AE2A000003B6
(1739300706.729100) can0 1DC#B43F8503E8C0CBC6
(1739300706.735100) can0 1C2#57
(1739300706.737100) can0 1D4#F7070004C746E0A3
(1739300706.737100) can0 1F2#1064200000780301
(1739300706.738100) can0 1DA#AF001800000100AB
(1739300706.738100) can0 55A#002F2F005F2F5B48
(1739300706.739100) can0 1DB#FFC0AE2A000000ED
(1739300706.739100) can0 1DC#B43F8503ECCCD839
(1739300706.745100) can0 1C2#58
(1739300706.747100) can0 1D4#F70700040746E06F
(1739300706.748100) can0 1F2#106420000078000E
(1739300706.748100) can0 1DA#AF0018000001012E
(1739300706.748100) can0 50B#000000C00000
(1739300706.749100) can0 1DB#FFC0AE2A00000168
(1739300706.749100) can0 1DC#B43F8503E130C913
(1739300706.750100) can0 55B#5D40AA00FFC0227B
(1739300706.750100) can0 5BC#20032C26B30521CC
(1739300706.755100) can0 1C2#59
(1739300706.758100) can0 1DA#AF00180000010224
(1739300706.758100) can0 1D4#F70700044746E0A8
(1739300706.758100) can0 1F2#106420000078010F
(1739300706.759100) can0 1DB#FFC0AE2A00000262
(1739300706.759100) can0 1DC#B43F8503E520C691
(1739300706.763100) can0 56E#4E
(1739300706.765100) can0 1C2#5A
(1739300706.768100) can0 1DA#AF001800000103A1
(1739300706.768100) can0 1D4#F70700048746E064
(1739300706.768100) can0 1F2#1064200000780200
(1739300706.769100) can0 1DB#FFA0AE2A00000314
(1739300706.769100) can0 1DC#B43F8503E8C0CBC6
(1739300706.775100) can0 1C2#5B
(1739300706.778100) can0 1DA#AF001800000100AB
(1739300706.778100) can0 1D4#F7070004C746E0A3
(1739300706.778100) can0 1F2#1064200000780301
(1739300706.779100) can0 1DB#FFA0AE2A0000001E
(1739300706.779100) can0 1DC#B43F8503ECCCD839
(1739300706.781100) can0 54A#9E0070020000002A
(1739300706.782100) can0 54B#0008800004000000
(1739300706.783100) can0 54C#FFFF000000F8FF00
(1739300706.784100) can0 54F#1F0000000B400C25
(1739300706.785100) can0 1C2#5C
(1739300706.788100) can0 1DA#AF0018000001012E
(1739300706.788100) can0 1D4#F70700040746E06F
(1739300706.789100) can0 1F2#106420000078000E
(1739300706.789100) can0 1DB#FFA0AE2A0000019B
(1739300706.790100) can0 1DC#B43F8503E130C913
(1739300706.795100) can0 1C2#5D
(1739300706.797100) can0 380#120418005005143D
(1739300706.797100) can0 5BF#006533004800002E
(1739300706.798100) can0 1DA#AF00180000010224
(1739300706.799100) can0 1D4#F70700044746E0A8
(1739300706.799100) can0 1F2#106420000078010F
(1739300706.799100) can0 1DB#FFA0AE2A00000291
(1739300706.799100) can0 1DC#B43F8503E520C691
(1739300706.805100) can0 1C2#5E
(1739300706.808100) can0 1DA#AF001800000103A1
(1739300706.809100) can0 1D4#F70700048746E064
(1739300706.809100) can0 1DB#FFA0AE2A00000314
(1739300706.809100) can0 1F2#1064200000780200
(1739300706.810100) can0 1DC#B43F8503E8C0CBC6
(1739300706.810100) can0 50C#000000015D5F
(1739300706.816100) can0 1C2#5F
(1739300706.818100) can0 1DA#AF001800000100AB
(1739300706.819100) can0 1DB#FFC0AE2A000000ED
(1739300706.819100) can0 1D4#F7070004C746E0A3
(1739300706.820100) can0 1DC#B43F8503ECCCD839
(1739300706.820100) can0 1F2#1064200000780301
(1739300706.820100) can0 5A9#FFFFFC1083800000
(1739300706.826100) can0 1C2#50
(1739300706.828100) can0 1DA#AF0018000001012E
(1739300706.829100) can0 1DB#FFC0AE2A00000168
(1739300706.829100) can0 1D4#F70700040746E06F
(1739300706.830100) can0 1DC#B43F8503E130C913
(1739300706.830100) can0 1F2#106420000078000E
(1739300706.830100) can0 50A#0622000C0000
(1739300706.836100) can0 1C2#51
(1739300706.838100) can0 1DA#AF00180000010224
(1739300706.838100) can0 55A#002F2F005F2F5B48
(1739300706.839100) can0 1DB#FFC0AE2A00000262
(1739300706.839100) can0 1DC#B43F8503E520C691
(1739300706.840100) can0 1D4#F70700044746E0A8
(1739300706.840100) can0 1F2#106420000078010F
(1739300706.846100) can0 1C2#52
(1739300706.848100) can0 1DA#AF001800000103A1
(1739300706.849100) can0 1DB#FFC0AE2A000003E7
(1739300706.850100) can0 1DC#B43F8503E8C0CBC6
(1739300706.850100) can0 1D4#F70700048746E064
(1739300706.850100) can0 1F2#1064200000780200
(1739300706.850100) can0 50B#000000C00000
(1739300706.851100) can0 55B#5D405500FFC023B9
(1739300706.851100) can0 5BC#20032C26B30521CC
(1739300706.856100) can0 1C2#53
(1739300706.858100) can0 1DA#AF001800000100AB
(1739300706.859100) can0 1DB#FFC0AE2A000000ED
(1739300706.859100) can0 1DC#B43F8503ECCCD839
(1739300706.860100) can0 1D4#F7070004C746E0A3
(1739300706.860100) can0 1F2#1064200000780301
(1739300706.863100) can0 56E#4E
(1739300706.866100) can0 1C2#54
(1739300706.868100) can0 1DA#AF0018000001012E
(1739300706.869100) can0 1DB#FFE0AE2A00000139
(1739300706.870100) can0 1DC#B43F8503E130C913
(1739300706.870100) can0 1D4#F70700040746E06F
(1739300706.871100) can0 1F2#106420000078000E
(1739300706.876100) can0 1C2#55
(1739300706.878100) can0 1DA#AF00180000010224
(1739300706.879100) can0 1DB#FFE0AE2A00000233
(1739300706.880100) can0 1DC#B43F8503E520C691
(1739300706.881100) can0 1D4#F70700044746E0A8
(1739300706.881100) can0 1F2#106420000078010F
(1739300706.881100) can0 54A#100070020000002A
(1739300706.882100) can0 54B#0008800004000000
(1739300706.883100) can0 54C#FFFF000000F8FF00
(1739300706.884100) can0 54F#1F0000000B800C25
(1739300706.886100) can0 1C2#56
(1739300706.888100) can0 1DA#AF001800000103A1
(1739300706.889100) can0 1DB#FFE0AE2A000003B6
(1739300706.890100) can0 1DC#B43F8503E8C0CBC6
(1739300706.891100) can0 1D4#F70700048746E064
(1739300706.891100) can0 1F2#1064200000780200
(1739300706.891100) can0 5B9#29CC67FF28
(1739300706.896100) can0 1C2#57
(1739300706.897100) can0 380#120418005005180E
(1739300706.897100) can0 5BF#006533004800003F
(1739300706.898100) can0 1DA#AF001800000100AB
(1739300706.899100) can0 1DB#FFE0AE2A000000BC
(1739300706.900100) can0 1DC#B43F8503ECCCD839
(1739300706.901100) can0 1D4#F7070004C746E0A3
(1739300706.901100) can0 1F2#1064200000780301
(1739300706.906100) can0 1C2#58
(1739300706.908100) can0 1DA#AF0018000001012E
(1739300706.909100) can0 1DB#FFE0AE2A00000139
(1739300706.910100) can0 1DC#B43F8503E130C913
(1739300706.911100) can0 1D4#F70700040746E06F
(1739300706.912100) can0 1F2#106420000078000E
(1739300706.912100) can0 50C#00000002B20D
(1739300706.916100) can0 1C2#59
(1739300706.918100) can0 1DA#AF00180000010224
(1739300706.919100) can0 1DB#FFE0AE2A00000233
(1739300706.920100) can0 1DC#B43F8503E520C691
(1739300706.922100) can0 1D4#F70700044746E0A8
(1739300706.922100) can0 1F2#106420000078010F
(1739300706.926100) can0 1C2#5A
(1739300706.928100) can0 1DA#AF001800000103A1
(1739300706.929100) can0 1DB#FFE0AE2A000003B6
(1739300706.930100) can0 1DC#B43F8503E8C0CBC6
(1739300706.932100) can0 1D4#F70700048746E064
(1739300706.932100) can0 1F2#1064200000780200
(1739300706.932100) can0 50A#0642000C0000
(1739300706.936100) can0 1C2#5B
(1739300706.938100) can0 1DA#AF001800000100AB
(1739300706.938100) can0 55A#002F2F005F2F5B48
(1739300706.939100) can0 1DB#FFE0AE2A000000BC
(1739300706.940100) can0 1DC#B43F8503ECCCD839
(1739300706.942100) can0 1D4#F7070004C746E0A3
(1739300706.942100) can0 1F2#1064200000780301
(1739300706.947100) can0 1C2#5C
(1739300706.948100) can0 1DA#AF0018000001012E
(1739300706.950100) can0 1DB#FFE0AE2A00000139
(1739300706.950100) can0 1DC#B43F8503E130C913
(1739300706.950100) can0 55B#5D40AA00FFC020F4
(1739300706.951100) can0 5BC#20032C26B30521CC
(1739300706.952100) can0 1D4#F70700040746E06F
(1739300706.953100) can0 1F2#106420000078000E
(1739300706.953100) can0 50B#000000C00000
(1739300706.956100) can0 1C2#5D
(1739300706.958100) can0 1DA#AF00180000010224
(1739300706.960100) can0 1DB#FFE0AE2A00000233
(1739300706.960100) can0 1DC#B43F8503E520C691
(1739300706.960100) can0 5C0#404C4C0004E4E100
(1739300706.961100) can0 5EB#E00FFFFFFFFFFFFF
(1739300706.963100) can0 1D4#F70700044746E0A8
(1739300706.963100) can0 1F2#106420000078010F
(1739300706.963100) can0 56E#4E
(1739300706.966100) can0 1C2#5E
(1739300706.968100) can0 1DA#AF001800000103A1
(1739300706.970100) can0 1DB#FFE0AE2A000003B6
(1739300706.970100) can0 1DC#B43F8503E8C0CBC6
(1739300706.973100) can0 1D4#F70700048746E064
(1739300706.973100) can0 1F2#1064200000780200
(1739300706.976100) can0 1C2#5F
(1739300706.978100) can0 1DA#AF001800000100AB
(1739300706.980100) can0 1DB#FFE0AE2A000000BC
(1739300706.980100) can0 1DC#B43F8503ECCCD839
(1739300706.981100) can0 54A#9E0070020000002A
(1739300706.982100) can0 54B#0008800004000000
(1739300706.983100) can0 54C#FFFF000000F8FF00
(1739300706.983100) can0 1D4#F7070004C746E0A3
(1739300706.983100) can0 1F2#1064200000780301
(1739300706.984100) can0 54F#1F0000000BC00C25
(1739300706.986100) can0 1C2#50
(1739300706.988100) can0 1DA#AF0018000001012E
(1739300706.990100) can0 1DB#FFE0AE2A00000139
(1739300706.990100) can0 1DC#B43F8503E130C913
(1739300706.993100) can0 1D4#F70700040746E06F
(1739300706.994100) can0 1F2#106420000078000E
(1739300706.996100) can0 1C2#51
(1739300706.997100) can0 380#120418005005181F
(1739300706.997100) can0 5BF#006533004800000C
(1739300706.998100) can0 1DA#AF00180000010224
(1739300707.000100) can0 1DB#FFE0AE2A00000233
(1739300707.000100) can0 1DC#B43F8503E520C691
(1739300707.004100) can0 1D4#F70700044746E0A8
(1739300707.004100) can0 1F2#106420000078010F
(1739300707.006100) can0 1C2#52
(1739300707.008100) can0 1DA#AF001800000103A1
(1739300707.010100) can0 1DB#FFE0AE2A000003B6
(1739300707.010100) can0 1DC#B43F8503E8C0CBC6
(1739300707.014100) can0 1D4#F70700048746E064
(1739300707.014100) can0 1F2#1064200000780200
(1739300707.014100) can0 50C#000000035DF4
(1739300707.016100) can0 1C2#53
(1739300707.018100) can0 1DA#AF001800000100AB
(1739300707.020100) can0 1DB#FFE0AE2A000000BC
(1739300707.020100) can0 1DC#B43F8503ECCCD839
(1739300707.024100) can0 1D4#F7070004C746E0A3
(1739300707.024100) can0 1F2#1064200000780301
(1739300707.026100) can0 1C2#54
(1739300707.028100) can0 1DA#AF0018000001012E
(1739300707.030100) can0 1DB#FFE0AE2A00000139
(1739300707.030100) can0 1DC#B43F8503E130C913
(1739300707.034100) can0 1D4#F70700040746E06F
(1739300707.034100) can0 1F2#106420000078000E
(1739300707.035100) can0 50A#0662000C0000
(1739300707.036100) can0 1C2#55
(1739300707.038100) can0 1DA#AF00180000010224
(1739300707.038100) can0 55A#002F2F005F2F5B48
(1739300707.040100) can0 1DB#FFE0AE2A00000233
(1739300707.040100) can0 1DC#B43F8503E520C691
(1739300707.045100) can0 1D4#F70700044746E0A8
(1739300707.045100) can0 1F2#106420000078010F
(1739300707.046100) can0 1C2#56
(1739300707.048100) can0 1DA#AF001800000103A1
(1739300707.050100) can0 1DB#FFE0AE2A000003B6
(1739300707.050100) can0 1DC#B43F8503E8C0CBC6
(1739300707.051100) can0 55B#5D405500FFC02136
(1739300707.051100) can0 5BC#20032C26B30521CC
(1739300707.055100) can0 1D4#F70700048746E064
(1739300707.055100) can0 1F2#1064200000780200
(1739300707.055100) can0 50B#000000C00000
(1739300707.056100) can0 1C2#57
(1739300707.058100) can0 1DA#AF001800000100AB
(1739300707.060100) can0 1DB#FFE0AE2A000000BC
(1739300707.060100) can0 1DC#B43F8503ECCCD839
(1739300707.063100) can0 56E#4E
(1739300707.065100) can0 1D4#F7070004C746E0A3
(1739300707.065100) can0 1F2#1064200000780301
(1739300707.066100) can0 1C2#58
(1739300707.068100) can0 1DA#AF0018000001012E
(1739300707.070100) can0 1DB#FFE0AE2A00000139
(1739300707.070100) can0 1DC#B43F8503E130C913
(1739300707.075100) can0 1D4#F70700040746E06F
(1739300707.075100) can0 1F2#106420000078000E
(1739300707.076100) can0 1C2#59
(1739300707.078100) can0 1DA#AF00180000010224
(1739300707.080100) can0 1DB#FFE0AE2A00000233
(1739300707.080100) can0 1DC#B43F8503E520C691
(1739300707.081100) can0 54A#100070020000002A
(1739300707.082100) can0 54B#0008800004000000
(1739300707.083100) can0 54C#FFFF000000F8FF00
(1739300707.084100) can0 54F#1F0000000B000C25
(1739300707.086100) can0 1D4#F70700044746E0A8
(1739300707.086100) can0 1F2#106420000078010F
(1739300707.086100) can0 1C2#5A
(1739300707.088100) can0 1DA#AF001800000103A1
(1739300707.090100) can0 1DB#FFE0AE2A000003B6
(1739300707.090100) can0 1DC#B43F8503E8C0CBC6
(1739300707.096100) can0 1D4#F70700048746E064
(1739300707.096100) can0 1F2#1064200000780200
(1739300707.096100) can0 1C2#5B
(1739300707.097100) can0 380#1204180050051820
(1739300707.097100) can0 5BF#006533004800001D
(1739300707.098100) can0 1DA#AF001800000100AB
(1739300707.100100) can0 1DB#FFE0AE2A000000BC
(1739300707.100100) can0 1DC#B43F8503ECCCD839
(1739300707.106100) can0 1D4#F7070004C746E0A3
(1739300707.106100) can0 1C2#5C
(1739300707.106100) can0 1F2#1064200000780301
(1739300707.108100) can0 1DA#AF0018000001012E
(1739300707.110100) can0 1DB#FFE0AE2A00000139
(1739300707.110100) can0 1DC#B43F8503E130C913
(1739300707.116100) can0 1D4#F70700040746E06F
(1739300707.116100) can0 1C2#5D
(1739300707.117100) can0 1F2#106420000078000E
(1739300707.117100) can0 50C#00000000B2A6
(1739300707.118100) can0 1DA#AF00180000010224
(1739300707.120100) can0 1DB#FFE0AE2A00000233
(1739300707.120100) can0 1DC#B43F8503E520C691
(1739300707.126100) can0 1C2#5E
(1739300707.126100) can0 1D4#F70700044746E0A8
(1739300707.127100) can0 1F2#106420000078010F
(1739300707.128100) can0 1DA#AF001800000103A1
(1739300707.130100) can0 1DB#FFE0AE2A000003B6
(1739300707.130100) can0 1DC#B43F8503E8C0CBC6
(1739300707.137100) can0 1D4#F70700048746E064
(1739300707.137100) can0 1C2#5F
(1739300707.137100) can0 1F2#1064200000780200
(1739300707.137100) can0 50A#0602000C0000
(1739300707.138100) can0 1DA#AF001800000100AB
(1739300707.138100) can0 55A#002F2F005F2F5B48
(1739300707.140100) can0 1DB#FFE0AE2A000000BC
(1739300707.140100) can0 1DC#B43F8503ECCCD839
(1739300707.146100) can0 1C2#50
(1739300707.147100) can0 1D4#F7070004C746E0A3
(1739300707.147100) can0 1F2#1064200000780301
(1739300707.148100) can0 1DA#AF0018000001012E
(1739300707.150100) can0 1DB#FFE0AE2A00000139
(1739300707.150100) can0 1DC#B43F8503E130C913
(1739300707.151100) can0 55B#5D40AA00FFC0227B
(1739300707.151100) can0 5BC#20032C26B30521CC
(1739300707.157100) can0 1C2#51
(1739300707.157100) can0 1D4#F70700040746E06F
(1739300707.157100) can0 1F2#106420000078000E
(1739300707.158100) can0 1DA#AF00180000010224
(1739300707.158100) can0 50B#000000C00000
(1739300707.160100) can0 1DB#FFE0AE2A00000233
(1739300707.160100) can0 1DC#B43F8503E520C691
(1739300707.163100) can0 56E#4E
(1739300707.166100) can0 1C2#52
(1739300707.167100) can0 1D4#F70700044746E0A8
(1739300707.168100) can0 1DA#AF001800000103A1
(1739300707.168100) can0 1F2#106420000078010F
(1739300707.170100) can0 1DB#FFE0AE2A000003B6
(1739300707.170100) can0 1DC#B43F8503E8C0CBC6
(1739300707.177100) can0 1C2#53
(1739300707.178100) can0 1DA#AF001800000100AB
(1739300707.178100) can0 1D4#F70700048746E064
(1739300707.178100) can0 1F2#1064200000780200
(1739300707.180100) can0 1DB#FFE0AE2A000000BC
(1739300707.180100) can0 1DC#B43F8503ECCCD839
(1739300707.181100) can0 54A#9E0070020000002A
(1739300707.182100) can0 54B#0008800004000000
(1739300707.183100) can0 54C#FFFF000000F8FF00
(1739300707.184100) can0 54F#1F0000000B400C25
(1739300707.186100) can0 1C2#54
(1739300707.188100) can0 1DA#AF0018000001012E
(1739300707.188100) can0 1D4#F7070004C746E0A3
(1739300707.188100) can0 1F2#1064200000780301
(1739300707.190100) can0 1DB#FFE0AE2A00000139
(1739300707.190100) can0 1DC#B43F8503E130C913
(1739300707.197100) can0 1C2#55
(1739300707.197100) can0 380#1204180050051C35
(1739300707.197100) can0 5BF#006533004800002E
(1739300707.178100) can0 1DA#AF001800000100AB
(1739300707.178100) can0 1D4#F70700048746E064
(1739300707.178100) can0 1F2#1064200000780200
(1739300707.180100) can0 1DB#FFE0AE2A000000BC
(1739300707.180100) can0 1DC#B43F8503ECCCD839
(1739300707.181100) can0 54A#9E0070020000002A
(1739300707.182100) can0 54B#0008800004000000
(1739300707.198100) can0 1D4#F70700040746E06F
(1739300707.198100) can0 1F2#106420000078000E
(1739300707.200100) can0 1DB#FFE0AE2A00000233
(1739300707.200100) can0 1DC#B43F8503E520C691
(1739300707.206100) can0 1C2#56
(1739300707.208100) can0 1DA#AF001800000103A1
(1739300707.208100) can0 1D4#F70700044746E0A8
(1739300707.209100) can0 1F2#106420000078010F
(1739300707.210100) can0 1DB#FFE0AE2A000003B6
(1739300707.211100) can0 1DC#B43F8503E8C0CBC6
(1739300707.217100) can0 1C2#57
(1739300707.218100) can0 1DA#AF001800000100AB
(1739300707.219100) can0 1D4#F70700048746E064
(1739300707.219100) can0 1F2#1064200000780200
(1739300707.219100) can0 50C#000000015D5F
(1739300707.220100) can0 1DB#FFE0AE2A000000BC
(1739300707.221100) can0 1DC#B43F8503ECCCD839
(1739300707.226100) can0 1C2#58
(1739300707.228100) can0 1DA#AF0018000001012E
(1739300707.229100) can0 1D4#F7070004C746E0A3
(1739300707.229100) can0 1F2#1064200000780301
(1739300707.230100) can0 1DB#FFE0AE2A00000139
(1739300707.231100) can0 1DC#B43F8503E130C913
(1739300707.237100) can0 1C2#59
(1739300707.238100) can0 1DA#AF00180000010224
(1739300707.238100) can0 55A#002F2F005F2F5B48
(1739300707.239100) can0 1D4#F70700040746E06F
(1739300707.239100) can0 1F2#106420000078000E
(1739300707.240100) can0 50A#0622000C0000
(1739300707.240100) can0 1DB#FFE0AE2A00000233
(1739300707.241100) can0 1DC#B43F8503E520C691
(1739300707.247100) can0 1C2#5A
(1739300707.248100) can0 1DA#AF001800000103A1
(1739300707.249100) can0 1D4#F70700044746E0A8
(1739300707.250100) can0 1F2#106420000078010F
(1739300707.251100) can0 1DB#FFE0AE2A000003B6
(1739300707.251100) can0 1DC#B43F8503E8C0CBC6
(1739300707.251100) can0 55B#5D405500FFC023B9
(1739300707.252100) can0 5BC#20032026B205416E
(1739300707.256100) can0 1C2#5B
(1739300707.257100) can0 380#1204180050051886
(1739300707.258100) can0 1DA#AF001800000100AB
(1739300707.260100) can0 1D4#F70700048746E064
(1739300707.260100) can0 1F2#1064200000780200
(1739300707.260100) can0 50B#000000C00000
(1739300707.261100) can0 1DB#FFE0AE2A000000BC
(1739300707.261100) can0 1DC#B43F8503ECCCD839
(1739300707.263100) can0 56E#4E
(1739300707.267100) can0 1C2#5C
(1739300707.268100) can0 1DA#AF0018000001012E
(1739300707.270100) can0 1D4#F7070004C746E0A3
(1739300707.270100) can0 1F2#1064200000780301
(1739300707.270100) can0 1DB#FFE0AE2A00000139
(1739300707.271100) can0 1DC#B43F8503E130C913
(1739300707.277100) can0 1C2#5D
(1739300707.278100) can0 1DA#AF00180000010224
(1739300707.280100) can0 1D4#F70700040746E06F
(1739300707.280100) can0 1F2#106420000078000E
(1739300707.281100) can0 1DB#FFE0AE2A00000233
(1739300707.281100) can0 1DC#B43F8503E520C691
(1739300707.281100) can0 54A#100070020000002A
(1739300707.282100) can0 54B#0008800004000000
(1739300707.283100) can0 54C#FFFF000000F8FF00
(1739300707.284100) can0 54F#1F0000000B800C25
(1739300707.287100) can0 1C2#5E
(1739300707.288100) can0 1DA#AF001800000103A1
(1739300707.290100) can0 1D4#F70700044746E0A8
(1739300707.291100) can0 1DB#FFC0AE2A000003E7
(1739300707.291100) can0 1F2#106420000078010F
(1739300707.291100) can0 1DC#B43F8503E8C0CBC6
(1739300707.297100) can0 1C2#5F
(1739300707.297100) can0 380#1204180050051C9B
(1739300707.297100) can0 5BF#0066330050000039
(1739300707.298100) can0 1DA#AF001800000100AB
(1739300707.301100) can0 1DB#FFC0AE2A000000ED
(1739300707.301100) can0 1D4#F70700048746E064
(1739300707.301100) can0 1DC#B43F8503ECCCD839
(1739300707.301100) can0 1F2#1064200000780200
(1739300707.307100) can0 1C2#50
(1739300707.308100) can0 1DA#AF0018000001012E
(1739300707.288100) can0 1DA#AF001800000103A1
(1739300707.290100) can0 1D4#F70700044746E0A8
(1739300707.291100) can0 1DB#FFC0AE2A000003E7
(1739300707.291100) can0 1F2#106420000078010F
(1739300707.291100) can0 1DC#B43F8503E8C0CBC6
(1739300707.297100) can0 1C2#5F
(1739300707.318100) can0 1DA#AF00180000010224
(1739300707.321100) can0 1DB#FFC0AE2A00000262
(1739300707.321100) can0 1DC#B43F8503E520C691
(1739300707.321100) can0 1D4#F70700040746E06F
(1739300707.321100) can0 1F2#106420000078000E
(1739300707.322100) can0 50C#00000002B20D
(1739300707.327100) can0 1C2#52
(1739300707.328100) can0 1DA#AF001800000103A1
(1739300707.331100) can0 1DB#FFC0AE2A000003E7
(1739300707.331100) can0 1DC#B43F8503E8C0CBC6
(1739300707.331100) can0 1D4#F70700044746E0A8
(1739300707.332100) can0 1F2#106420000078010F
(1739300707.332100) can0 5A9#FFFFFC1083800000
(1739300707.337100) can0 1C2#53
(1739300707.338100) can0 1DA#AF001800000100AB
(1739300707.338100) can0 55A#002F2F005F2F5B48
(1739300707.341100) can0 1DB#FFC0AE2A000000ED
(1739300707.341100) can0 1DC#B43F8503ECCCD839
(1739300707.342100) can0 1D4#F70700048746E064
(1739300707.342100) can0 1F2#1064200000780200
(1739300707.342100) can0 50A#0642000C0000
(1739300707.347100) can0 1C2#54
(1739300707.348100) can0 1DA#AF0018000001012E
(1739300707.351100) can0 1DB#FFE0AE2A00000139
(1739300707.351100) can0 1DC#B43F8503E130C913
(1739300707.351100) can0 55B#5D40AA00FFC020F4
(1739300707.352100) can0 5BC#20032026B205416E
(1739300707.352100) can0 1D4#F7070004C746E0A3
(1739300707.352100) can0 1F2#1064200000780301
(1739300707.357100) can0 1C2#55
(1739300707.358100) can0 1DA#AF00180000010224
(1739300707.361100) can0 1DB#FFE0AE2A00000233
(1739300707.361100) can0 1DC#B43F8503E520C691
(1739300707.362100) can0 1D4#F70700040746E06F
(1739300707.362100) can0 1F2#106420000078000E
(1739300707.363100) can0 50B#000000C00000
(1739300707.363100) can0 56E#4E
(1739300707.367100) can0 1C2#56
(1739300707.368100) can0 1DA#AF001800000103A1
(1739300707.371100) can0 1DB#FFE0AE2A000003B6
(1739300707.371100) can0 1DC#B43F8503E8C0CBC6
(1739300707.372100) can0 1D4#F70700044746E0A8
(1739300707.373100) can0 1F2#106420000078010F
(1739300707.377100) can0 1C2#57
(1739300707.378100) can0 1DA#AF001800000100AB
(1739300707.381100) can0 1DB#FFE0AE2A000000BC
(1739300707.381100) can0 1DC#B43F8503ECCCD839
(1739300707.381100) can0 54A#9E0070020000002A
(1739300707.382100) can0 54B#0008800004000000
(1739300707.383100) can0 1D4#F70700048746E064
(1739300707.383100) can0 1F2#1064200000780200
(1739300707.383100) can0 54C#FFFF000000F8FF00
(1739300707.384100) can0 54F#1F0000000BC00C25
(1739300707.387100) can0 1C2#58
(1739300707.388100) can0 1DA#AF0018000001012E
(1739300707.391100) can0 1DB#FFE0AE2A00000139
(1739300707.391100) can0 1DC#B43F8503E130C913
(1739300707.393100) can0 1D4#F7070004C746E0A3
(1739300707.393100) can0 1F2#1064200000780301
(1739300707.397100) can0 1C2#59
(1739300707.397100) can0 380#12041800500520A1
(1739300707.397100) can0 5BF#0065335850000002
(1739300707.398100) can0 1DA#AF00180000010224
(1739300707.401100) can0 1DB#FFE0AE2A00000233
(1739300707.401100) can0 1DC#B43F8503E520C691
(1739300707.403100) can0 1D4#F70700040746E06F
(1739300707.403100) can0 1F2#106420000078000E
(1739300707.403100) can0 5B9#29CC67FF28
(1739300707.407100) can0 1C2#5A
(1739300707.408100) can0 1DA#AF001800000103A1
(1739300707.411100) can0 1DB#FFE0AE2A000003B6
(1739300707.411100) can0 1DC#B43F8503E8C0CBC6
(1739300707.413100) can0 1D4#F70700044746E0A8
(1739300707.414100) can0 1F2#106420000078010F
(1739300707.417100) can0 1C2#5B
(1739300707.418100) can0 1DA#AF001800000100AB
(1739300707.421100) can0 1DB#FFE0AE2A000000BC
(1739300707.421100) can0 1DC#B43F8503ECCCD839
(1739300707.424100) can0 1D4#F70700048746E064
(1739300707.424100) can0 1F2#1064200000780200
(1739300707.424100) can0 50C#000000035DF4
(1739300707.427100) can0 1C2#5C
(1739300707.428100) can0 1DA#AF0018000001012E
(1739300707.431100) can0 1DB#FFE0AE2A00000139
(1739300707.431100) can0 1DC#B43F8503E130C913
(1739300707.434100) can0 1D4#F7070004C746E0A3
(1739300707.434100) can0 1F2#1064200000780301
(1739300707.437100) can0 1C2#5D
(1739300707.438100) can0 1DA#AF00180000010224
(1739300707.438100) can0 55A#002F2F005F2F5B48
(1739300707.441100) can0 1DB#FFE0AE2A00000233
(1739300707.441100) can0 1DC#B43F8503E520C691
(1739300707.444100) can0 1D4#F70700040746E06F
(1739300707.444100) can0 1F2#106420000078000E
(1739300707.444100) can0 50A#0662000C0000
(1739300707.447100) can0 1C2#5E
(1739300707.448100) can0 1DA#AF001800000103A1
(1739300707.451100) can0 1DB#FFE0AE2A000003B6
(1739300707.451100) can0 1DC#B43F8503E8C0CBC6
(1739300707.452100) can0 55B#5D405500FFC02136
(1739300707.452100) can0 5BC#20032026B205416E
(1739300707.454100) can0 1D4#F70700044746E0A8
(1739300707.455100) can0 1F2#106420000078010F
(1739300707.457100) can0 1C2#5F
(1739300707.458100) can0 1DA#AF001800000100AB
(1739300707.461100) can0 1DB#FFE0AE2A000000BC
(1739300707.461100) can0 1DC#B43F8503ECCCD839
(1739300707.462100) can0 5C0#C04C4C000454E100
(1739300707.462100) can0 5EB#E00FFFFFFFFFFFFF
(1739300707.463100) can0 56E#4E
(1739300707.465100) can0 1D4#F70700048746E064
(1739300707.465100) can0 1F2#1064200000780200
(1739300707.465100) can0 50B#000000C00000
(1739300707.467100) can0 1C2#50
(1739300707.468100) can0 1DA#AF0018000001012E
(1739300707.471100) can0 1DB#FFE0AE2A00000139
(1739300707.471100) can0 1DC#B43F8503E130C913
(1739300707.475100) can0 1D4#F7070004C746E0A3
(1739300707.475100) can0 1F2#1064200000780301
(1739300707.477100) can0 1C2#51
(1739300707.478100) can0 1DA#AF00180000010224
(1739300707.481100) can0 1DB#FFE0AE2A00000233
(1739300707.481100) can0 54A#100070020000002A
(1739300707.481100) can0 1DC#B43F8503E520C691
(1739300707.482100) can0 54B#0008800004000000
(1739300707.483100) can0 54C#FFFF000000F8FF00
(1739300707.484100) can0 54F#1F0000000B000C25
(1739300707.485100) can0 1D4#F70700040746E06F
(1739300707.485100) can0 1F2#106420000078000E
(1739300707.487100) can0 1C2#52
(1739300707.488100) can0 1DA#AF001800000103A1
(1739300707.491100) can0 1DB#FFE0AE2A000003B6
(1739300707.491100) can0 1DC#B43F8503E8C0CBC6
(1739300707.495100) can0 1D4#F70700044746E0A8
(1739300707.495100) can0 1F2#106420000078010F
(1739300707.497100) can0 380#12041800500524B6
(1739300707.498100) can0 1DA#AF001800000100AB
(1739300707.498100) can0 1C2#53
(1739300707.498100) can0 5BF#006533585800001B
(1739300707.501100) can0 1DB#FFE0AE2A000000BC
(1739300707.501100) can0 1DC#B43F8503ECCCD839
(1739300707.505100) can0 1D4#F70700048746E064
(1739300707.506100) can0 1F2#1064200000780200
(1739300707.507100) can0 1C2#54
(1739300707.508100) can0 1DA#AF0018000001012E
(1739300707.511100) can0 1DB#FFE0AE2A00000139
(1739300707.511100) can0 1DC#B43F8503E130C913
